Time Stamp,ID,Extended,Dir,Bus,LEN,D1,D2,D3,D4,D5,D6,D7,D8
673319,0000019F,false,Rx,0,8,E1,E1,7D,05,00,6A,50,FE,
674280,00000155,false,Rx,0,8,43,87,C5,54,96,68,02,C3,
675054,000001C7,false,Rx,0,4,AA,A0,FF,C0,00,00,00,00,
677110,00000157,false,Rx,0,8,D5,BB,09,C4,FF,E0,00,80,
678362,000001A1,false,Rx,0,8,B0,C5,5C,10,C5,8C,80,20,
681408,00000500,false,Rx,0,5,02,70,03,78,DB,00,00,00,
683139,0000019F,false,Rx,0,8,E1,E1,7D,0A,00,6A,50,FE,
684048,00000155,false,Rx,0,8,43,87,C5,54,96,68,02,C3,
684875,000004F7,false,Rx,0,8,00,1A,08,00,90,30,06,F0,
685050,000001C7,false,Rx,0,4,AA,A0,FF,C0,00,00,00,00,
685334,00000428,false,Rx,0,8,00,00,00,7F,00,00,00,00,
685560,0000042F,false,Rx,0,2,00,20,00,00,00,00,00,00,
686981,00000157,false,Rx,0,8,D5,0B,09,C4,FF,E0,00,80,
688096,000001A1,false,Rx,0,8,B0,C5,5C,10,C5,8C,80,20,
693107,0000019F,false,Rx,0,8,E1,E1,7D,0F,00,6A,50,FE,
693377,00000511,false,Rx,0,7,00,D8,E3,EF,91,6D,63,00,
694029,00000155,false,Rx,0,8,43,87,C5,54,96,68,02,C3,
694827,000001C7,false,Rx,0,4,AA,A0,FF,C0,00,00,00,00,
697006,00000157,false,Rx,0,8,D5,5B,09,C4,FF,E0,00,80,
698109,000001A1,false,Rx,0,8,B1,05,5C,10,C5,8C,80,20,
703271,0000019F,false,Rx,0,8,E1,E1,7D,04,00,6A,50,FE,
704004,00000155,false,Rx,0,8,43,87,C4,54,96,68,02,C3,
704887,000001C7,false,Rx,0,4,AA,A0,FF,C0,00,00,00,00,
707017,00000157,false,Rx,0,8,D5,AB,09,C4,FF,E0,00,80,
708254,000001A1,false,Rx,0,8,B0,C5,5C,10,C5,8C,80,20,
713168,0000019F,false,Rx,0,8,E1,E1,7D,09,00,6A,50,FE,
714025,00000155,false,Rx,0,8,43,87,C4,54,96,68,02,C3,
714983,000001C7,false,Rx,0,4,AA,A0,FF,C0,00,00,00,00,
716304,00000445,false,Rx,0,7,80,55,55,65,04,82,00,00,
717094,00000157,false,Rx,0,8,D5,FB,09,C4,FF,E0,00,80,
718145,000001A1,false,Rx,0,8,B1,05,5C,10,C5,8C,80,20,
721923,00000423,false,Rx,0,8,0B,1D,00,02,B2,80,5D,D8,
723294,0000019F,false,Rx,0,8,E1,E1,7D,0E,00,6A,50,FE,
724206,00000155,false,Rx,0,8,43,87,C5,54,96,68,02,C3,
724217,00000424,false,Rx,0,8,11,40,56,C8,33,5E,AA,34,
724448,00000425,false,Rx,0,8,2A,BA,44,9C,42,1A,CD,0B,
724668,000004AE,false,Rx,0,8,D2,B2,3C,A0,92,5A,88,84,
724861,00000659,false,Rx,0,4,26,00,03,36,00,00,00,00,
725022,000001C7,false,Rx,0,4,AA,A0,FF,C0,00,00,00,00,
725200,000004AF,false,Rx,0,5,65,3B,4B,3A,40,00,00,00,
727287,00000157,false,Rx,0,8,D5,4B,09,C4,FF,E0,00,80,
727295,00000426,false,Rx,0,8,00,60,01,00,53,18,00,40,
728369,000001A1,false,Rx,0,8,B0,C5,5C,10,C5,8C,80,20,
733293,0000019F,false,Rx,0,8,E1,E1,7D,03,00,6A,50,FE,
734135,00000155,false,Rx,0,8,43,87,C5,54,96,68,02,C3,
734910,000001C7,false,Rx,0,4,AA,A0,FF,C0,00,00,00,00,
737169,00000157,false,Rx,0,8,D5,9B,09,C4,FF,E0,00,80,
738260,000001A1,false,Rx,0,8,B1,05,5C,10,C5,8C,80,20,
741951,00000435,false,Rx,0,8,FF,FF,1E,0B,2E,10,00,00,
743210,0000019F,false,Rx,0,8,E1,E1,7D,08,00,6A,50,FE,
743401,00000419,false,Rx,0,6,5E,22,32,E6,42,00,00,00,
744050,00000155,false,Rx,0,8,43,87,C5,54,96,68,02,C3,
744918,000001C7,false,Rx,0,4,AA,A0,FF,C0,00,00,00,00,
747210,00000157,false,Rx,0,8,D5,EB,09,C4,FF,E0,00,80,
747220,00000436,false,Rx,0,6,86,16,64,3D,FF,DC,00,00,
748357,000001A1,false,Rx,0,8,B1,05,5C,10,C5,8C,80,20,
753284,0000019F,false,Rx,0,8,E1,E1,7D,0D,00,6A,50,FE,
754215,00000155,false,Rx,0,8,43,87,C5,54,96,68,02,C3,
755107,000001C7,false,Rx,0,4,AA,A0,FF,C0,00,00,00,00,
757112,00000157,false,Rx,0,8,D5,3B,09,C4,FF,E0,00,80,
758356,000001A1,false,Rx,0,8,B0,C5,5C,10,C5,8C,80,20,
763404,0000019F,false,Rx,0,8,E1,E1,7D,02,00,6A,50,FE,
764307,00000155,false,Rx,0,8,43,87,C4,54,96,68,02,C3,
765003,000001C7,false,Rx,0,4,AA,A0,FF,C0,00,00,00,00,
767238,00000157,false,Rx,0,8,D5,8B,09,C4,FF,E0,00,80,
768363,000001A1,false,Rx,0,8,B0,C5,5C,10,C5,8C,80,20,
773219,0000019F,false,Rx,0,8,E1,E1,7D,07,00,6A,50,FE,
774072,00000155,false,Rx,0,8,43,87,C4,54,96,68,02,C3,
775116,000001C7,false,Rx,0,4,AA,A0,FF,C0,00,00,00,00,
776977,00000157,false,Rx,0,8,D5,DB,09,C4,FF,E0,00,80,
778144,000001A1,false,Rx,0,8,B1,05,5C,10,C5,8C,80,20,
781179,00000500,false,Rx,0,5,02,23,A6,2B,82,00,00,00,
783382,0000019F,false,Rx,0,8,E1,E1,7D,0C,00,6A,50,FE,
784240,00000155,false,Rx,0,8,43,87,C5,54,96,68,02,C3,
785100,000004F7,false,Rx,0,8,00,1A,08,00,90,30,06,F0,
785120,000001C7,false,Rx,0,4,AA,A0,FF,C0,00,00,00,00,
785492,00000428,false,Rx,0,8,00,00,00,7F,00,00,00,00,
785612,0000042F,false,Rx,0,2,00,20,00,00,00,00,00,00,
787017,00000157,false,Rx,0,8,D5,2B,09,C4,FF,E0,00,80,
788354,000001A1,false,Rx,0,8,B0,C5,5C,10,C5,8C,80,20,
793386,0000019F,false,Rx,0,8,E1,E1,7D,01,00,6A,50,FE,
793396,00000511,false,Rx,0,7,00,17,AC,A8,FC,7A,46,00,
794283,00000155,false,Rx,0,8,43,87,C5,54,96,68,02,C3,
795133,000001C7,false,Rx,0,4,AA,A0,FF,C0,00,00,00,00,
797082,00000157,false,Rx,0,8,D5,7B,09,C4,FF,E0,00,80,
798255,000001A1,false,Rx,0,8,B0,C5,5C,10,C5,8C,80,20,
803406,0000019F,false,Rx,0,8,E1,E1,7D,06,00,6A,50,FE,
804263,00000155,false,Rx,0,8,43,87,C5,54,96,68,02,C3,
804957,000001C7,false,Rx,0,4,AA,A0,FF,C0,00,00,00,00,
807089,00000157,false,Rx,0,8,D5,CB,09,C4,FF,E0,00,80,
808189,000001A1,false,Rx,0,8,B1,05,5C,10,C5,8C,80,20,
813205,0000019F,false,Rx,0,8,E1,E1,7D,0B,00,6A,50,FE,
814213,00000155,false,Rx,0,8,43,87,C5,54,96,68,02,C3,
814957,000001C7,false,Rx,0,4,AA,A0,FF,C0,00,00,00,00,
816483,00000445,false,Rx,0,7,80,55,55,65,04,82,00,00,
817111,00000157,false,Rx,0,8,D5,1B,09,C4,FF,E0,00,80,
818383,000001A1,false,Rx,0,8,B1,05,5C,10,C5,8C,80,20,
821957,00000423,false,Rx,0,8,0B,1D,00,02,B2,80,5D,D8,
823190,0000019F,false,Rx,0,8,E1,E1,7D,00,00,6A,50,FE,
823971,00000155,false,Rx,0,8,43,87,C5,54,96,68,02,C3,
824194,00000424,false,Rx,0,8,11,40,56,C8,33,5E,AA,34,
824447,00000425,false,Rx,0,8,2A,BA,44,9C,42,1A,CD,0B,
824920,000001C7,false,Rx,0,4,AA,A0,FF,C0,00,00,00,00,
826966,00000157,false,Rx,0,8,D5,6B,09,C4,FF,E0,00,80,
827220,00000426,false,Rx,0,8,00,60,01,00,53,18,00,40,
828144,000001A1,false,Rx,0,8,B0,C5,5C,10,C5,8C,80,20,
833169,0000019F,false,Rx,0,8,E1,E1,7D,05,00,6A,50,FE,
833993,00000155,false,Rx,0,8,43,87,C4,54,96,68,02,C3,
834912,000001C7,false,Rx,0,4,AA,A0,FF,C0,00,00,00,00,
836967,00000157,false,Rx,0,8,D5,BB,09,C4,FF,E0,00,80,
838149,000001A1,false,Rx,0,8,B1,05,5C,10,C5,8C,80,20,
841889,00000435,false,Rx,0,8,FF,FF,1E,0B,2E,10,00,00,
843164,0000019F,false,Rx,0,8,E1,E1,7D,0A,00,6A,50,FE,
843368,00000419,false,Rx,0,6,5E,22,32,E6,42,00,00,00,
843991,00000155,false,Rx,0,8,43,87,C5,54,96,68,02,C3,
844913,000001C7,false,Rx,0,4,AA,A0,FF,C0,00,00,00,00,
846942,00000157,false,Rx,0,8,D5,0B,09,C4,FF,E0,00,80,
847141,00000436,false,Rx,0,6,86,16,64,3D,FF,DC,00,00,
848138,000001A1,false,Rx,0,8,B1,05,5C,10,C5,8C,80,20,
853139,0000019F,false,Rx,0,8,E1,E1,7D,0F,00,6A,50,FE,
853993,00000155,false,Rx,0,8,43,87,C5,54,96,68,02,C3,
854939,000001C7,false,Rx,0,4,AA,A0,FF,C0,00,00,00,00,
856939,00000157,false,Rx,0,8,D5,5B,09,C4,FF,E0,00,80,
858139,000001A1,false,Rx,0,8,B0,C5,5C,10,C5,8C,80,20,
863164,0000019F,false,Rx,0,8,E1,E1,7D,04,00,6A,50,FE,
864064,00000155,false,Rx,0,8,43,87,C5,54,96,68,02,C3,
864940,000001C7,false,Rx,0,4,AA,A0,FF,C0,00,00,00,00,
866988,00000157,false,Rx,0,8,D5,AB,09,C4,FF,E0,00,80,
868165,000001A1,false,Rx,0,8,B1,05,5C,10,C5,8C,80,20,
873168,0000019F,false,Rx,0,8,E1,E1,7D,09,00,6A,50,FE,
874040,00000155,false,Rx,0,8,43,87,C4,54,96,68,02,C3,
874939,000001C7,false,Rx,0,4,AA,A0,FF,C0,00,00,00,00,
876997,00000157,false,Rx,0,8,D5,FB,09,C4,FF,E0,00,80,
878139,000001A1,false,Rx,0,8,B1,05,5C,10,C5,8C,80,20,
881072,00000500,false,Rx,0,5,02,86,69,ED,01,00,00,00,
883120,0000019F,false,Rx,0,8,E1,E1,7D,0E,00,6A,50,FE,
883992,00000155,false,Rx,0,8,43,87,C4,54,96,68,02,C3,
884967,000004F7,false,Rx,0,8,00,1A,08,00,90,30,06,F0,
885190,000001C7,false,Rx,0,4,AA,A0,FF,C0,00,00,00,00,
885505,00000428,false,Rx,0,8,00,00,00,7F,00,00,00,00,
885602,0000042F,false,Rx,0,2,00,20,00,00,00,00,00,00,
887018,00000157,false,Rx,0,8,D5,4B,09,C4,FF,E0,00,80,
888093,000001A1,false,Rx,0,8,B0,C5,5C,10,C5,8C,80,20,
893168,0000019F,false,Rx,0,8,E1,E1,7D,03,00,6A,50,FE,
893417,00000511,false,Rx,0,7,00,56,75,61,67,87,29,00,
894064,00000155,false,Rx,0,8,43,87,C4,54,96,68,02,C3,
894964,000001C7,false,Rx,0,4,AA,A0,FF,C0,00,00,00,00,
896985,00000157,false,Rx,0,8,D5,9B,09,C4,FF,E0,00,80,
898140,000001A1,false,Rx,0,8,B0,C5,5C,10,C5,8C,80,20,
903167,0000019F,false,Rx,0,8,E1,E1,7D,08,00,6A,50,FE,
904005,00000155,false,Rx,0,8,43,87,C5,54,96,68,02,C3,
904956,000001C7,false,Rx,0,4,AA,A0,FF,C0,00,00,00,00,
906967,00000157,false,Rx,0,8,D5,EB,09,C4,FF,E0,00,80,
908128,000001A1,false,Rx,0,8,B1,05,5C,10,C5,8C,80,20,
913164,0000019F,false,Rx,0,8,E1,E1,7D,0D,00,6A,50,FE,
913989,00000155,false,Rx,0,8,43,87,C5,54,96,68,02,C3,
914966,000001C7,false,Rx,0,4,AA,A0,FF,C0,00,00,00,00,
916261,00000445,false,Rx,0,7,80,55,55,65,04,82,00,00,
916992,00000157,false,Rx,0,8,D5,3B,09,C4,FF,E0,00,80,
918139,000001A1,false,Rx,0,8,B0,C5,5C,10,C5,8C,80,20,
921889,00000423,false,Rx,0,8,0B,1D,00,02,5D,80,B2,D8,
923166,0000019F,false,Rx,0,8,E1,E1,7D,02,00,6A,50,FE,
923920,00000155,false,Rx,0,8,43,87,C5,54,96,68,02,C3,
924192,00000424,false,Rx,0,8,11,40,56,C8,33,5E,55,34,
924423,00000425,false,Rx,0,8,2A,BA,44,9C,42,1A,CD,0B,
924964,000001C7,false,Rx,0,4,AA,A0,FF,C0,00,00,00,00,
926964,00000157,false,Rx,0,8,D5,8B,09,C4,FF,E0,00,80,
927218,00000426,false,Rx,0,8,00,60,01,00,53,18,00,40,
928123,000001A1,false,Rx,0,8,B0,C5,5C,10,C5,8C,80,20,
933165,0000019F,false,Rx,0,8,E1,E1,7D,07,00,6A,50,FE,
933991,00000155,false,Rx,0,8,43,87,C5,54,96,68,02,C3,
934965,000001C7,false,Rx,0,4,AA,A0,FF,C0,00,00,00,00,
936968,00000157,false,Rx,0,8,D5,DB,09,C4,FF,E0,00,80,
938139,000001A1,false,Rx,0,8,B1,05,5C,10,C5,8C,80,20,
941916,00000435,false,Rx,0,8,FF,FF,1E,0B,2E,10,00,00,
943164,0000019F,false,Rx,0,8,E1,E1,7D,0C,00,6A,50,FE,
943418,00000419,false,Rx,0,6,5E,22,32,E6,42,00,00,00,
943989,00000155,false,Rx,0,8,43,87,C4,54,96,68,02,C3,
944972,000001C7,false,Rx,0,4,AA,A0,FF,C0,00,00,00,00,
947065,00000157,false,Rx,0,8,D5,2B,09,C4,FF,E0,00,80,
947272,00000436,false,Rx,0,6,86,16,64,3D,FF,DC,00,00,
948136,000001A1,false,Rx,0,8,B1,05,5C,10,C5,8C,80,20,
953119,0000019F,false,Rx,0,8,E1,E1,7D,01,00,6A,50,FE,
953939,00000155,false,Rx,0,8,43,87,C4,54,96,68,02,C3,
954938,000001C7,false,Rx,0,4,AA,A0,FF,C0,00,00,00,00,
956934,00000157,false,Rx,0,8,D5,7B,09,C4,FF,E0,00,80,
958130,000001A1,false,Rx,0,8,B1,05,5C,10,C5,8C,80,20,
963159,0000019F,false,Rx,0,8,E1,E1,7D,06,00,6A,50,FE,
964081,00000155,false,Rx,0,8,43,87,C5,54,96,68,02,C3,
964984,000001C7,false,Rx,0,4,AA,A0,FF,C0,00,00,00,00,
967005,00000157,false,Rx,0,8,D5,CB,09,C4,FF,E0,00,80,
968129,000001A1,false,Rx,0,8,B0,C5,5C,10,C5,8C,80,20,
973146,0000019F,false,Rx,0,8,E1,E1,7D,0B,00,6A,50,FE,
973998,00000155,false,Rx,0,8,43,87,C5,54,96,68,02,C3,
974970,000001C7,false,Rx,0,4,AA,A0,FF,C0,00,00,00,00,
976990,00000157,false,Rx,0,8,D5,1B,09,C4,FF,E0,00,80,
978131,000001A1,false,Rx,0,8,B0,C5,5C,10,C5,8C,80,20,
981358,00000500,false,Rx,0,5,02,10,E0,5F,AD,00,00,00,
983155,0000019F,false,Rx,0,8,E1,E1,7D,00,00,6A,50,FE,
984000,00000155,false,Rx,0,8,43,87,C5,54,96,68,02,C3,
985051,000004F7,false,Rx,0,8,00,1A,08,00,90,30,06,F0,
985229,000001C7,false,Rx,0,4,AA,A0,FF,C0,00,00,00,00,
985481,00000428,false,Rx,0,8,00,00,00,7F,00,00,00,00,
985650,0000042F,false,Rx,0,2,00,20,00,00,00,00,00,00,
986960,00000157,false,Rx,0,8,D5,6B,09,C4,FF,E0,00,80,
988126,000001A1,false,Rx,0,8,B1,05,5C,10,C5,8C,80,20,
993116,0000019F,false,Rx,0,8,E1,E1,7D,05,00,6A,50,FE,
993386,00000511,false,Rx,0,7,00,95,3E,1A,D2,94,0C,00,
994011,00000155,false,Rx,0,8,43,87,C5,54,96,68,02,C3,
995052,000001C7,false,Rx,0,4,AA,A0,FF,C0,00,00,00,00,
997214,00000157,false,Rx,0,8,D5,BB,09,C4,FF,E0,00,80,
998168,000001A1,false,Rx,0,8,B0,C5,5C,10,C5,8C,80,20,
1001169,0000069F,false,Rx,0,4,71,30,28,2F,00,00,00,00,
1003113,0000019F,false,Rx,0,8,E1,E1,7D,0A,00,6A,50,FE,
1004053,00000155,false,Rx,0,8,43,87,C5,54,96,68,02,C3,
1005025,000001C7,false,Rx,0,4,AA,A0,FF,C0,00,00,00,00,
1006999,00000157,false,Rx,0,8,D5,0B,09,C4,FF,E0,00,80,
1008086,000001A1,false,Rx,0,8,B0,C5,5C,10,C5,8C,80,20,
1013373,0000019F,false,Rx,0,8,E1,E1,7D,0F,00,6A,50,FE,
1014177,00000155,false,Rx,0,8,43,87,C4,54,96,68,02,C3,
1015125,000001C7,false,Rx,0,4,AA,A0,FF,C0,00,00,00,00,
1016378,00000445,false,Rx,0,7,80,55,AA,65,04,82,00,00,
1017154,00000157,false,Rx,0,8,D5,5B,09,C4,FF,E0,00,80,
1018402,000001A1,false,Rx,0,8,B1,05,5C,10,C5,8C,80,20,
1021899,00000423,false,Rx,0,8,0B,1D,00,02,5D,80,B2,D8,
1023396,0000019F,false,Rx,0,8,E1,E1,7D,04,00,6A,50,FE,
1024076,00000155,false,Rx,0,8,43,87,C4,54,96,68,02,C3,
1024200,00000424,false,Rx,0,8,11,40,56,C8,33,5E,55,34,
1024429,00000425,false,Rx,0,8,2A,BA,44,9C,42,1A,CD,0B,
1024965,000001C7,false,Rx,0,4,AA,A0,FF,C0,00,00,00,00,
1027082,00000157,false,Rx,0,8,D5,AB,09,C4,FF,E0,00,80,
1027315,00000426,false,Rx,0,8,00,60,01,00,53,18,00,40,
1028197,000001A1,false,Rx,0,8,B1,05,5C,10,C5,8C,80,20,
1033278,0000019F,false,Rx,0,8,E1,E1,7D,09,00,6A,50,FE,
1034198,00000155,false,Rx,0,8,43,87,C5,54,96,68,02,C3,
1035243,000001C7,false,Rx,0,4,AA,A0,FF,C0,00,00,00,00,
1037077,00000157,false,Rx,0,8,D5,FB,09,C4,FF,E0,00,80,
1038322,000001A1,false,Rx,0,8,B0,C5,5C,10,C5,8C,80,20,
1041980,00000435,false,Rx,0,8,FF,FF,1E,0B,2E,10,00,00,
1043379,0000019F,false,Rx,0,8,E1,E1,7D,0E,00,6A,50,FE,
1043387,00000419,false,Rx,0,6,5E,22,32,E6,42,00,00,00,
1044106,00000155,false,Rx,0,8,43,87,C5,54,96,68,02,C3,
1045156,000001C7,false,Rx,0,4,AA,A0,FF,C0,00,00,00,00,
1047151,00000157,false,Rx,0,8,D5,4B,09,C4,FF,E0,00,80,
1047161,00000436,false,Rx,0,6,86,16,64,3D,FF,DC,00,00,
1048378,000001A1,false,Rx,0,8,B1,05,5C,10,C5,8C,80,20,
1053382,0000019F,false,Rx,0,8,E1,E1,7D,03,00,6A,50,FE,
1054026,00000155,false,Rx,0,8,43,87,C5,54,96,68,02,C3,
1055030,000001C7,false,Rx,0,4,AA,A0,FF,C0,00,00,00,00,
1056997,00000157,false,Rx,0,8,D5,9B,09,C4,FF,E0,00,80,
1058253,000001A1,false,Rx,0,8,B1,05,5C,10,C5,8C,80,20,
1063408,0000019F,false,Rx,0,8,E1,E1,7D,08,00,6A,50,FE,
1064206,00000155,false,Rx,0,8,43,87,C5,54,96,68,02,C3,
1065255,000001C7,false,Rx,0,4,AA,A0,FF,C0,00,00,00,00,
1067227,00000157,false,Rx,0,8,D5,EB,09,C4,FF,E0,00,80,
1068105,000001A1,false,Rx,0,8,B0,C5,5C,10,C5,8C,80,20,
1073172,0000019F,false,Rx,0,8,E1,E1,7D,0D,00,6A,50,FE,
1074041,00000155,false,Rx,0,8,43,87,C4,54,96,68,02,C3,
1075041,000001C7,false,Rx,0,4,AA,A0,FF,C0,00,00,00,00,
1076981,00000157,false,Rx,0,8,D5,3B,09,C4,FF,E0,00,80,
1078103,000001A1,false,Rx,0,8,B0,C5,5C,10,C5,8C,80,20,
1081156,00000500,false,Rx,0,5,02,11,0E,B2,7A,00,00,00,
1083129,0000019F,false,Rx,0,8,E1,E1,7D,02,00,6A,50,FE,
1084004,00000155,false,Rx,0,8,43,87,C4,54,96,68,02,C3,
1085077,000004F7,false,Rx,0,8,00,1A,08,00,90,30,06,F0,
1085265,000001C7,false,Rx,0,4,AA,A0,FF,C0,00,00,00,00,
1085520,00000428,false,Rx,0,8,00,00,00,7F,00,00,00,00,
1085701,0000042F,false,Rx,0,2,00,20,00,00,00,00,00,00,
1086903,00000157,false,Rx,0,8,D5,8B,09,C4,FF,E0,00,80,
1088103,000001A1,false,Rx,0,8,B1,05,5C,10,C5,8C,80,20,
1093130,0000019F,false,Rx,0,8,E1,E1,7D,07,00,6A,50,FE,
1093381,00000511,false,Rx,0,7,00,D4,07,D3,3D,A1,EF,00,
1094029,00000155,false,Rx,0,8,43,87,C5,54,96,68,02,C3,
1095028,000001C7,false,Rx,0,4,AA,A0,FF,C0,00,00,00,00,
1096903,00000157,false,Rx,0,8,D5,DB,09,C4,FF,E0,00,80,
1098104,000001A1,false,Rx,0,8,B0,C5,5C,10,C5,8C,80,20,
1103127,0000019F,false,Rx,0,8,E1,E1,7D,0C,00,6A,50,FE,
1103954,00000155,false,Rx,0,8,43,87,C5,54,96,68,02,C3,
1105029,000001C7,false,Rx,0,4,AA,A0,FF,C0,00,00,00,00,
1106931,00000157,false,Rx,0,8,D5,2B,09,C4,FF,E0,00,80,
1108106,000001A1,false,Rx,0,8,B0,C5,5C,10,C5,8C,80,20,
1113131,0000019F,false,Rx,0,8,E1,E1,7D,01,00,6A,50,FE,
1113928,00000155,false,Rx,0,8,43,87,C5,54,96,68,02,C3,
1115029,000001C7,false,Rx,0,4,AA,A0,FF,C0,00,00,00,00,
1116228,00000445,false,Rx,0,7,80,55,AA,65,04,82,00,00,
1116903,00000157,false,Rx,0,8,D5,7B,09,C4,FF,E0,00,80,
1118103,000001A1,false,Rx,0,8,B1,05,5C,10,C5,8C,80,20,
1121879,00000423,false,Rx,0,8,0B,1D,00,02,5D,80,B2,D8,
1123129,0000019F,false,Rx,0,8,E1,E1,7D,06,00,6A,50,FE,
1123933,00000155,false,Rx,0,8,43,87,C5,54,96,68,02,C3,
1124155,00000424,false,Rx,0,8,11,40,56,C8,33,5E,55,34,
1124384,00000425,false,Rx,0,8,2A,BA,44,9C,42,1A,CD,0B,
1125053,000001C7,false,Rx,0,4,AA,A0,FF,C0,00,00,00,00,
1126903,00000157,false,Rx,0,8,D5,CB,09,C4,FF,E0,00,80,
1127122,00000426,false,Rx,0,8,00,60,01,00,53,18,00,40,
1128101,000001A1,false,Rx,0,8,B0,C5,5C,10,C5,8C,80,20,
1133123,0000019F,false,Rx,0,8,E1,E1,7D,0B,00,6A,50,FE,
1133921,00000155,false,Rx,0,8,43,87,C4,54,96,68,02,C3,
1135075,000001C7,false,Rx,0,4,AA,A0,FF,C0,00,00,00,00,
1136931,00000157,false,Rx,0,8,D5,1B,09,C4,FF,E0,00,80,
1138107,000001A1,false,Rx,0,8,B0,C5,5C,10,C5,8C,80,20,
1141905,00000435,false,Rx,0,8,FF,FF,1E,0B,2E,10,00,00,
1143142,0000019F,false,Rx,0,8,E1,E1,7D,00,00,6A,50,FE,
1143390,00000419,false,Rx,0,6,5E,21,32,E6,42,00,00,00,
1143958,00000155,false,Rx,0,8,43,87,C4,54,96,68,02,C3,
1145056,000001C7,false,Rx,0,4,AA,A0,FF,C0,00,00,00,00,
1146905,00000157,false,Rx,0,8,D5,6B,09,C4,FF,E0,00,80,
1147106,00000436,false,Rx,0,6,86,16,64,3D,FF,DC,00,00,
1148128,000001A1,false,Rx,0,8,B1,05,5C,10,C5,8C,80,20,
1153137,0000019F,false,Rx,0,8,E1,E1,7D,05,00,6A,50,FE,
1153947,00000155,false,Rx,0,8,43,87,C5,54,96,68,02,C3,
1155046,000001C7,false,Rx,0,4,AA,A0,FF,C0,00,00,00,00,
1156968,00000157,false,Rx,0,8,D5,BB,09,C4,FF,E0,00,80,
1158124,000001A1,false,Rx,0,8,B1,05,5C,10,C5,8C,80,20,
1163135,0000019F,false,Rx,0,8,E1,E1,7D,0A,00,6A,50,FE,
1164107,00000155,false,Rx,0,8,43,87,C5,54,96,68,02,C3,
1165080,000001C7,false,Rx,0,4,AA,A0,FF,C0,00,00,00,00,
1166983,00000157,false,Rx,0,8,D5,0B,09,C4,FF,E0,00,80,
1168106,000001A1,false,Rx,0,8,B0,C5,5C,10,C5,8C,80,20,
1173136,0000019F,false,Rx,0,8,E1,E1,7D,0F,00,6A,50,FE,
1173956,00000155,false,Rx,0,8,43,87,C5,54,96,68,02,C3,
1175081,000001C7,false,Rx,0,4,AA,A0,FF,C0,00,00,00,00,
1176956,00000157,false,Rx,0,8,D5,5B,09,C4,FF,E0,00,80,
1178105,000001A1,false,Rx,0,8,B0,C5,5C,10,C5,8C,80,20,
1181180,00000500,false,Rx,0,5,02,3F,04,3A,24,00,00,00,
1183126,0000019F,false,Rx,0,8,E1,E1,7D,04,00,6A,50,FE,
1183957,00000155,false,Rx,0,8,43,87,C5,54,96,68,02,C3,
1185155,000004F7,false,Rx,0,8,00,1A,08,00,90,30,06,F0,
1185331,000001C7,false,Rx,0,4,AA,A0,FF,C0,00,00,00,00,
1185579,00000428,false,Rx,0,8,00,00,00,7F,00,00,00,00,
1185755,0000042F,false,Rx,0,2,00,20,00,00,00,00,00,00,
1186907,00000157,false,Rx,0,8,D5,AB,09,C4,FF,E0,00,80,
1188137,000001A1,false,Rx,0,8,B1,05,5C,10,C5,8C,80,20,
1193135,0000019F,false,Rx,0,8,E1,E1,7D,09,00,6A,50,FE,
1193382,00000511,false,Rx,0,7,00,13,D0,8C,A8,AE,D2,00,
1194020,00000155,false,Rx,0,8,43,87,C4,54,96,68,02,C3,
1195088,000001C7,false,Rx,0,4,AA,A0,FF,C0,00,00,00,00,
1197006,00000157,false,Rx,0,8,D5,FB,09,C4,FF,E0,00,80,
1198129,000001A1,false,Rx,0,8,B1,05,5C,10,C5,8C,80,20,
1203130,0000019F,false,Rx,0,8,E1,E1,7D,0E,00,6A,50,FE,
1203994,00000155,false,Rx,0,8,43,87,C4,54,96,68,02,C2,
1205094,000001C7,false,Rx,0,4,AA,A0,FF,C0,00,00,00,00,
1206948,00000157,false,Rx,0,8,D5,4B,09,C4,FF,E0,00,80,
1208098,000001A1,false,Rx,0,8,B0,C5,5C,10,C5,8C,80,20,
1213124,0000019F,false,Rx,0,8,E1,E1,7D,03,00,6A,50,FE,
1213921,00000155,false,Rx,0,8,43,87,C5,54,96,68,02,C2,
1215090,000001C7,false,Rx,0,4,AA,A0,FF,C0,00,00,00,00,
1216205,00000445,false,Rx,0,7,80,55,AA,65,04,82,00,00,
1216990,00000157,false,Rx,0,8,D5,9B,09,C4,FF,E0,00,80,
1218088,000001A1,false,Rx,0,8,B0,C5,5C,10,C5,8C,80,20,
1221846,00000423,false,Rx,0,8,0B,1D,00,02,5D,80,B2,D8,
1223114,0000019F,false,Rx,0,8,E1,E1,7D,08,00,6A,50,FE,
1223919,00000155,false,Rx,0,8,43,87,C5,54,96,68,02,C2,
1224144,00000424,false,Rx,0,8,11,40,56,C8,33,5E,55,34,
1224372,00000425,false,Rx,0,8,2A,BA,44,9C,42,18,CD,0B,
1225092,000001C7,false,Rx,0,4,AA,A0,FF,C0,00,00,00,00,
1226920,00000157,false,Rx,0,8,D5,EB,09,C4,FF,E0,00,80,
1227146,00000426,false,Rx,0,8,00,60,01,00,53,18,00,40,
1228119,000001A1,false,Rx,0,8,B1,05,5C,10,C5,8C,80,20,
1233121,0000019F,false,Rx,0,8,E1,E1,7D,0D,00,6A,50,FE,
1233921,00000155,false,Rx,0,8,43,87,C5,54,96,68,02,C2,
1235120,000001C7,false,Rx,0,4,AA,A0,FF,C0,00,00,00,00,
1236954,00000157,false,Rx,0,8,D5,3B,09,C4,FF,E0,00,80,
1238095,000001A1,false,Rx,0,8,B0,C5,5C,10,C5,8C,80,20,
1241898,00000435,false,Rx,0,8,FF,FF,1E,0B,2E,10,00,00,
1243122,0000019F,false,Rx,0,8,E1,E1,7D,02,00,6A,50,FE,
1243378,00000419,false,Rx,0,6,5E,22,32,E6,42,00,00,00,
1243944,00000155,false,Rx,0,8,43,87,C5,54,96,68,02,C2,
1245134,000001C7,false,Rx,0,4,AA,A0,FF,C0,00,00,00,00,
1246972,00000157,false,Rx,0,8,D5,8B,09,C4,FF,E0,00,80,
1247171,00000436,false,Rx,0,6,86,16,64,3D,FF,DC,00,00,
1248094,000001A1,false,Rx,0,8,B0,C5,5C,10,C5,8C,80,20,
1253135,0000019F,false,Rx,0,8,E1,E1,7D,07,00,6A,50,FE,
1253919,00000155,false,Rx,0,8,43,87,C4,54,96,68,02,C2,
1255120,000001C7,false,Rx,0,4,AA,A0,FF,C0,00,00,00,00,
1256999,00000157,false,Rx,0,8,D5,DB,09,C4,FF,E0,00,80,
1258096,000001A1,false,Rx,0,8,B1,05,5C,10,C5,8C,80,20,
1263123,0000019F,false,Rx,0,8,E1,E1,7D,0C,00,6A,50,FE,
1264020,00000155,false,Rx,0,8,43,87,C4,54,96,68,02,C2,
1265146,000001C7,false,Rx,0,4,AA,A0,FF,C0,00,00,00,00,
1266950,00000157,false,Rx,0,8,D5,2B,09,C4,FF,E0,00,80,
1268098,000001A1,false,Rx,0,8,B1,05,5C,10,C5,8C,80,20,
1273124,0000019F,false,Rx,0,8,E1,E1,7D,01,00,6A,50,FE,
1273994,00000155,false,Rx,0,8,43,87,C4,54,96,68,02,C2,
1275144,000001C7,false,Rx,0,4,AA,A0,FF,C0,00,00,00,00,
1276946,00000157,false,Rx,0,8,D5,7B,09,C4,FF,E0,00,80,
1278095,000001A1,false,Rx,0,8,B0,C5,5C,10,C5,8C,80,20,
1281443,00000500,false,Rx,0,5,02,BD,92,20,F6,00,00,00,
1283113,0000019F,false,Rx,0,8,E1,E1,7D,06,00,6A,50,FE,
1283987,00000155,false,Rx,0,8,43,87,C4,54,96,68,02,C2,
1285213,000004F7,false,Rx,0,8,00,1A,08,00,90,30,06,F0,
1285361,000001C7,false,Rx,0,4,AA,A0,FF,C0,00,00,00,00,
1285637,00000428,false,Rx,0,8,00,00,00,7F,00,00,00,00,
1285811,0000042F,false,Rx,0,2,00,20,00,00,00,00,00,00,
1286920,00000157,false,Rx,0,8,D5,CB,09,C4,FF,E0,00,80,
1288120,000001A1,false,Rx,0,8,B1,05,5C,10,C5,8C,80,20,
1293100,0000019F,false,Rx,0,8,E1,E1,7D,0B,00,6A,50,FE,
1293371,00000511,false,Rx,0,7,00,52,99,45,13,BB,B5,00,
1293994,00000155,false,Rx,0,8,43,87,C5,54,96,68,02,C2,
1295146,000001C7,false,Rx,0,4,AA,A0,FF,C0,00,00,00,00,
1296945,00000157,false,Rx,0,8,D5,1B,09,C4,FF,E0,00,80,
1298095,000001A1,false,Rx,0,8,B1,05,5C,10,C5,8C,80,20,
1303127,0000019F,false,Rx,0,8,E1,E1,7D,00,00,6A,50,FE,
1303946,00000155,false,Rx,0,8,43,87,C5,54,96,68,02,C2,
1305180,000001C7,false,Rx,0,4,AA,A0,FF,C0,00,00,00,00,
1306950,00000157,false,Rx,0,8,D5,6B,09,C4,FF,E0,00,80,
1308096,000001A1,false,Rx,0,8,B0,C5,5C,10,C5,8C,80,20,
1313023,0000019F,false,Rx,0,8,E1,E1,7D,05,00,6A,50,FE,
1313918,00000155,false,Rx,0,8,43,87,C4,54,96,68,02,C2,
1315164,000001C7,false,Rx,0,4,AA,A0,FF,C0,00,00,00,00,
1316188,00000445,false,Rx,0,7,80,55,AA,65,04,82,00,00,
1316937,00000157,false,Rx,0,8,D5,BB,09,C4,FF,E0,00,80,
1318039,000001A1,false,Rx,0,8,B1,05,5C,10,C5,8C,80,20,
1321822,00000423,false,Rx,0,8,0B,1D,00,02,5D,80,B2,D8,
1323022,0000019F,false,Rx,0,8,E1,E1,7D,0A,00,6A,50,FE,
1323939,00000155,false,Rx,0,8,43,87,C4,54,96,68,02,C1,
1324150,00000424,false,Rx,0,8,11,40,56,C8,33,5E,55,34,
1324379,00000425,false,Rx,0,8,2A,BA,44,9C,42,18,CD,0B,
1325171,000001C7,false,Rx,0,4,AA,A0,FF,C0,00,00,00,00,
1326904,00000157,false,Rx,0,8,D5,0B,09,C4,FF,E0,00,80,
1327122,00000426,false,Rx,0,8,00,60,01,00,53,18,00,40,
1328120,000001A1,false,Rx,0,8,B1,05,5C,10,C5,8C,80,20,
1333033,0000019F,false,Rx,0,8,E1,E1,7D,0F,00,6A,50,FE,
1333922,00000155,false,Rx,0,8,43,87,C5,54,96,68,02,C2,
1335170,000001C7,false,Rx,0,4,AA,A0,FF,C0,00,00,00,00,
1336971,00000157,false,Rx,0,8,D5,5B,09,C4,FF,E0,00,80,
1338023,000001A1,false,Rx,0,8,B0,C5,5C,10,C5,8C,80,20,
1341880,00000435,false,Rx,0,8,FF,FF,1E,0B,2E,10,00,00,
1343023,0000019F,false,Rx,0,8,E1,E1,7D,04,00,6A,50,FE,
1343272,00000419,false,Rx,0,6,5E,22,32,E6,42,00,00,00,
1343920,00000155,false,Rx,0,8,43,87,C4,54,96,68,02,C2,
1345170,000001C7,false,Rx,0,4,AA,A0,FF,C0,00,00,00,00,
1347019,00000157,false,Rx,0,8,D5,AB,09,C4,FF,E0,00,80,
1347172,00000436,false,Rx,0,6,86,16,64,3D,FF,DC,00,00,
1348021,000001A1,false,Rx,0,8,B0,C5,5C,10,C5,8C,80,20,
1353019,0000019F,false,Rx,0,8,E1,E1,7D,09,00,6A,50,FE,
1353916,00000155,false,Rx,0,8,43,87,C5,54,96,68,02,C2,
1355190,000001C7,false,Rx,0,4,AA,A0,FF,C0,00,00,00,00,
1356928,00000157,false,Rx,0,8,D5,FB,09,C4,FF,E0,00,80,
1358026,000001A1,false,Rx,0,8,B1,05,5C,10,C5,8C,80,20,
1363030,0000019F,false,Rx,0,8,E1,E1,7D,0E,00,6A,50,FE,
1364021,00000155,false,Rx,0,8,43,87,C4,54,96,68,02,C2,
1365196,000001C7,false,Rx,0,4,AA,A0,FF,C0,00,00,00,00,
1366973,00000157,false,Rx,0,8,D5,4B,09,C4,FF,E0,00,80,
1368019,000001A1,false,Rx,0,8,B0,C5,5C,10,C5,8C,80,20,
1373029,0000019F,false,Rx,0,8,E1,E1,7D,03,00,6A,50,FE,
1373946,00000155,false,Rx,0,8,43,87,C4,54,96,68,02,C2,
1375204,000001C7,false,Rx,0,4,AA,A0,FF,C0,00,00,00,00,
1376997,00000157,false,Rx,0,8,D5,9B,09,C4,FF,E0,00,80,
1378021,000001A1,false,Rx,0,8,B0,C5,5C,10,C5,8C,80,20,
1381221,00000500,false,Rx,0,5,02,6B,D5,6F,F9,00,00,00,
1383017,0000019F,false,Rx,0,8,E1,E1,7D,08,00,6A,50,FE,
1383957,00000155,false,Rx,0,8,43,87,C4,54,96,68,02,C2,
1385269,000004F7,false,Rx,0,8,00,1A,08,00,90,30,06,F0,
1385438,000001C7,false,Rx,0,4,AA,A0,FF,C0,00,00,00,00,
1385686,00000428,false,Rx,0,8,00,00,00,7F,00,00,00,00,
1385861,0000042F,false,Rx,0,2,00,20,00,00,00,00,00,00,
1386988,00000157,false,Rx,0,8,D5,EB,09,C4,FF,E0,00,80,
1388014,000001A1,false,Rx,0,8,B1,05,5C,10,C5,8C,80,20,
1393042,0000019F,false,Rx,0,8,E1,E1,7D,0D,00,6A,50,FE,
1393293,00000511,false,Rx,0,7,00,91,62,FE,7E,C8,98,00,
1393996,00000155,false,Rx,0,8,43,87,C5,54,96,68,02,C2,
1395194,000001C7,false,Rx,0,4,AA,A0,FF,C0,00,00,00,00,
1396954,00000157,false,Rx,0,8,D5,3B,09,C4,FF,E0,00,80,
1398055,000001A1,false,Rx,0,8,B0,C5,5C,10,C5,8C,80,20,
1403024,0000019F,false,Rx,0,8,E1,E1,7D,02,00,6A,50,FE,
1403969,00000155,false,Rx,0,8,43,87,C5,54,96,68,02,C2,
1405219,000001C7,false,Rx,0,4,AA,A0,FF,C0,00,00,00,00,
1406945,00000157,false,Rx,0,8,D5,8B,09,C4,FF,E0,00,80,
1408017,000001A1,false,Rx,0,8,B1,05,5C,10,C5,8C,80,20,
1413046,0000019F,false,Rx,0,8,E1,E1,7D,07,00,6A,50,FE,
1413943,00000155,false,Rx,0,8,43,87,C5,54,96,68,02,C2,
1415185,000001C7,false,Rx,0,4,AA,A0,FF,C0,00,00,00,00,
1416210,00000445,false,Rx,0,7,80,55,AA,65,04,82,00,00,
1416978,00000157,false,Rx,0,8,D5,DB,09,C4,FF,E0,00,80,
1418053,000001A1,false,Rx,0,8,B0,C5,5C,10,C5,8C,80,20,
1421929,00000423,false,Rx,0,8,0B,1D,00,02,B2,80,5D,D8,
1423020,0000019F,false,Rx,0,8,E1,E1,7D,0C,00,6A,50,FE,
1423892,00000155,false,Rx,0,8,43,87,C5,54,96,68,02,C2,
1424145,00000424,false,Rx,0,8,11,40,56,C8,33,5E,AA,34,
1424348,00000425,false,Rx,0,8,2A,BA,44,9C,42,18,CD,0B,
1425219,000001C7,false,Rx,0,4,AA,A0,FF,C0,00,00,00,00,
1426970,00000157,false,Rx,0,8,D5,2B,09,C4,FF,E0,00,80,
1427218,00000426,false,Rx,0,8,00,60,01,00,53,18,00,40,
1428018,000001A1,false,Rx,0,8,B0,C5,5C,10,C5,8C,80,20,
1433021,0000019F,false,Rx,0,8,E1,E1,7D,01,00,6A,50,FE,
1433955,00000155,false,Rx,0,8,43,87,C4,54,96,68,02,C2,
1435228,000001C7,false,Rx,0,4,AA,A0,FF,C0,00,00,00,00,
1436893,00000157,false,Rx,0,8,D5,7B,09,C4,FF,E0,00,80,
1438044,000001A1,false,Rx,0,8,B1,05,5C,10,C5,8C,80,20,
1441895,00000435,false,Rx,0,8,FF,FF,1E,0B,2E,10,00,00,
1443018,0000019F,false,Rx,0,8,E1,E1,7D,06,00,6A,50,FE,
1443270,00000419,false,Rx,0,6,5E,22,32,E6,42,00,00,00,
1443944,00000155,false,Rx,0,8,43,87,C4,54,96,68,02,C2,
1445193,000001C7,false,Rx,0,4,AA,A0,FF,C0,00,00,00,00,
1447031,00000157,false,Rx,0,8,D5,CB,09,C4,FF,E0,00,80,
1447196,00000436,false,Rx,0,6,86,16,64,3D,FF,DC,00,00,
1448018,000001A1,false,Rx,0,8,B0,C5,5C,10,C5,8C,80,20,
1453020,0000019F,false,Rx,0,8,E1,E1,7D,0B,00,6A,50,FE,
1453920,00000155,false,Rx,0,8,43,87,C5,54,96,68,02,C2,
1455193,000001C7,false,Rx,0,4,AA,A0,FF,C0,00,00,00,00,
1456918,00000157,false,Rx,0,8,D5,1B,09,C4,FF,E0,00,80,
1458019,000001A1,false,Rx,0,8,B0,C5,5C,10,C5,8C,80,20,
1463057,0000019F,false,Rx,0,8,E1,E1,7D,00,00,6A,50,FE,
1463994,00000155,false,Rx,0,8,43,87,C5,54,96,68,02,C1,
1465234,000001C7,false,Rx,0,4,AA,A0,FF,C0,00,00,00,00,
1466955,00000157,false,Rx,0,8,D5,6B,09,C4,FF,E0,00,80,
1468052,000001A1,false,Rx,0,8,B1,05,5C,10,C5,8C,80,20,
1473055,0000019F,false,Rx,0,8,E1,E1,7D,05,00,6A,50,FE,
1474002,00000155,false,Rx,0,8,43,87,C5,54,96,68,02,C2,
1475255,000001C7,false,Rx,0,4,AA,A0,FF,C0,00,00,00,00,
1476980,00000157,false,Rx,0,8,D5,BB,09,C4,FF,E0,00,80,
1478186,000001A1,false,Rx,0,8,B0,C5,5C,10,C5,8C,80,20,
1481529,00000500,false,Rx,0,5,02,FF,DF,89,78,00,00,00,
1483022,0000019F,false,Rx,0,8,E1,E1,7D,0A,00,6A,50,FE,
1484140,00000155,false,Rx,0,8,43,87,C5,54,96,68,02,C2,
1485458,000004F7,false,Rx,0,8,00,1A,08,00,90,30,06,F0,
1485511,000001C7,false,Rx,0,4,AA,A0,FF,C0,00,00,00,00,
1485830,00000428,false,Rx,0,8,00,00,00,7F,00,00,00,00,
1485937,0000042F,false,Rx,0,2,00,20,00,00,00,00,00,00,
1487086,00000157,false,Rx,0,8,D5,0B,09,C4,FF,E0,00,80,
1488282,000001A1,false,Rx,0,8,B0,C5,5C,10,C5,8C,80,20,
1493277,0000019F,false,Rx,0,8,E1,E1,7D,0F,00,6A,50,FE,
1493289,00000511,false,Rx,0,7,00,D0,2B,B7,E9,D5,7B,00,
1494074,00000155,false,Rx,0,8,43,87,C5,54,96,68,02,C2,
1495484,000001C7,false,Rx,0,4,AA,A0,FF,C0,00,00,00,00,
1497178,00000157,false,Rx,0,8,D5,5B,09,C4,FF,E0,00,80,
1498181,000001A1,false,Rx,0,8,B1,05,5C,10,C5,8C,80,20,
1503279,0000019F,false,Rx,0,8,E1,E1,7D,04,00,6A,50,FE,
1504202,00000155,false,Rx,0,8,43,87,C4,54,96,68,02,C2,
1505386,000001C7,false,Rx,0,4,AA,A0,FF,C0,00,00,00,00,
1507079,00000157,false,Rx,0,8,D5,AB,09,C4,FF,E0,00,80,
1508187,000001A1,false,Rx,0,8,B1,05,5C,10,C5,8C,80,20,
1513099,0000019F,false,Rx,0,8,E1,E1,7D,09,00,6A,50,FE,
1514180,00000155,false,Rx,0,8,43,87,C5,54,96,68,02,C2,
1515504,000001C7,false,Rx,0,4,AA,A0,FF,C0,00,00,00,00,
1516403,00000445,false,Rx,0,7,80,55,55,65,04,82,00,00,
1517077,00000157,false,Rx,0,8,D5,FB,09,C4,FF,E0,00,80,
1518281,000001A1,false,Rx,0,8,B0,C5,5C,10,C5,8C,80,20,
1522115,00000423,false,Rx,0,8,0B,1D,00,02,B2,80,5D,D8,
1523286,0000019F,false,Rx,0,8,E1,E1,7D,0E,00,6A,50,FE,
1523890,00000155,false,Rx,0,8,43,87,C5,54,96,68,02,C2,
1524114,00000424,false,Rx,0,8,11,40,56,C8,33,5E,AA,34,
1524372,00000425,false,Rx,0,8,2A,BA,44,9C,42,18,CD,0B,
1525410,000001C7,false,Rx,0,4,AA,A0,FF,C0,00,00,00,00,
1527156,00000157,false,Rx,0,8,D5,4B,09,C4,FF,E0,00,80,
1527174,00000426,false,Rx,0,8,00,60,01,00,53,18,00,40,
1528290,000001A1,false,Rx,0,8,B1,05,5C,10,C5,8C,80,20,
1533215,0000019F,false,Rx,0,8,E1,E1,7D,03,00,6A,50,FE,
1534184,00000155,false,Rx,0,8,43,87,C5,54,96,68,02,C2,
1535511,000001C7,false,Rx,0,4,AA,A0,FF,C0,00,00,00,00,
1537032,00000157,false,Rx,0,8,D5,9B,09,C4,FF,E0,00,80,
1538283,000001A1,false,Rx,0,8,B1,05,5C,10,C5,8C,80,20,
1541954,00000435,false,Rx,0,8,FF,FF,1E,0B,2E,10,00,00,
1543028,0000019F,false,Rx,0,8,E1,E1,7D,08,00,6A,50,FE,
1543339,00000419,false,Rx,0,6,5E,22,32,E6,42,00,00,00,
1544052,00000155,false,Rx,0,8,43,87,C5,54,96,68,02,C2,
1545246,000001C7,false,Rx,0,4,AA,A0,FF,C0,00,00,00,00,
1547162,00000157,false,Rx,0,8,D5,EB,09,C4,FF,E0,00,80,
1547169,00000436,false,Rx,0,6,86,16,64,3D,FF,DC,00,00,
1548235,000001A1,false,Rx,0,8,B0,C5,5C,10,C5,8C,80,20,
1553243,0000019F,false,Rx,0,8,E1,E1,7D,0D,00,6A,50,FE,
1554132,00000155,false,Rx,0,8,43,87,C4,54,96,68,02,C2,
1555447,000001C7,false,Rx,0,4,AA,A0,FF,C0,00,00,00,00,
1556968,00000157,false,Rx,0,8,D5,3B,09,C4,FF,E0,00,80,
1558233,000001A1,false,Rx,0,8,B0,C5,5C,10,C5,8C,80,20,
1563239,0000019F,false,Rx,0,8,E1,E1,7D,02,00,6A,50,FE,
1564234,00000155,false,Rx,0,8,43,87,C4,54,96,68,02,C2,
1565395,000001C7,false,Rx,0,4,AA,A0,FF,C0,00,00,00,00,
1567088,00000157,false,Rx,0,8,D5,8B,09,C4,FF,E0,00,80,
1568190,000001A1,false,Rx,0,8,B1,05,5C,10,C5,8C,80,20,
1573027,0000019F,false,Rx,0,8,E1,E1,7D,07,00,6A,50,FE,
1573950,00000155,false,Rx,0,8,43,87,C4,54,96,68,02,C2,
1575268,000001C7,false,Rx,0,4,AA,A0,FF,C0,00,00,00,00,
1576920,00000157,false,Rx,0,8,D5,DB,09,C4,FF,E0,00,80,
1578020,000001A1,false,Rx,0,8,B0,C5,5C,10,C5,8C,80,20,
1581544,00000500,false,Rx,0,5,02,E7,D4,64,EA,00,00,00,
1583019,0000019F,false,Rx,0,8,E1,E1,7D,0C,00,6A,50,FE,
1583942,00000155,false,Rx,0,8,43,87,C5,54,96,68,02,C2,
1585343,000004F7,false,Rx,0,8,00,1A,08,00,90,30,06,F0,
1585542,000001C7,false,Rx,0,4,AA,A0,FF,C0,00,00,00,00,
1585817,00000428,false,Rx,0,8,00,00,00,7F,00,00,00,00,
1585942,0000042F,false,Rx,0,2,00,20,00,00,00,00,00,00,
1586943,00000157,false,Rx,0,8,D5,2B,09,C4,FF,E0,00,80,
1588017,000001A1,false,Rx,0,8,B0,C5,5C,10,C5,8C,80,20,
1593020,0000019F,false,Rx,0,8,E1,E1,7D,01,00,6A,50,FE,
1593292,00000511,false,Rx,0,7,00,0F,F4,70,54,E2,5E,00,
1593992,00000155,false,Rx,0,8,43,87,C5,54,96,68,02,C2,
1595270,000001C7,false,Rx,0,4,AA,A0,FF,C0,00,00,00,00,
1596894,00000157,false,Rx,0,8,D5,7B,09,C4,FF,E0,00,80,
1598018,000001A1,false,Rx,0,8,B1,05,5C,10,C5,8C,80,20,
1603021,0000019F,false,Rx,0,8,E1,E1,7D,06,00,6A,50,FE,
1603968,00000155,false,Rx,0,8,43,87,C5,54,96,68,02,C2,
1605295,000001C7,false,Rx,0,4,AA,A0,FF,C0,00,00,00,00,
1606946,00000157,false,Rx,0,8,D5,CB,09,C4,FF,E0,00,80,
1608020,000001A1,false,Rx,0,8,B1,05,5C,10,C5,8C,80,20,
1613020,0000019F,false,Rx,0,8,E1,E1,7D,0B,00,6A,50,FE,
1613892,00000155,false,Rx,0,8,43,87,C5,54,96,68,02,C2,
1615293,000001C7,false,Rx,0,4,AA,A0,FF,C0,00,00,00,00,
1616144,00000445,false,Rx,0,7,80,55,55,65,04,82,00,00,
1616892,00000157,false,Rx,0,8,D5,1B,09,C4,FF,E0,00,80,
1618017,000001A1,false,Rx,0,8,B0,C5,5C,10,C5,8C,80,20,
1621844,00000423,false,Rx,0,8,0B,1D,00,02,B2,80,5D,D8,
1623018,0000019F,false,Rx,0,8,E1,E1,7D,00,00,6A,50,FE,
1623895,00000155,false,Rx,0,8,43,87,C4,54,96,68,02,C2,
1624116,00000424,false,Rx,0,8,11,40,56,C8,33,5E,AA,34,
1624340,00000425,false,Rx,0,8,2A,BA,44,9C,42,18,CD,0B,
1625290,000001C7,false,Rx,0,4,AA,A0,FF,C0,00,00,00,00,
1626894,00000157,false,Rx,0,8,D5,6B,09,C4,FF,E0,00,80,
1627148,00000426,false,Rx,0,8,00,60,01,00,53,18,00,40,
1628026,000001A1,false,Rx,0,8,B0,C5,5C,10,C5,8C,80,20,
1633030,0000019F,false,Rx,0,8,E1,E1,7D,05,00,6A,50,FE,
1633963,00000155,false,Rx,0,8,43,87,C4,54,96,68,02,C1,
1635298,000001C7,false,Rx,0,4,AA,A0,FF,C0,00,00,00,00,
1636927,00000157,false,Rx,0,8,D5,BB,09,C4,FF,E0,00,80,
1638024,000001A1,false,Rx,0,8,B0,C5,5C,10,C5,8C,80,20,
1641828,00000435,false,Rx,0,8,FF,FF,1E,0B,2E,10,00,00,
1643021,0000019F,false,Rx,0,8,E1,E1,7D,0A,00,6A,50,FE,
1643291,00000419,false,Rx,0,6,5E,22,32,E6,42,00,00,00,
1643917,00000155,false,Rx,0,8,43,87,C5,54,96,68,02,C1,
1645294,000001C7,false,Rx,0,4,AA,A0,FF,C0,00,00,00,00,
1646944,00000157,false,Rx,0,8,D5,0B,09,C4,FF,E0,00,80,
1647143,00000436,false,Rx,0,6,86,16,64,3D,FF,DC,00,00,
1648018,000001A1,false,Rx,0,8,B1,05,5C,10,C5,8C,80,20,
1653021,0000019F,false,Rx,0,8,E1,E1,7D,0F,00,6A,50,FE,
1653920,00000155,false,Rx,0,8,43,87,C5,54,96,68,02,C2,
1655296,000001C7,false,Rx,0,4,AA,A0,FF,C0,00,00,00,00,
1656945,00000157,false,Rx,0,8,D5,5B,09,C4,FF,E0,00,80,
1658020,000001A1,false,Rx,0,8,B0,C5,5C,10,C5,8C,80,20,
1663022,0000019F,false,Rx,0,8,E1,E1,7D,04,00,6A,50,FE,
1664119,00000155,false,Rx,0,8,43,87,C5,54,96,68,02,C1,
1665319,000001C7,false,Rx,0,4,AA,A0,FF,C0,00,00,00,00,
1666969,00000157,false,Rx,0,8,D5,AB,09,C4,FF,E0,00,80,
1668019,000001A1,false,Rx,0,8,B0,C5,5C,10,C5,8C,80,20,
1673020,0000019F,false,Rx,0,8,E1,E1,7D,09,00,6A,50,FE,
1673969,00000155,false,Rx,0,8,43,87,C5,54,96,68,02,C2,
1675320,000001C7,false,Rx,0,4,AA,A0,FF,C0,00,00,00,00,
1676869,00000157,false,Rx,0,8,D5,FB,09,C4,FF,E0,00,80,
1678019,000001A1,false,Rx,0,8,B1,05,5C,10,C5,8C,80,20,
1681349,00000500,false,Rx,0,5,02,50,35,E6,AE,00,00,00,
1683022,0000019F,false,Rx,0,8,E1,E1,7D,0E,00,6A,50,FE,
1683977,00000155,false,Rx,0,8,43,87,C4,54,96,68,02,C2,
1685397,000004F7,false,Rx,0,8,00,1A,08,00,90,30,06,F0,
1685596,000001C7,false,Rx,0,4,AA,A0,FF,C0,00,00,00,00,
1685870,00000428,false,Rx,0,8,00,00,00,7F,00,00,00,00,
1686029,0000042F,false,Rx,0,2,00,20,00,00,00,00,00,00,
1686950,00000157,false,Rx,0,8,D5,4B,09,C4,FF,E0,00,80,
1688025,000001A1,false,Rx,0,8,B0,C5,5C,10,C5,8C,80,20,
1693027,0000019F,false,Rx,0,8,E1,E1,7D,03,00,6A,50,FE,
1693296,00000511,false,Rx,0,7,00,4E,BD,29,BF,EF,41,00,
1693993,00000155,false,Rx,0,8,43,87,C4,54,96,68,02,C2,
1695318,000001C7,false,Rx,0,4,AA,A0,FF,C0,00,00,00,00,
1696946,00000157,false,Rx,0,8,D5,9B,09,C4,FF,E0,00,80,
1698020,000001A1,false,Rx,0,8,B0,C5,5C,10,C5,8C,80,20,
1703057,0000019F,false,Rx,0,8,E1,E1,7D,08,00,6A,50,FE,
1703960,00000155,false,Rx,0,8,43,87,C5,54,96,68,02,C2,
1705360,000001C7,false,Rx,0,4,AA,A0,FF,C0,00,00,00,00,
1707066,00000157,false,Rx,0,8,D5,EB,09,C4,FF,E0,00,80,
1708026,000001A1,false,Rx,0,8,B1,05,5C,10,C5,8C,80,20,
1713065,0000019F,false,Rx,0,8,E1,E1,7D,0D,00,6A,50,FE,
1713938,00000155,false,Rx,0,8,43,87,C5,54,96,68,02,C2,
1715501,000001C7,false,Rx,0,4,AA,A0,FF,C0,00,00,00,00,
1716268,00000445,false,Rx,0,7,80,55,55,65,04,82,00,00,
1717071,00000157,false,Rx,0,8,D5,3B,09,C4,FF,E0,00,80,
1718143,000001A1,false,Rx,0,8,B0,C5,5C,10,C5,8C,80,20,
1721897,00000423,false,Rx,0,8,0B,1D,00,02,B2,80,5D,D8,
1723090,0000019F,false,Rx,0,8,E1,E1,7D,02,00,6A,50,FE,
1724059,00000155,false,Rx,0,8,43,87,C5,54,96,68,02,C2,
1724173,00000424,false,Rx,0,8,11,40,56,C8,33,5E,AA,34,
1724410,00000425,false,Rx,0,8,2A,BA,44,9C,42,18,CD,0B,
1725412,000001C7,false,Rx,0,4,AA,A0,FF,C0,00,00,00,00,
1727126,00000157,false,Rx,0,8,D5,8B,09,C4,FF,E0,00,80,
1727273,00000426,false,Rx,0,8,00,60,01,00,53,18,00,40,
1728166,000001A1,false,Rx,0,8,B0,C5,5C,10,A5,8C,80,20,
1733149,0000019F,false,Rx,0,8,E1,E1,7D,07,00,6A,50,FE,
1733993,00000155,false,Rx,0,8,43,87,C5,54,96,68,02,C2,
1735435,000001C7,false,Rx,0,4,AA,A0,FF,C0,00,00,00,00,
1736965,00000157,false,Rx,0,8,D5,DB,09,C4,FF,E0,00,80,
1738030,000001A1,false,Rx,0,8,B1,05,5C,10,A5,8C,80,20,
1742086,00000435,false,Rx,0,8,FF,FF,1E,0B,2E,10,00,00,
1743234,0000019F,false,Rx,0,8,E1,E1,7D,0C,00,6A,50,FE,
1743273,00000419,false,Rx,0,6,5E,22,32,E6,42,00,00,00,
1744134,00000155,false,Rx,0,8,43,87,C4,54,96,68,02,C2,
1745506,000001C7,false,Rx,0,4,AA,A0,FF,C0,00,00,00,00,
1747021,00000157,false,Rx,0,8,D5,2B,09,C4,FF,E0,00,80,
1747187,00000436,false,Rx,0,6,86,16,64,3D,FF,DC,00,00,
1748144,000001A1,false,Rx,0,8,B1,05,5C,10,A5,8C,80,20,
1753197,0000019F,false,Rx,0,8,E1,E1,7D,01,00,6A,50,FE,
1754138,00000155,false,Rx,0,8,43,87,C4,54,96,68,02,C1,
1755382,000001C7,false,Rx,0,4,AA,A0,FF,C0,00,00,00,00,
1756994,00000157,false,Rx,0,8,D5,7B,09,C4,FF,E0,00,80,
1758089,000001A1,false,Rx,0,8,B0,C5,5C,10,A5,8C,80,20,
1763248,0000019F,false,Rx,0,8,E1,E1,7D,06,00,6A,50,FE,
1764038,00000155,false,Rx,0,8,43,87,C5,54,96,68,02,C1,
1765541,000001C7,false,Rx,0,4,AA,A0,FF,C0,00,00,00,00,
1767118,00000157,false,Rx,0,8,D5,CB,09,C4,FF,E0,00,80,
1768239,000001A1,false,Rx,0,8,B1,05,5C,10,A5,8C,80,20,
1773079,0000019F,false,Rx,0,8,E1,E1,7D,0B,00,6A,50,FE,
1774137,00000155,false,Rx,0,8,43,87,C5,54,96,60,02,C2,
1775548,000001C7,false,Rx,0,4,AA,A0,FF,C0,00,00,00,00,
1777010,00000157,false,Rx,0,8,D5,1B,09,C4,FF,E0,00,80,
1778239,000001A1,false,Rx,0,8,B1,05,5C,10,A5,8C,80,20,
1781388,00000500,false,Rx,0,5,02,1F,B0,79,04,00,00,00,
1783243,0000019F,false,Rx,0,8,E1,E1,7D,00,00,6A,50,FE,
1784144,00000155,false,Rx,0,8,43,87,C5,54,96,60,02,C2,
1785547,000004F7,false,Rx,0,8,00,1A,08,00,90,30,06,F0,
1785652,000001C7,false,Rx,0,4,AA,A0,FF,C0,00,00,00,00,
1785890,00000428,false,Rx,0,8,00,00,00,7F,00,00,00,00,
1786078,0000042F,false,Rx,0,2,00,20,00,00,00,00,00,00,
1787005,00000157,false,Rx,0,8,D5,6B,09,C4,FF,E0,00,80,
1788241,000001A1,false,Rx,0,8,B0,C5,5C,10,A5,8C,80,20,
1793107,0000019F,false,Rx,0,8,E1,E1,7D,05,00,6A,50,FE,
1793345,00000511,false,Rx,0,7,00,8D,86,E2,2A,FC,24,00,
1794222,00000155,false,Rx,0,8,43,87,C5,54,96,60,02,C2,
1795549,000001C7,false,Rx,0,4,AA,A0,FF,C0,00,00,00,00,
1797173,00000157,false,Rx,0,8,D5,BB,09,C4,FF,E0,00,80,
1798233,000001A1,false,Rx,0,8,B0,C5,5C,10,A5,8C,80,20,
1803252,0000019F,false,Rx,0,8,E1,E1,7D,0A,00,6A,50,FE,
1804199,00000155,false,Rx,0,8,43,87,C4,54,96,60,02,C2,
1805580,000001C7,false,Rx,0,4,AA,A0,FF,C0,00,00,00,00,
1807122,00000157,false,Rx,0,8,D5,0B,09,C4,FF,E0,00,80,
1808043,000001A1,false,Rx,0,8,B1,05,70,10,A5,8C,80,20,
1813244,0000019F,false,Rx,0,8,E1,E1,7D,0F,00,6A,50,FE,
1814122,00000155,false,Rx,0,8,43,87,C4,54,96,60,02,C2,
1815581,000001C7,false,Rx,0,4,AA,A0,FF,C0,00,00,00,00,
1816372,00000445,false,Rx,0,7,80,55,55,65,04,82,00,00,
1817023,00000157,false,Rx,0,8,D5,5B,09,C4,FF,E0,00,80,
1818195,000001A1,false,Rx,0,8,B1,05,5C,10,A5,8C,80,20,
1822025,00000423,false,Rx,0,8,0B,1D,00,02,B2,80,5D,D8,
1823035,0000019F,false,Rx,0,8,E1,E1,7D,04,00,6A,50,FE,
1823916,00000155,false,Rx,0,8,43,87,C5,54,96,60,02,C2,
1824135,00000424,false,Rx,0,8,11,40,56,C8,33,5E,AA,34,
1824362,00000425,false,Rx,0,8,2A,BA,44,9C,42,18,CD,0B,
1825409,000001C7,false,Rx,0,4,AA,A0,FF,C0,00,00,00,00,
1826934,00000157,false,Rx,0,8,D5,AB,09,C4,FF,E0,00,80,
1827177,00000426,false,Rx,0,8,00,60,01,00,53,18,00,40,
1828026,000001A1,false,Rx,0,8,B0,C5,5C,10,A5,8C,80,20,
1833009,0000019F,false,Rx,0,8,E1,E1,7D,09,00,6A,50,FE,
1833908,00000155,false,Rx,0,8,43,87,C5,54,96,60,02,C2,
1835407,000001C7,false,Rx,0,4,AA,A0,FF,C0,00,00,00,00,
1836951,00000157,false,Rx,0,8,D5,FB,09,C4,FF,E0,00,80,
1838026,000001A1,false,Rx,0,8,B1,05,5C,10,A5,8C,80,20,
1841878,00000435,false,Rx,0,8,FF,FF,1E,0B,2E,10,00,00,
1843031,0000019F,false,Rx,0,8,E1,E1,7D,0E,00,6A,50,FE,
1843277,00000419,false,Rx,0,6,5E,22,32,E6,42,00,00,00,
1843925,00000155,false,Rx,0,8,43,87,C5,54,96,60,02,C2,
1845425,000001C7,false,Rx,0,4,AA,A0,FF,C0,00,00,00,00,
1846876,00000157,false,Rx,0,8,D5,4B,09,C4,FF,E0,00,80,
1847078,00000436,false,Rx,0,6,86,16,64,3D,FF,DC,00,00,
1848024,000001A1,false,Rx,0,8,B0,C5,5C,10,A5,8C,80,20,
1853027,0000019F,false,Rx,0,8,E1,E1,7D,03,00,6A,50,FE,
1853901,00000155,false,Rx,0,8,43,87,C5,54,96,60,02,C2,
1855432,000001C7,false,Rx,0,4,AA,A0,FF,C0,00,00,00,00,
1856928,00000157,false,Rx,0,8,D5,9B,09,C4,FF,E0,00,80,
1858025,000001A1,false,Rx,0,8,B0,C5,5C,10,A5,8C,80,20,
1863033,0000019F,false,Rx,0,8,E1,E1,7D,08,00,6A,50,FE,
1863982,00000155,false,Rx,0,8,43,87,C4,54,96,60,02,C2,
1865426,000001C7,false,Rx,0,4,AA,A0,FF,C0,00,00,00,00,
1866951,00000157,false,Rx,0,8,D5,EB,09,C4,FF,E0,00,80,
1868002,000001A1,false,Rx,0,8,B1,05,5C,10,A5,8C,80,20,
1873003,0000019F,false,Rx,0,8,E1,E1,7D,0D,00,6A,50,FE,
1873950,00000155,false,Rx,0,8,43,87,C4,54,96,60,02,C2,
1875451,000001C7,false,Rx,0,4,AA,A0,FF,C0,00,00,00,00,
1876976,00000157,false,Rx,0,8,D5,3B,09,C4,FF,E0,00,80,
1878023,000001A1,false,Rx,0,8,B1,05,5C,10,A5,8C,80,20,
1881625,00000500,false,Rx,0,5,02,AB,35,0D,1E,00,00,00,
1883018,0000019F,false,Rx,0,8,E1,E1,7D,02,00,6A,50,FE,
1883972,00000155,false,Rx,0,8,43,87,C5,54,96,60,02,C2,
1885550,000004F7,false,Rx,0,8,00,1A,08,00,90,30,06,F0,
1885724,000001C7,false,Rx,0,4,AA,A0,FF,C0,00,00,00,00,
1885975,00000428,false,Rx,0,8,00,00,00,7F,00,00,00,00,
1886148,0000042F,false,Rx,0,2,00,20,00,00,00,00,00,00,
1886917,00000157,false,Rx,0,8,D5,8B,09,C4,FF,E0,00,80,
1888008,000001A1,false,Rx,0,8,B1,05,5C,10,A5,8C,80,20,
1893039,0000019F,false,Rx,0,8,E1,E1,7D,07,00,6A,50,FE,
1893302,00000511,false,Rx,0,7,00,CC,4F,9B,95,09,07,00,
1893975,00000155,false,Rx,0,8,43,87,C5,54,96,60,02,C2,
1895451,000001C7,false,Rx,0,4,AA,A0,FF,C0,00,00,00,00,
1896902,00000157,false,Rx,0,8,D5,DB,09,C4,FF,E0,00,80,
1898032,000001A1,false,Rx,0,8,B1,05,5C,10,A5,8C,80,20,
1903032,0000019F,false,Rx,0,8,E1,E1,7D,0C,00,6A,50,FE,
1903896,00000155,false,Rx,0,8,43,87,C5,54,96,60,02,C2,
1905446,000001C7,false,Rx,0,4,AA,A0,FF,C0,00,00,00,00,
1906873,00000157,false,Rx,0,8,D5,2B,09,C4,FF,E0,00,80,
1907996,000001A1,false,Rx,0,8,B0,C5,5C,10,A5,8C,80,20,
1913028,0000019F,false,Rx,0,8,E1,E1,7D,01,00,6A,50,FE,
1913903,00000155,false,Rx,0,8,43,87,C5,54,96,60,02,C2,
1915453,000001C7,false,Rx,0,4,AA,A0,FF,C0,00,00,00,00,
1916124,00000445,false,Rx,0,7,80,55,55,65,04,82,00,00,
1916926,00000157,false,Rx,0,8,D5,7B,09,C4,FF,E0,00,80,
1918025,000001A1,false,Rx,0,8,B1,05,5C,10,A5,8C,80,20,
1921853,00000423,false,Rx,0,8,0B,1D,00,02,5D,80,B2,D8,
1923032,0000019F,false,Rx,0,8,E1,E1,7D,06,00,6A,50,FE,
1923900,00000155,false,Rx,0,8,43,87,C4,54,96,60,02,C2,
1924128,00000424,false,Rx,0,8,11,40,56,C8,33,5E,55,34,
1924355,00000425,false,Rx,0,8,2A,BA,44,9C,42,18,CD,0B,
1925520,000001C7,false,Rx,0,4,AA,A0,FF,C0,00,00,00,00,
1926932,00000157,false,Rx,0,8,D5,CB,09,C4,FF,E0,00,80,
1927178,00000426,false,Rx,0,8,00,60,01,00,53,18,00,40,
1928001,000001A1,false,Rx,0,8,B1,05,5C,10,A5,8C,80,20,
1933024,0000019F,false,Rx,0,8,E1,E1,7D,0B,00,6A,50,FE,
1933906,00000155,false,Rx,0,8,43,87,C4,54,96,60,02,C2,
1935521,000001C7,false,Rx,0,4,AA,A0,FF,C0,00,00,00,00,
1936976,00000157,false,Rx,0,8,D5,1B,09,C4,FF,E0,00,80,
1938023,000001A1,false,Rx,0,8,B0,C5,5C,10,A5,8C,80,20,
1941909,00000435,false,Rx,0,8,FF,FF,1E,0B,2E,10,00,00,
1943065,0000019F,false,Rx,0,8,E1,E1,7D,00,00,6A,50,FE,
1943339,00000419,false,Rx,0,6,5E,22,32,E6,42,00,00,00,
1943940,00000155,false,Rx,0,8,43,87,C4,54,96,60,02,C2,
1945557,000001C7,false,Rx,0,4,AA,A0,FF,C0,00,00,00,00,
1946913,00000157,false,Rx,0,8,D5,6B,09,C4,FF,E0,00,80,
1947077,00000436,false,Rx,0,6,86,16,64,3D,FF,DC,00,00,
1948043,000001A1,false,Rx,0,8,B1,05,5C,10,A5,8C,80,20,
1953106,0000019F,false,Rx,0,8,E1,E1,7D,05,00,6A,50,FE,
1954162,00000155,false,Rx,0,8,43,87,C5,54,96,60,02,C2,
1955590,000001C7,false,Rx,0,4,AA,A0,FF,C0,00,00,00,00,
1956986,00000157,false,Rx,0,8,D5,BB,09,C4,FF,E0,00,80,
1958286,000001A1,false,Rx,0,8,B1,05,5C,10,A5,8C,80,20,
1963073,0000019F,false,Rx,0,8,E1,E1,7D,0A,00,6A,50,FE,
1964000,00000155,false,Rx,0,8,43,87,C5,54,96,60,02,C2,
1965689,000001C7,false,Rx,0,4,AA,A0,FF,C0,00,00,00,00,
1967211,00000157,false,Rx,0,8,D5,0B,09,C4,FF,E0,00,80,
1968300,000001A1,false,Rx,0,8,B0,C5,5C,10,A5,8C,80,20,
1973092,0000019F,false,Rx,0,8,E1,E1,7D,0F,00,6A,50,FE,
1974057,00000155,false,Rx,0,8,43,87,C5,54,96,60,02,C2,
1975694,000001C7,false,Rx,0,4,AA,A0,FF,C0,00,00,00,00,
1976969,00000157,false,Rx,0,8,D5,5B,09,C4,FF,E0,00,80,
1978195,000001A1,false,Rx,0,8,B0,C5,5C,10,A5,8C,80,20,
1981565,00000500,false,Rx,0,5,02,F9,61,E7,E4,00,00,00,
1983288,0000019F,false,Rx,0,8,E1,E1,7D,04,00,6A,50,FE,
1984185,00000155,false,Rx,0,8,43,87,C5,54,96,60,02,C2,
1985833,000004F7,false,Rx,0,8,00,1A,08,00,90,30,06,F0,
1985843,000001C7,false,Rx,0,4,AA,A0,FF,C0,00,00,00,00,
1986054,00000428,false,Rx,0,8,00,00,00,7F,00,00,00,00,
1986167,0000042F,false,Rx,0,2,00,20,00,00,00,00,00,00,
1987162,00000157,false,Rx,0,8,D5,AB,09,C4,FF,E0,00,80,
1988201,000001A1,false,Rx,0,8,B1,05,5C,10,A5,8C,80,20,
1993199,0000019F,false,Rx,0,8,E1,E1,7D,09,00,6A,50,FE,
1993364,00000511,false,Rx,0,7,00,0B,18,54,00,16,EA,00,
1994243,00000155,false,Rx,0,8,43,87,C4,54,96,60,02,C2,
1995693,000001C7,false,Rx,0,4,AA,A0,FF,C0,00,00,00,00,
1996948,00000157,false,Rx,0,8,D5,FB,09,C4,FF,E0,00,80,
1998270,000001A1,false,Rx,0,8,B0,C5,5C,10,A5,8C,80,20,
2001477,0000069F,false,Rx,0,4,71,30,28,2F,00,00,00,00,
2003042,0000019F,false,Rx,0,8,E1,E1,7D,0E,00,6A,50,FE,
2003977,00000155,false,Rx,0,8,43,87,C5,54,96,60,02,C2,
2005692,000001C7,false,Rx,0,4,AA,A0,FF,C0,00,00,00,00,
2007219,00000157,false,Rx,0,8,D5,4B,09,C4,FF,E0,00,80,
2008264,000001A1,false,Rx,0,8,B1,05,5C,10,A5,8C,80,20,
2013108,0000019F,false,Rx,0,8,E1,E1,7D,03,00,6A,50,FE,
2014169,00000155,false,Rx,0,8,43,87,C5,54,96,60,02,C2,
2015695,000001C7,false,Rx,0,4,AA,A0,FF,C0,00,00,00,00,
2016294,00000445,false,Rx,0,7,80,55,AA,65,04,82,00,00,
2017003,00000157,false,Rx,0,8,D5,9B,09,C4,FF,E0,00,80,
2018292,000001A1,false,Rx,0,8,B1,05,5C,10,A5,8C,80,20,
2022165,00000423,false,Rx,0,8,0B,1D,00,02,5D,80,B2,D8,
2023137,0000019F,false,Rx,0,8,E1,E1,7D,08,00,6A,50,FE,
2024065,00000155,false,Rx,0,8,43,87,C5,54,96,60,02,C2,
2024124,00000424,false,Rx,0,8,11,40,56,C8,33,5E,55,34,
2024421,00000425,false,Rx,0,8,2A,BA,44,9C,42,18,CD,0B,
2025598,000001C7,false,Rx,0,4,AA,A0,FF,C0,00,00,00,00,
2027059,00000157,false,Rx,0,8,D5,EB,09,C4,FF,E0,00,80,
2027281,00000426,false,Rx,0,8,00,60,01,00,53,18,00,40,
2028291,000001A1,false,Rx,0,8,B0,C5,5C,10,A5,8C,80,20,
2033125,0000019F,false,Rx,0,8,E1,E1,7D,0D,00,6A,50,FE,
2034164,00000155,false,Rx,0,8,43,87,C5,54,96,60,02,C2,
2035696,000001C7,false,Rx,0,4,AA,A0,FF,C0,00,00,00,00,
2037115,00000157,false,Rx,0,8,D5,3B,09,C4,FF,E0,00,80,
2038266,000001A1,false,Rx,0,8,B0,C5,5C,10,A5,8C,80,20,
2042080,00000435,false,Rx,0,8,FF,FF,1E,0B,2E,10,00,00,
2043190,0000019F,false,Rx,0,8,E1,E1,7D,02,00,6A,50,FE,
2043315,00000419,false,Rx,0,6,5E,22,32,E6,42,00,00,00,
2044176,00000155,false,Rx,0,8,43,87,C4,54,96,60,02,C2,
2045779,000001C7,false,Rx,0,4,AA,A0,FF,C0,00,00,00,00,
2047143,00000157,false,Rx,0,8,D5,8B,09,C4,FF,E0,00,80,
2047153,00000436,false,Rx,0,6,86,16,64,3D,FF,DC,00,00,
2048178,000001A1,false,Rx,0,8,B1,05,5C,10,A5,8C,80,20,
2053259,0000019F,false,Rx,0,8,E1,E1,7D,07,00,6A,50,FE,
2054165,00000155,false,Rx,0,8,43,87,C4,54,96,60,02,C2,
2055795,000001C7,false,Rx,0,4,AA,A0,FF,C0,00,00,00,00,
2057161,00000157,false,Rx,0,8,D5,DB,09,C4,FF,E0,00,80,
2058299,000001A1,false,Rx,0,8,B0,C5,5C,10,A5,8C,80,20,
2063045,0000019F,false,Rx,0,8,E1,E1,7D,0C,00,6A,50,FE,
2064249,00000155,false,Rx,0,8,43,87,C5,54,96,60,02,C2,
2065654,000001C7,false,Rx,0,4,AA,A0,FF,C0,00,00,00,00,
2067228,00000157,false,Rx,0,8,D5,2B,09,C4,FF,E0,00,80,
2068276,000001A1,false,Rx,0,8,B0,C5,5C,10,A5,8C,80,20,
2073045,0000019F,false,Rx,0,8,E1,E1,7D,01,00,6A,50,FE,
2073992,00000155,false,Rx,0,8,43,87,C5,54,96,60,02,C2,
2075584,000001C7,false,Rx,0,4,AA,A0,FF,C0,00,00,00,00,
2076936,00000157,false,Rx,0,8,D5,7B,09,C4,FF,E0,00,80,
2078024,000001A1,false,Rx,0,8,B1,05,5C,10,A5,8C,80,20,
2081528,00000500,false,Rx,0,5,02,C6,2B,79,40,00,00,00,
2083034,0000019F,false,Rx,0,8,E1,E1,7D,06,00,6A,50,FE,
2083953,00000155,false,Rx,0,8,43,87,C5,54,96,60,02,C2,
2085653,000004F7,false,Rx,0,8,00,1A,08,00,90,30,06,F0,
2085805,000001C7,false,Rx,0,4,AA,A0,FF,C0,00,00,00,00,
2086057,00000428,false,Rx,0,8,00,00,00,7F,00,00,00,00,
2086235,0000042F,false,Rx,0,2,00,20,00,00,00,00,00,00,
2086982,00000157,false,Rx,0,8,D5,CB,09,C4,FF,E0,00,80,
2088027,000001A1,false,Rx,0,8,B0,C5,5C,10,A5,8C,80,20,
2093030,0000019F,false,Rx,0,8,E1,E1,7D,0B,00,6A,50,FE,
2093305,00000511,false,Rx,0,7,00,4A,E1,0D,6B,23,CD,00,
2093977,00000155,false,Rx,0,8,43,87,C5,54,96,60,02,C2,
2095584,000001C7,false,Rx,0,4,AA,A0,FF,C0,00,00,00,00,
2096978,00000157,false,Rx,0,8,D5,1B,09,C4,FF,E0,00,80,
2098002,000001A1,false,Rx,0,8,B0,C5,5C,10,A5,8C,80,20,
2103035,0000019F,false,Rx,0,8,E1,E1,7D,00,00,6A,50,FE,
2103934,00000155,false,Rx,0,8,43,87,C5,54,96,60,02,C2,
2105578,000001C7,false,Rx,0,4,AA,A0,FF,C0,00,00,00,00,
2106903,00000157,false,Rx,0,8,D5,6B,09,C4,FF,E0,00,80,
2108035,000001A1,false,Rx,0,8,B0,C5,5C,10,A5,8C,80,20,
2113031,0000019F,false,Rx,0,8,E1,E1,7D,05,00,6A,50,FE,
2113902,00000155,false,Rx,0,8,43,87,C4,54,96,60,02,C2,
2115603,000001C7,false,Rx,0,4,AA,A0,FF,C0,00,00,00,00,
2116131,00000445,false,Rx,0,7,80,55,AA,65,04,82,00,00,
2116928,00000157,false,Rx,0,8,D5,BB,09,C4,FF,E0,00,80,
2118027,000001A1,false,Rx,0,8,B0,C5,70,10,A5,8C,80,20,
2121880,00000423,false,Rx,0,8,0B,1D,00,02,5D,80,B2,D8,
2123028,0000019F,false,Rx,0,8,E1,E1,7D,0A,00,6A,50,FE,
2123902,00000155,false,Rx,0,8,43,87,C4,54,96,60,02,C2,
2124129,00000424,false,Rx,0,8,11,40,56,C8,33,5E,55,34,
2124332,00000425,false,Rx,0,8,2A,BA,44,9C,42,18,CD,0B,
2125604,000001C7,false,Rx,0,4,AA,A0,FF,C0,00,00,00,00,
2126876,00000157,false,Rx,0,8,D5,0B,09,C4,FF,E0,00,80,
2127102,00000426,false,Rx,0,8,00,60,01,00,53,18,00,40,
2128024,000001A1,false,Rx,0,8,B1,05,5C,10,A5,8C,80,20,
2133031,0000019F,false,Rx,0,8,E1,E1,7D,0F,00,6A,50,FE,
2133898,00000155,false,Rx,0,8,43,87,C5,54,96,60,02,C2,
2135657,000001C7,false,Rx,0,4,AA,A0,FF,C0,00,00,00,00,
2137015,00000157,false,Rx,0,8,D5,5B,09,C4,FF,E0,00,80,
2138040,000001A1,false,Rx,0,8,B0,C5,5C,10,A5,8C,80,20,
2141843,00000435,false,Rx,0,8,FF,FF,1E,0B,2E,10,00,00,
2143026,0000019F,false,Rx,0,8,E1,E1,7D,04,00,6A,50,FE,
2143312,00000419,false,Rx,0,6,5E,22,32,E6,42,00,00,00,
2143912,00000155,false,Rx,0,8,43,87,C5,54,96,60,02,C2,
2145614,000001C7,false,Rx,0,4,AA,A0,FF,C0,00,00,00,00,
2146980,00000157,false,Rx,0,8,D5,AB,09,C4,FF,E0,00,80,
2147178,00000436,false,Rx,0,6,86,16,64,3D,FF,DC,00,00,
2148003,000001A1,false,Rx,0,8,B0,C5,5C,10,A5,8C,80,20,
2153046,0000019F,false,Rx,0,8,E1,E1,7D,09,00,6A,50,FE,
2153915,00000155,false,Rx,0,8,43,87,C5,54,96,60,02,C2,
2155640,000001C7,false,Rx,0,4,AA,A0,FF,C0,00,00,00,00,
2156990,00000157,false,Rx,0,8,D5,FB,09,C4,FF,E0,00,80,
2158038,000001A1,false,Rx,0,8,B1,05,5C,10,A5,8C,80,20,
2163040,0000019F,false,Rx,0,8,E1,E1,7D,0E,00,6A,50,FE,
2164013,00000155,false,Rx,0,8,43,87,C4,54,96,60,02,C2,
2165631,000001C7,false,Rx,0,4,AA,A0,FF,C0,00,00,00,00,
2166987,00000157,false,Rx,0,8,D5,4B,09,C4,FF,E0,00,80,
2168029,000001A1,false,Rx,0,8,B1,05,5C,10,A5,8C,80,20,
2173041,0000019F,false,Rx,0,8,E1,E1,7D,03,00,6A,50,FE,
2173942,00000155,false,Rx,0,8,43,87,C4,54,96,60,02,C2,
2175640,000001C7,false,Rx,0,4,AA,A0,FF,C0,00,00,00,00,
2176964,00000157,false,Rx,0,8,D5,9B,09,C4,FF,E0,00,80,
2178040,000001A1,false,Rx,0,8,B0,C5,5C,10,A5,8C,80,20,
2181764,00000500,false,Rx,0,5,02,C0,BF,01,DC,00,00,00,
2183051,0000019F,false,Rx,0,8,E1,E1,7D,08,00,6A,50,FE,
2183964,00000155,false,Rx,0,8,43,87,C4,54,96,60,02,C2,
2185729,000004F7,false,Rx,0,8,00,1A,08,00,90,30,06,F0,
2185885,000001C7,false,Rx,0,4,AA,A0,FF,C0,00,00,00,00,
2186138,00000428,false,Rx,0,8,00,00,00,7F,00,00,00,00,
2186322,0000042F,false,Rx,0,2,00,20,00,00,00,00,00,00,
2186911,00000157,false,Rx,0,8,D5,EB,09,C4,FF,E0,00,80,
2188039,000001A1,false,Rx,0,8,B1,05,5C,10,A5,8C,80,20,
2193045,0000019F,false,Rx,0,8,E1,E1,7D,0D,00,6A,50,FE,
2193317,00000511,false,Rx,0,7,00,89,AA,C6,D6,30,B0,00,
2193988,00000155,false,Rx,0,8,43,87,C5,54,96,60,02,C2,
2195642,000001C7,false,Rx,0,4,AA,A0,FF,C0,00,00,00,00,
2196961,00000157,false,Rx,0,8,D5,3B,09,C4,FF,E0,00,80,
2198029,000001A1,false,Rx,0,8,B1,05,5C,10,A5,8C,80,20,
2203028,0000019F,false,Rx,0,8,E1,E1,7D,02,00,6A,50,FE,
2203947,00000155,false,Rx,0,8,43,87,C5,54,96,60,02,C2,
2205650,000001C7,false,Rx,0,4,AA,A0,FF,C0,00,00,00,00,
2206922,00000157,false,Rx,0,8,D5,8B,09,C4,FF,E0,00,80,
2208037,000001A1,false,Rx,0,8,B0,C5,5C,10,A5,8C,80,20,
2213032,0000019F,false,Rx,0,8,E1,E1,7D,07,00,6A,50,FE,
2213876,00000155,false,Rx,0,8,43,87,C5,54,96,60,02,C2,
2215651,000001C7,false,Rx,0,4,AA,A0,FF,C0,00,00,00,00,
2216129,00000445,false,Rx,0,7,80,55,AA,65,04,82,00,00,
2216875,00000157,false,Rx,0,8,D5,DB,09,C4,FF,E0,00,80,
2218022,000001A1,false,Rx,0,8,B0,C5,5C,10,A5,8C,80,20,
2221933,00000423,false,Rx,0,8,0B,1D,00,02,5D,80,B2,D8,
2223028,0000019F,false,Rx,0,8,E1,E1,7D,0C,00,6A,50,FE,
2223876,00000155,false,Rx,0,8,43,87,C5,54,96,60,02,C2,
2224104,00000424,false,Rx,0,8,11,40,56,C8,33,5E,55,34,
2224332,00000425,false,Rx,0,8,2A,BA,44,9C,42,18,CD,0B,
2225653,000001C7,false,Rx,0,4,AA,A0,FF,C0,00,00,00,00,
2226926,00000157,false,Rx,0,8,D5,2B,09,C4,FF,E0,00,80,
2227130,00000426,false,Rx,0,8,00,60,01,00,53,18,00,40,
2228026,000001A1,false,Rx,0,8,B1,05,5C,10,A5,8C,80,20,
2233030,0000019F,false,Rx,0,8,E1,E1,7D,01,00,6A,50,FE,
2233900,00000155,false,Rx,0,8,43,87,C4,54,96,60,02,C2,
2235675,000001C7,false,Rx,0,4,AA,A0,FF,C0,00,00,00,00,
2236974,00000157,false,Rx,0,8,D5,7B,09,C4,FF,E0,00,80,
2238027,000001A1,false,Rx,0,8,B0,C5,5C,10,A5,8C,80,20,
2241837,00000435,false,Rx,0,8,FF,FF,1E,0B,2E,10,00,00,
2243031,0000019F,false,Rx,0,8,E1,E1,7D,06,00,6A,50,FE,
2243281,00000419,false,Rx,0,6,5E,22,32,E6,42,00,00,00,
2243902,00000155,false,Rx,0,8,43,87,C4,54,96,60,02,C2,
2245685,000001C7,false,Rx,0,4,AA,A0,FF,C0,00,00,00,00,
2246906,00000157,false,Rx,0,8,D5,CB,09,C4,FF,E0,00,80,
2247106,00000436,false,Rx,0,6,86,16,64,3D,FF,DC,00,00,
2248033,000001A1,false,Rx,0,8,B0,C5,5C,10,A5,8C,80,20,
2253031,0000019F,false,Rx,0,8,E1,E1,7D,0B,00,6A,50,FE,
2253902,00000155,false,Rx,0,8,43,87,C5,54,96,60,02,C2,
2255678,000001C7,false,Rx,0,4,AA,A0,FF,C0,00,00,00,00,
2256895,00000157,false,Rx,0,8,D5,1B,09,C4,FF,E0,00,80,
2258026,000001A1,false,Rx,0,8,B1,05,5C,10,A5,8C,80,20,
2263031,0000019F,false,Rx,0,8,E1,E1,7D,00,00,6A,50,FE,
2264002,00000155,false,Rx,0,8,43,87,C5,54,96,60,02,C2,
2265682,000001C7,false,Rx,0,4,AA,A0,FF,C0,00,00,00,00,
2266902,00000157,false,Rx,0,8,D5,6B,09,C4,FF,E0,00,80,
2268028,000001A1,false,Rx,0,8,B0,C5,5C,10,A5,8C,80,20,
2273030,0000019F,false,Rx,0,8,E1,E1,7D,05,00,6A,50,FE,
2273952,00000155,false,Rx,0,8,43,87,C5,54,96,60,02,C2,
2275653,000001C7,false,Rx,0,4,AA,A0,FF,C0,00,00,00,00,
2276878,00000157,false,Rx,0,8,D5,BB,09,C4,FF,E0,00,80,
2278024,000001A1,false,Rx,0,8,B0,C5,5C,10,A5,8C,80,20,
2281556,00000500,false,Rx,0,5,02,16,3B,6F,92,00,00,00,
2283029,0000019F,false,Rx,0,8,E1,E1,7D,0A,00,6A,50,FE,
2283952,00000155,false,Rx,0,8,43,87,C5,54,96,60,02,C3,
2285730,000004F7,false,Rx,0,8,00,1A,08,00,90,30,06,F0,
2285903,000001C7,false,Rx,0,4,AA,A0,FF,C0,00,00,00,00,
2286180,00000428,false,Rx,0,8,00,00,00,7F,00,00,00,00,
2286309,0000042F,false,Rx,0,2,00,20,00,00,00,00,00,00,
2286901,00000157,false,Rx,0,8,D5,0B,09,C4,FF,E0,00,80,
2288026,000001A1,false,Rx,0,8,B1,05,5C,10,A5,8C,80,20,
2293031,0000019F,false,Rx,0,8,E1,E1,7D,0F,00,6A,50,FE,
2293303,00000511,false,Rx,0,7,00,C8,73,7F,41,3D,93,00,
2293951,00000155,false,Rx,0,8,43,87,C4,54,96,60,02,C3,
2295654,000001C7,false,Rx,0,4,AA,A0,FF,C0,00,00,00,00,
2296878,00000157,false,Rx,0,8,D5,5B,09,C4,FF,E0,00,80,
2298029,000001A1,false,Rx,0,8,B0,C5,5C,10,A5,8C,80,20,
2303032,0000019F,false,Rx,0,8,E1,E1,7D,04,00,6A,50,FE,
2303927,00000155,false,Rx,0,8,43,87,C4,54,96,60,02,C3,
2305657,000001C7,false,Rx,0,4,AA,A0,FF,C0,00,00,00,00,
2306960,00000157,false,Rx,0,8,D5,AB,09,C4,FF,E0,00,80,
2308029,000001A1,false,Rx,0,8,B1,05,5C,10,A5,8C,80,20,
2313036,0000019F,false,Rx,0,8,E1,E1,7D,09,00,6A,50,FE,
2313893,00000155,false,Rx,0,8,43,87,C5,54,96,60,02,C3,
2315666,000001C7,false,Rx,0,4,AA,A0,FF,C0,00,00,00,00,
2316083,00000445,false,Rx,0,7,80,55,AA,65,04,82,00,00,
2316979,00000157,false,Rx,0,8,D5,FB,09,C4,FF,E0,00,80,
2318029,000001A1,false,Rx,0,8,B1,05,5C,10,A5,8C,80,20,
2321906,00000423,false,Rx,0,8,0B,1D,00,02,5D,80,B2,D8,
2323031,0000019F,false,Rx,0,8,E1,E1,7D,0E,00,6A,50,FE,
2323879,00000155,false,Rx,0,8,43,87,C5,54,96,60,02,C3,
2324104,00000424,false,Rx,0,8,11,40,56,C8,33,5E,55,34,
2324332,00000425,false,Rx,0,8,2A,BA,44,9C,42,18,CD,0B,
2325683,000001C7,false,Rx,0,4,AA,A0,FF,C0,00,00,00,00,
2326930,00000157,false,Rx,0,8,D5,4B,09,C4,FF,E0,00,80,
2327179,00000426,false,Rx,0,8,00,60,01,00,53,18,00,40,
2328028,000001A1,false,Rx,0,8,B0,C5,5C,10,A5,8C,80,20,
2333031,0000019F,false,Rx,0,8,E1,E1,7D,03,00,6A,50,FE,
2333905,00000155,false,Rx,0,8,43,87,C5,54,96,60,02,C3,
2335680,000001C7,false,Rx,0,4,AA,A0,FF,C0,00,00,00,00,
2336929,00000157,false,Rx,0,8,D5,9B,09,C4,FF,E0,00,80,
2338029,000001A1,false,Rx,0,8,B1,05,70,10,A5,8C,80,20,
2341832,00000435,false,Rx,0,8,FF,FF,1E,0B,2E,10,00,00,
2343031,0000019F,false,Rx,0,8,E1,E1,7D,08,00,6A,50,FE,
2343304,00000419,false,Rx,0,6,5E,22,32,E6,42,00,00,00,
2343903,00000155,false,Rx,0,8,43,87,C5,54,96,60,02,C3,
2345680,000001C7,false,Rx,0,4,AA,A0,FF,C0,00,00,00,00,
2346879,00000157,false,Rx,0,8,D5,EB,09,C4,FF,E0,00,80,
2347080,00000436,false,Rx,0,6,86,16,64,3D,FF,DC,00,00,
2348027,000001A1,false,Rx,0,8,B0,C5,5C,10,A5,8C,80,20,
2353033,0000019F,false,Rx,0,8,E1,E1,7D,0D,00,6A,50,FE,
2353903,00000155,false,Rx,0,8,43,87,C4,54,96,60,02,C3,
2355680,000001C7,false,Rx,0,4,AA,A0,FF,C0,00,00,00,00,
2356929,00000157,false,Rx,0,8,D5,3B,09,C4,FF,E0,00,80,
2358030,000001A1,false,Rx,0,8,B1,05,5C,10,A5,8C,80,20,
2363034,0000019F,false,Rx,0,8,E1,E1,7D,02,00,6A,50,FE,
2363997,00000155,false,Rx,0,8,43,87,C4,54,96,60,02,C3,
2365673,000001C7,false,Rx,0,4,AA,A0,FF,C0,00,00,00,00,
2366903,00000157,false,Rx,0,8,D5,8B,09,C4,FF,E0,00,80,
2368025,000001A1,false,Rx,0,8,B1,05,5C,10,A5,8C,80,20,
2373035,0000019F,false,Rx,0,8,E1,E1,7D,07,00,6A,50,FE,
2373930,00000155,false,Rx,0,8,43,87,C5,54,96,60,02,C3,
2375694,000001C7,false,Rx,0,4,AA,A0,FF,C0,00,00,00,00,
2376878,00000157,false,Rx,0,8,D5,DB,09,C4,FF,E0,00,80,
2378030,000001A1,false,Rx,0,8,B0,C5,5C,10,A5,8C,80,20,
2381582,00000500,false,Rx,0,5,02,7E,81,E2,EB,00,00,00,
2383029,0000019F,false,Rx,0,8,E1,E1,7D,0C,00,6A,50,FE,
2383956,00000155,false,Rx,0,8,43,87,C5,54,96,60,02,C3,
2385779,000004F7,false,Rx,0,8,00,1A,08,00,90,30,06,F0,
2385949,000001C7,false,Rx,0,4,AA,A0,FF,C0,00,00,00,00,
2386229,00000428,false,Rx,0,8,00,00,00,7F,00,00,00,00,
2386381,0000042F,false,Rx,0,2,00,20,00,00,00,00,00,00,
2386924,00000157,false,Rx,0,8,D5,2B,09,C4,FF,E0,00,80,
2388023,000001A1,false,Rx,0,8,B0,C5,5C,10,A5,8C,80,20,
2393032,0000019F,false,Rx,0,8,E1,E1,7D,01,00,6A,50,FE,
2393303,00000511,false,Rx,0,7,00,07,3C,38,AC,4A,76,00,
2393978,00000155,false,Rx,0,8,43,87,C5,54,96,60,02,C3,
2395703,000001C7,false,Rx,0,4,AA,A0,FF,C0,00,00,00,00,
2396949,00000157,false,Rx,0,8,D5,7B,09,C4,FF,E0,00,80,
2398022,000001A1,false,Rx,0,8,B1,05,5C,10,A5,8C,80,20,
2403031,0000019F,false,Rx,0,8,E1,E1,7D,06,00,6A,50,FE,
2403957,00000155,false,Rx,0,8,43,87,C5,54,96,60,02,C3,
2405706,000001C7,false,Rx,0,4,AA,A0,FF,C0,00,00,00,00,
2406927,00000157,false,Rx,0,8,D5,CB,09,C4,FF,E0,00,80,
2408027,000001A1,false,Rx,0,8,B1,05,5C,10,A5,8C,80,20,
2413032,0000019F,false,Rx,0,8,E1,E1,7D,0B,00,6A,50,FE,
2413873,00000155,false,Rx,0,8,43,87,C4,54,96,60,02,C3,
2415707,000001C7,false,Rx,0,4,AA,A0,FF,C0,00,00,00,00,
2416129,00000445,false,Rx,0,7,80,55,AA,65,04,82,00,00,
2416951,00000157,false,Rx,0,8,D5,1B,09,C4,FF,E0,00,80,
2418028,000001A1,false,Rx,0,8,B0,C5,5C,10,A5,8C,80,20,
2421828,00000423,false,Rx,0,8,0B,1D,00,02,B2,80,5D,D8,
2423024,0000019F,false,Rx,0,8,E1,E1,7D,00,00,6A,50,FE,
2423873,00000155,false,Rx,0,8,43,87,C4,54,96,60,02,C3,
2424096,00000424,false,Rx,0,8,11,40,56,C8,33,5E,AA,34,
2424321,00000425,false,Rx,0,8,2A,BA,44,9C,42,1A,CD,0B,
2425729,000001C7,false,Rx,0,4,AA,A0,FF,C0,00,00,00,00,
2426953,00000157,false,Rx,0,8,D5,6B,09,C4,FF,E0,00,80,
2427203,00000426,false,Rx,0,8,00,60,01,00,53,18,00,40,
2428029,000001A1,false,Rx,0,8,B1,05,5C,10,A5,8C,80,20,
2433028,0000019F,false,Rx,0,8,E1,E1,7D,05,00,6A,50,FE,
2433872,00000155,false,Rx,0,8,43,87,C5,54,96,60,02,C3,
2435729,000001C7,false,Rx,0,4,AA,A0,FF,C0,00,00,00,00,
2436901,00000157,false,Rx,0,8,D5,BB,09,C4,FF,E0,00,80,
2438025,000001A1,false,Rx,0,8,B1,05,5C,10,A5,8C,80,20,
2441999,00000435,false,Rx,0,8,FF,FF,1E,0B,2E,10,00,00,
2443188,0000019F,false,Rx,0,8,E1,E1,7D,0A,00,6A,50,FE,
2443348,00000419,false,Rx,0,6,5E,22,32,E6,42,00,00,00,
2444069,00000155,false,Rx,0,8,43,87,C5,54,96,60,02,C3,
2445893,000001C7,false,Rx,0,4,AA,A0,FF,C0,00,00,00,00,
2447039,00000157,false,Rx,0,8,D5,0B,09,C4,FF,E0,00,80,
2447140,00000436,false,Rx,0,6,86,16,64,3D,FF,DC,00,00,
2448195,000001A1,false,Rx,0,8,B0,C5,5C,10,A5,8C,80,20,
2453195,0000019F,false,Rx,0,8,E1,E1,7D,0F,00,6A,50,FE,
2454078,00000155,false,Rx,0,8,43,87,C5,54,96,60,02,C3,
2455988,000001C7,false,Rx,0,4,AA,A0,FF,C0,00,00,00,00,
2457128,00000157,false,Rx,0,8,D5,5B,09,C4,FF,E0,00,80,
2458284,000001A1,false,Rx,0,8,B1,05,70,10,A5,8C,80,20,
2463197,0000019F,false,Rx,0,8,E1,E1,7D,04,00,6A,50,FE,
2464235,00000155,false,Rx,0,8,43,87,C5,54,96,60,02,C3,
2466011,000001C7,false,Rx,0,4,AA,A0,FF,C0,00,00,00,00,
2466934,00000157,false,Rx,0,8,D5,AB,09,C4,FF,E0,00,80,
2468184,000001A1,false,Rx,0,8,B1,05,5C,10,A5,8C,80,20,
2473107,0000019F,false,Rx,0,8,E1,E1,7D,09,00,6A,50,FE,
2474213,00000155,false,Rx,0,8,43,87,C4,54,96,60,02,C3,
2476014,000001C7,false,Rx,0,4,AA,A0,FF,C0,00,00,00,00,
2477127,00000157,false,Rx,0,8,D5,FB,09,C4,FF,E0,00,80,
2478291,000001A1,false,Rx,0,8,B0,C5,5C,10,A5,8C,80,20,
2482118,00000500,false,Rx,0,5,02,9C,94,52,ED,00,00,00,
2483186,0000019F,false,Rx,0,8,E1,E1,7D,0E,00,6A,50,FE,
2484218,00000155,false,Rx,0,8,43,87,C4,54,96,60,02,C3,
2486097,000004F7,false,Rx,0,8,00,1A,08,00,90,30,06,F0,
2486107,000001C7,false,Rx,0,4,AA,A0,FF,C0,00,00,00,00,
2486357,00000428,false,Rx,0,8,00,00,00,7F,00,00,00,00,
2486515,0000042F,false,Rx,0,2,00,20,00,00,00,00,00,00,
2487172,00000157,false,Rx,0,8,D5,4B,09,C4,FF,E0,00,80,
2488295,000001A1,false,Rx,0,8,B0,C5,5C,10,A5,8C,80,20,
2493199,0000019F,false,Rx,0,8,E1,E1,7D,03,00,6A,50,FE,
2493376,00000511,false,Rx,0,7,00,46,05,F1,17,57,59,00,
2494244,00000155,false,Rx,0,8,43,87,C5,54,96,60,02,C3,
2496037,000001C7,false,Rx,0,4,AA,A0,FF,C0,00,00,00,00,
2497077,00000157,false,Rx,0,8,D5,9B,09,C4,FF,E0,00,80,
2498093,000001A1,false,Rx,0,8,B1,05,5C,10,A5,8C,80,20,
2503303,0000019F,false,Rx,0,8,E1,E1,7D,08,00,6A,50,FE,
2504180,00000155,false,Rx,0,8,43,87,C5,54,96,60,02,C3,
2506027,000001C7,false,Rx,0,4,AA,A0,FF,C0,00,00,00,00,
2506967,00000157,false,Rx,0,8,D5,EB,09,C4,FF,E0,00,80,
2508301,000001A1,false,Rx,0,8,B0,C5,5C,10,A5,8C,80,20,
2513211,0000019F,false,Rx,0,8,E1,E1,7D,0D,00,6A,50,FE,
2513932,00000155,false,Rx,0,8,43,87,C4,54,96,60,02,C3,
2515800,000001C7,false,Rx,0,4,AA,A0,FF,C0,00,00,00,00,
2516169,00000445,false,Rx,0,7,80,55,55,65,04,82,00,00,
2517158,00000157,false,Rx,0,8,D5,3B,09,C4,FF,E0,00,80,
2518301,000001A1,false,Rx,0,8,B0,C5,5C,10,A5,8C,80,20,
2522154,00000423,false,Rx,0,8,0B,1D,00,02,B2,80,5D,D8,
2523303,0000019F,false,Rx,0,8,E1,E1,7D,02,00,6A,50,FE,
2524153,00000155,false,Rx,0,8,43,87,C5,54,96,60,02,C3,
2524164,00000424,false,Rx,0,8,11,40,56,C8,33,5E,AA,34,
2524384,00000425,false,Rx,0,8,2A,BA,44,9C,42,1A,CD,0B,
2525870,000001C7,false,Rx,0,4,AA,A0,FF,C0,00,00,00,00,
2527178,00000157,false,Rx,0,8,D5,8B,09,C4,FF,E0,00,80,
2527189,00000426,false,Rx,0,8,00,60,01,00,53,18,00,40,
2528304,000001A1,false,Rx,0,8,B0,C5,5C,10,A5,8C,80,20,
2533143,0000019F,false,Rx,0,8,E1,E1,7D,07,00,6A,50,FE,
2534157,00000155,false,Rx,0,8,43,87,C4,54,96,60,02,C3,
2536052,000001C7,false,Rx,0,4,AA,A0,FF,C0,00,00,00,00,
2537125,00000157,false,Rx,0,8,D5,DB,09,C4,FF,E0,00,80,
2538224,000001A1,false,Rx,0,8,B0,C5,5C,10,A5,8C,80,20,
2541890,00000435,false,Rx,0,8,FF,FF,1E,0B,2E,10,00,00,
2543307,0000019F,false,Rx,0,8,E1,E1,7D,0C,00,6A,50,FE,
2543318,00000419,false,Rx,0,6,5E,22,32,E6,42,00,00,00,
2544177,00000155,false,Rx,0,8,43,87,C4,54,96,60,02,C3,
2546054,000001C7,false,Rx,0,4,AA,A0,FF,C0,00,00,00,00,
2547105,00000157,false,Rx,0,8,D5,2B,09,C4,FF,E0,00,80,
2547154,00000436,false,Rx,0,6,86,16,64,3D,FF,DC,00,00,
2548138,000001A1,false,Rx,0,8,B0,C5,5C,10,A5,8C,80,20,
2553214,0000019F,false,Rx,0,8,E1,E1,7D,01,00,6A,50,FE,
2554155,00000155,false,Rx,0,8,43,87,C4,54,96,60,02,C3,
2556054,000001C7,false,Rx,0,4,AA,A0,FF,C0,00,00,00,00,
2557145,00000157,false,Rx,0,8,D5,7B,09,C4,FF,E0,00,80,
2558303,000001A1,false,Rx,0,8,B0,C5,5C,10,A5,8C,80,20,
2563308,0000019F,false,Rx,0,8,E1,E1,7D,06,00,6A,50,FE,
2564104,00000155,false,Rx,0,8,43,87,C3,54,96,60,02,C3,
2566080,000001C7,false,Rx,0,4,AA,A0,FF,C0,00,00,00,00,
2567181,00000157,false,Rx,0,8,D5,CB,09,C4,FF,E0,00,80,
2568304,000001A1,false,Rx,0,8,B1,05,5C,10,A5,8C,80,20,
2573064,0000019F,false,Rx,0,8,E1,E1,7D,0B,00,6A,50,FE,
2573931,00000155,false,Rx,0,8,43,87,C4,54,96,60,02,C3,
2575823,000001C7,false,Rx,0,4,AA,A0,FF,C0,00,00,00,00,
2576980,00000157,false,Rx,0,8,D5,1B,09,C4,FF,E0,00,80,
2578045,000001A1,false,Rx,0,8,B1,05,5C,10,A5,8C,80,20,
2581670,00000500,false,Rx,0,5,02,7A,1D,9A,0C,00,00,00,
2583044,0000019F,false,Rx,0,8,E1,E1,7D,00,00,6A,50,FE,
2583919,00000155,false,Rx,0,8,43,87,C4,54,96,60,02,C3,
2585894,000004F7,false,Rx,0,8,00,1A,08,00,90,30,06,F0,
2586096,000001C7,false,Rx,0,4,AA,A0,FF,C0,00,00,00,00,
2586373,00000428,false,Rx,0,8,00,00,00,7F,00,00,00,00,
2586536,0000042F,false,Rx,0,2,00,20,00,00,00,00,00,00,
2586942,00000157,false,Rx,0,8,D5,6B,09,C4,FF,E0,00,80,
2588043,000001A1,false,Rx,0,8,B0,C5,5C,10,A5,8C,80,20,
2593044,0000019F,false,Rx,0,8,E1,E1,7D,05,00,6A,50,FE,
2593319,00000511,false,Rx,0,7,00,85,CE,AA,82,64,3C,00,
2593992,00000155,false,Rx,0,8,43,87,C4,54,96,60,02,C3,
2595817,000001C7,false,Rx,0,4,AA,A0,FF,C0,00,00,00,00,
2596892,00000157,false,Rx,0,8,D5,BB,09,C4,FF,E0,00,80,
2598041,000001A1,false,Rx,0,8,B0,C5,5C,10,A5,8C,80,20,
2603045,0000019F,false,Rx,0,8,E1,E1,7D,0A,00,6A,50,FE,
2603967,00000155,false,Rx,0,8,43,87,C3,54,96,60,02,C3,
2605818,000001C7,false,Rx,0,4,AA,A0,FF,C0,00,00,00,00,
2606966,00000157,false,Rx,0,8,D5,0B,09,C4,FF,E0,00,80,
2608042,000001A1,false,Rx,0,8,B1,05,5C,10,A5,8C,80,20,
2613045,0000019F,false,Rx,0,8,E1,E1,7D,0F,00,6A,50,FE,
2613892,00000155,false,Rx,0,8,43,87,C4,54,96,60,02,C3,
2615843,000001C7,false,Rx,0,4,AA,A0,FF,C0,00,00,00,00,
2616069,00000445,false,Rx,0,7,80,55,55,65,04,82,00,00,
2616917,00000157,false,Rx,0,8,D5,5B,09,C4,FF,E0,00,80,
2618042,000001A1,false,Rx,0,8,B0,C5,5C,10,A5,8C,80,20,
2621917,00000423,false,Rx,0,8,0B,1D,00,02,B2,80,5D,D8,
2623043,0000019F,false,Rx,0,8,E1,E1,7D,04,00,6A,50,FE,
2623892,00000155,false,Rx,0,8,43,87,C4,54,96,60,02,C3,
2624119,00000424,false,Rx,0,8,11,40,56,C8,33,5E,AA,34,
2624347,00000425,false,Rx,0,8,2A,BA,44,9C,42,18,CD,0C,
2625842,000001C7,false,Rx,0,4,AA,A0,FF,C0,00,00,00,00,
2626891,00000157,false,Rx,0,8,D5,AB,09,C4,FF,E0,00,80,
2627141,00000426,false,Rx,0,8,00,60,01,00,53,18,00,40,
2628038,000001A1,false,Rx,0,8,B0,C5,5C,10,A5,8C,80,20,
2633034,0000019F,false,Rx,0,8,E1,E1,7D,09,00,6A,50,FE,
2633877,00000155,false,Rx,0,8,43,87,C4,54,96,60,02,C3,
2635828,000001C7,false,Rx,0,4,AA,A0,FF,C0,00,00,00,00,
2636980,00000157,false,Rx,0,8,D5,FB,09,C4,FF,E0,00,80,
2638028,000001A1,false,Rx,0,8,B1,05,5C,10,A5,8C,80,20,
2641864,00000435,false,Rx,0,8,FF,FF,1E,0B,2E,10,00,00,
2643042,0000019F,false,Rx,0,8,E1,E1,7D,0E,00,6A,50,FE,
2643306,00000419,false,Rx,0,6,5E,22,32,E6,42,00,00,00,
2643917,00000155,false,Rx,0,8,43,87,C4,54,96,60,02,C3,
2645838,000001C7,false,Rx,0,4,AA,A0,FF,C0,00,00,00,00,
2646858,00000157,false,Rx,0,8,D5,4B,09,C4,FF,E0,00,80,
2647057,00000436,false,Rx,0,6,86,16,64,3D,FF,DC,00,00,
2648033,000001A1,false,Rx,0,8,B0,C5,5C,10,A5,8C,80,20,
2653044,0000019F,false,Rx,0,8,E1,E1,7D,03,00,6A,50,FE,
2653892,00000155,false,Rx,0,8,43,87,C3,54,96,60,02,C3,
2655867,000001C7,false,Rx,0,4,AA,A0,FF,C0,00,00,00,00,
2656968,00000157,false,Rx,0,8,D5,9B,09,C4,FF,E0,00,80,
2658042,000001A1,false,Rx,0,8,B0,C5,5C,10,A5,8C,80,20,
2663035,0000019F,false,Rx,0,8,E1,E1,7D,08,00,6A,50,FE,
2664259,00000155,false,Rx,0,8,43,87,C3,54,96,60,02,C3,
2665859,000001C7,false,Rx,0,4,AA,A0,FF,C0,00,00,00,00,
2666917,00000157,false,Rx,0,8,D5,EB,09,C4,FF,E0,00,80,
2668042,000001A1,false,Rx,0,8,B0,C5,5C,10,A5,8C,80,20,
2673044,0000019F,false,Rx,0,8,E1,E1,7D,0D,00,6A,50,FE,
2673967,00000155,false,Rx,0,8,43,87,C4,54,96,60,02,C3,
2675854,000001C7,false,Rx,0,4,AA,A0,FF,C0,00,00,00,00,
2676968,00000157,false,Rx,0,8,D5,3B,09,C4,FF,E0,00,80,
2678042,000001A1,false,Rx,0,8,B1,05,5C,10,A5,8C,80,20,
2681695,00000500,false,Rx,0,5,02,B8,90,C2,3F,00,00,00,
2683042,0000019F,false,Rx,0,8,E1,E1,7D,02,00,6A,50,FE,
2683968,00000155,false,Rx,0,8,43,87,C4,54,96,60,02,C3,
2685938,000004F7,false,Rx,0,8,00,1A,08,00,90,30,06,F0,
2686112,000001C7,false,Rx,0,4,AA,A0,FF,C0,00,00,00,00,
2686373,00000428,false,Rx,0,8,00,00,00,7F,00,00,00,00,
2686534,0000042F,false,Rx,0,2,00,20,00,00,00,00,00,00,
2686915,00000157,false,Rx,0,8,D5,8B,09,C4,FF,E0,00,80,
2688045,000001A1,false,Rx,0,8,B0,C5,5C,10,A5,8C,80,20,
2693046,0000019F,false,Rx,0,8,E1,E1,7D,07,00,6A,50,FE,
2693311,00000511,false,Rx,0,7,00,C4,97,63,ED,71,1F,00,
2693961,00000155,false,Rx,0,8,43,87,C5,54,96,60,02,C3,
2695886,000001C7,false,Rx,0,4,AA,A0,FF,C0,00,00,00,00,
2696885,00000157,false,Rx,0,8,D5,DB,09,C4,FF,E0,00,80,
2698037,000001A1,false,Rx,0,8,B0,C5,5C,10,A5,8C,80,20,
2703066,0000019F,false,Rx,0,8,E1,E1,7D,0C,00,6A,50,FE,
2703949,00000155,false,Rx,0,8,43,87,C5,54,96,60,02,C3,
2706016,000001C7,false,Rx,0,4,AA,A0,FF,C0,00,00,00,00,
2707068,00000157,false,Rx,0,8,D5,2B,09,C4,FF,E0,00,80,
2708116,000001A1,false,Rx,0,8,B1,05,5C,10,A5,8C,80,20,
2713150,0000019F,false,Rx,0,8,E1,E1,7D,01,00,6A,50,FE,
2713925,00000155,false,Rx,0,8,43,87,C4,54,96,60,02,C3,
2715930,000001C7,false,Rx,0,4,AA,A0,FF,C0,00,00,00,00,
2716109,00000445,false,Rx,0,7,80,55,55,65,04,82,00,00,
2716986,00000157,false,Rx,0,8,D5,7B,09,C4,FF,E0,00,80,
2718295,000001A1,false,Rx,0,8,B0,C5,5C,10,A5,8C,80,20,
2722071,00000423,false,Rx,0,8,0B,1D,00,02,B2,80,5D,D7,
2723197,0000019F,false,Rx,0,8,E1,E1,7D,06,00,6A,50,FE,
2724044,00000155,false,Rx,0,8,43,87,C4,54,96,60,02,C3,
2724097,00000424,false,Rx,0,8,11,40,56,C8,33,5E,AA,34,
2724488,00000425,false,Rx,0,8,2A,BA,44,9C,42,1A,CD,0B,
2726036,000001C7,false,Rx,0,4,AA,A0,FF,C0,00,00,00,00,
2727112,00000157,false,Rx,0,8,D5,CB,09,C4,FF,E0,00,80,
2727202,00000426,false,Rx,0,8,00,60,01,00,53,18,00,40,
2728190,000001A1,false,Rx,0,8,B0,C5,5C,10,A5,8C,80,20,
2733202,0000019F,false,Rx,0,8,E1,E1,7D,0B,00,6A,50,FE,
2733900,00000155,false,Rx,0,8,43,87,C4,54,96,60,02,C3,
2736179,000001C7,false,Rx,0,4,AA,A0,FF,C0,00,00,00,00,
2737111,00000157,false,Rx,0,8,D5,1B,09,C4,FF,E0,00,80,
2738265,000001A1,false,Rx,0,8,B1,05,5C,10,A5,8C,80,20,
2742096,00000435,false,Rx,0,8,FF,FF,1E,0B,2E,10,00,00,
2743120,0000019F,false,Rx,0,8,E1,E1,7D,00,00,6A,50,FE,
2743318,00000419,false,Rx,0,6,5E,24,32,E6,42,00,00,00,
2744148,00000155,false,Rx,0,8,43,87,C4,54,96,60,02,C3,
2746176,000001C7,false,Rx,0,4,AA,A0,FF,C0,00,00,00,00,
2747083,00000157,false,Rx,0,8,D5,6B,09,C4,FF,E0,00,80,
2747143,00000436,false,Rx,0,6,86,16,64,3D,FF,DC,00,00,
2748298,000001A1,false,Rx,0,8,B0,C5,5C,10,A5,8C,80,20,
2753307,0000019F,false,Rx,0,8,E1,E1,7D,05,00,6A,50,FE,
2754157,00000155,false,Rx,0,8,43,87,C4,54,96,60,02,C3,
2755927,000001C7,false,Rx,0,4,AA,A0,FF,C0,00,00,00,00,
2756953,00000157,false,Rx,0,8,D5,BB,09,C4,FF,E0,00,80,
2758081,000001A1,false,Rx,0,8,B0,C5,5C,10,A5,8C,80,20,
2763261,0000019F,false,Rx,0,8,E1,E1,7D,0A,00,6A,50,FE,
2764208,00000155,false,Rx,0,8,43,87,C5,54,96,60,02,C3,
2766135,000001C7,false,Rx,0,4,AA,A0,FF,C0,00,00,00,00,
2767180,00000157,false,Rx,0,8,D5,0B,09,C4,FF,E0,00,80,
2768255,000001A1,false,Rx,0,8,B1,05,5C,10,A5,8C,80,20,
2773126,0000019F,false,Rx,0,8,E1,E1,7D,0F,00,6A,50,FE,
2773958,00000155,false,Rx,0,8,43,87,C4,54,96,60,02,C3,
2776001,000001C7,false,Rx,0,4,AA,A0,FF,C0,00,00,00,00,
2776944,00000157,false,Rx,0,8,D5,5B,09,C4,FF,E0,00,80,
2778043,000001A1,false,Rx,0,8,B0,C5,5C,10,A5,8C,80,20,
2782410,00000500,false,Rx,0,5,02,20,24,76,D1,00,00,00,
2783255,0000019F,false,Rx,0,8,E1,E1,7D,04,00,6A,50,FE,
2784155,00000155,false,Rx,0,8,43,87,C4,54,96,60,02,C3,
2786236,000004F7,false,Rx,0,8,00,1A,08,00,90,30,06,F0,
2786245,000001C7,false,Rx,0,4,AA,A0,FF,C0,00,00,00,00,
2786414,00000428,false,Rx,0,8,00,00,00,7F,00,00,00,00,
2786656,0000042F,false,Rx,0,2,00,20,00,00,00,00,00,00,
2786915,00000157,false,Rx,0,8,D5,AB,09,C4,FF,E0,00,80,
2788255,000001A1,false,Rx,0,8,B1,05,5C,10,A5,8C,80,20,
2793195,0000019F,false,Rx,0,8,E1,E1,7D,09,00,6A,50,FE,
2793328,00000511,false,Rx,0,7,00,03,60,1C,58,7E,02,00,
2794181,00000155,false,Rx,0,8,43,87,C4,54,96,60,02,C3,
2795952,000001C7,false,Rx,0,4,AA,A0,FF,C0,00,00,00,00,
2797110,00000157,false,Rx,0,8,D5,FB,09,C4,FF,E0,00,80,
2798261,000001A1,false,Rx,0,8,B1,05,5C,10,A5,8C,80,20,
2803264,0000019F,false,Rx,0,8,E1,E1,7D,0E,00,6A,50,FE,
2804156,00000155,false,Rx,0,8,43,87,C5,54,96,60,02,C3,
2806021,000001C7,false,Rx,0,4,AA,A0,FF,C0,00,00,00,00,
2807155,00000157,false,Rx,0,8,D5,4B,09,C4,FF,E0,00,80,
2808255,000001A1,false,Rx,0,8,B0,C5,5C,10,A5,8C,80,20,
2813111,0000019F,false,Rx,0,8,E1,E1,7D,03,00,6A,50,FE,
2814106,00000155,false,Rx,0,8,43,87,C4,54,96,60,02,C3,
2816158,000001C7,false,Rx,0,4,AA,A0,FF,C0,00,00,00,00,
2816168,00000445,false,Rx,0,7,80,55,55,65,04,82,00,00,
2816990,00000157,false,Rx,0,8,D5,9B,09,C4,FF,E0,00,80,
2818255,000001A1,false,Rx,0,8,B1,05,5C,10,A5,8C,80,20,
2821879,00000423,false,Rx,0,8,0B,1D,00,02,B2,80,5D,D7,
2823085,0000019F,false,Rx,0,8,E1,E1,7D,08,00,6A,50,FE,
2823873,00000155,false,Rx,0,8,43,87,C5,54,96,60,02,C3,
2824147,00000424,false,Rx,0,8,11,40,56,C8,33,5E,AA,34,
2824314,00000425,false,Rx,0,8,2A,BA,44,9C,42,1A,CD,0B,
2825998,000001C7,false,Rx,0,4,AA,A0,FF,C0,00,00,00,00,
2826976,00000157,false,Rx,0,8,D5,EB,09,C4,FF,E0,00,80,
2827169,00000426,false,Rx,0,8,00,60,01,00,53,18,00,40,
2828073,000001A1,false,Rx,0,8,B0,C5,5C,10,A5,8C,80,20,
2833075,0000019F,false,Rx,0,8,E1,E1,7D,0D,00,6A,50,FE,
2833923,00000155,false,Rx,0,8,43,87,C4,54,96,60,02,C3,
2835999,000001C7,false,Rx,0,4,AA,A0,FF,C0,00,00,00,00,
2836949,00000157,false,Rx,0,8,D5,3B,09,C4,FF,E0,00,80,
2838075,000001A1,false,Rx,0,8,B0,C5,5C,10,A5,8C,80,20,
2841920,00000435,false,Rx,0,8,FF,FF,1E,0B,2E,10,00,00,
2843069,0000019F,false,Rx,0,8,E1,E1,7D,02,00,6A,50,FE,
2843304,00000419,false,Rx,0,6,5E,23,32,E6,42,00,00,00,
2843922,00000155,false,Rx,0,8,43,87,C4,54,96,60,02,C3,
2845995,000001C7,false,Rx,0,4,AA,A0,FF,C0,00,00,00,00,
2846946,00000157,false,Rx,0,8,D5,8B,09,C4,FF,E0,00,80,
2847146,00000436,false,Rx,0,6,86,16,64,3D,FF,DC,00,00,
2848069,000001A1,false,Rx,0,8,B1,05,70,10,A5,8C,80,20,
2853074,0000019F,false,Rx,0,8,E1,E1,7D,07,00,6A,50,FE,
2853919,00000155,false,Rx,0,8,43,87,C4,54,96,60,02,C3,
2856022,000001C7,false,Rx,0,4,AA,A0,FF,C0,00,00,00,00,
2856995,00000157,false,Rx,0,8,D5,DB,09,C4,FF,E0,00,80,
2858069,000001A1,false,Rx,0,8,B0,C5,5C,10,A5,8C,80,20,
2863075,0000019F,false,Rx,0,8,E1,E1,7D,0C,00,6A,50,FE,
2863970,00000155,false,Rx,0,8,43,87,C5,54,96,60,02,C3,
2866026,000001C7,false,Rx,0,4,AA,A0,FF,C0,00,00,00,00,
2866895,00000157,false,Rx,0,8,D5,2B,09,C4,FF,E0,00,80,
2868071,000001A1,false,Rx,0,8,B0,C5,5C,10,A5,8C,80,20,
2873038,0000019F,false,Rx,0,8,E1,E1,7D,01,00,6A,50,FE,
2873970,00000155,false,Rx,0,8,43,87,C5,54,96,60,02,C3,
2876020,000001C7,false,Rx,0,4,AA,A0,FF,C0,00,00,00,00,
2876946,00000157,false,Rx,0,8,D5,7B,09,C4,FF,E0,00,80,
2878078,000001A1,false,Rx,0,8,B1,05,5C,10,A5,8C,80,20,
2881780,00000500,false,Rx,0,5,02,CF,92,A3,DE,00,00,00,
2883070,0000019F,false,Rx,0,8,E1,E1,7D,06,00,6A,50,FE,
2883953,00000155,false,Rx,0,8,43,87,C5,54,96,60,02,C3,
2886062,000004F7,false,Rx,0,8,00,1A,08,00,90,30,06,F0,
2886249,000001C7,false,Rx,0,4,AA,A0,FF,C0,00,00,00,00,
2886527,00000428,false,Rx,0,8,00,00,00,7F,00,00,00,00,
2886649,0000042F,false,Rx,0,2,00,20,00,00,00,00,00,00,
2886950,00000157,false,Rx,0,8,D5,CB,09,C4,FF,E0,00,80,
2888036,000001A1,false,Rx,0,8,B1,05,5C,10,A5,8C,80,20,
2893036,0000019F,false,Rx,0,8,E1,E1,7D,0B,00,6A,50,FE,
2893326,00000511,false,Rx,0,7,00,42,29,D5,C3,8B,E5,00,
2893996,00000155,false,Rx,0,8,43,87,C4,54,96,60,02,C3,
2896023,000001C7,false,Rx,0,4,AA,A0,FF,C0,00,00,00,00,
2896971,00000157,false,Rx,0,8,D5,1B,09,C4,FF,E0,00,80,
2898070,000001A1,false,Rx,0,8,B0,85,5C,10,A5,8C,80,20,
2903072,0000019F,false,Rx,0,8,E1,E1,7D,00,00,6A,50,FE,
2903896,00000155,false,Rx,0,8,43,87,C4,54,96,60,02,C3,
2906047,000001C7,false,Rx,0,4,AA,A0,FF,C0,00,00,00,00,
2907023,00000157,false,Rx,0,8,D5,6B,09,C4,FF,E0,00,80,
2908071,000001A1,false,Rx,0,8,B1,05,5C,10,A5,8C,80,20,
2913071,0000019F,false,Rx,0,8,E1,E1,7D,05,00,6A,50,FE,
2913896,00000155,false,Rx,0,8,43,87,C3,54,96,60,02,C3,
2916074,00000445,false,Rx,0,7,80,55,55,65,04,82,00,00,
2916246,000001C7,false,Rx,0,4,AA,A0,FF,C0,00,00,00,00,
2916946,00000157,false,Rx,0,8,D5,BB,09,C4,FF,E0,00,80,
2918073,000001A1,false,Rx,0,8,B1,05,5C,10,A5,8C,80,20,
2921876,00000423,false,Rx,0,8,0B,1D,00,02,5D,80,B2,D8,
2923072,0000019F,false,Rx,0,8,E1,E1,7D,0A,00,6A,50,FE,
2923897,00000155,false,Rx,0,8,43,87,C4,54,96,60,02,C3,
2924121,00000424,false,Rx,0,8,11,40,56,C8,33,5E,55,34,
2924350,00000425,false,Rx,0,8,2A,BA,44,9C,42,1A,CD,0B,
2926049,000001C7,false,Rx,0,4,AA,A0,FF,C0,00,00,00,00,
2926921,00000157,false,Rx,0,8,D5,0B,09,C4,FF,E0,00,80,
2927147,00000426,false,Rx,0,8,00,60,01,00,53,18,00,40,
2928072,000001A1,false,Rx,0,8,B0,C5,5C,10,A5,8C,80,20,
2933073,0000019F,false,Rx,0,8,E1,E1,7D,0F,00,6A,50,FE,
2933922,00000155,false,Rx,0,8,43,87,C4,54,96,60,02,C3,
2936070,000001C7,false,Rx,0,4,AA,A0,FF,C0,00,00,00,00,
2936922,00000157,false,Rx,0,8,D5,5B,09,C4,FF,E0,00,80,
2938071,000001A1,false,Rx,0,8,B0,C5,5C,10,A5,8C,80,20,
2941898,00000435,false,Rx,0,8,FF,FF,1E,0B,2E,10,00,00,
2943039,0000019F,false,Rx,0,8,E1,E1,7D,04,00,6A,50,FE,
2943308,00000419,false,Rx,0,6,5E,23,32,E6,42,00,00,00,
2943883,00000155,false,Rx,0,8,43,87,C5,54,96,60,02,C3,
2946034,000001C7,false,Rx,0,4,AA,A0,FF,C0,00,00,00,00,
2946859,00000157,false,Rx,0,8,D5,AB,09,C4,FF,E0,00,80,
2947057,00000436,false,Rx,0,6,86,16,64,3D,FF,DC,00,00,
2948033,000001A1,false,Rx,0,8,B1,05,5C,10,A5,8C,80,20,
2953154,0000019F,false,Rx,0,8,E1,E1,7D,09,00,6A,50,FE,
2954095,00000155,false,Rx,0,8,43,87,C4,54,96,60,02,C3,
2956113,000001C7,false,Rx,0,4,AA,A0,FF,C0,00,00,00,00,
2957078,00000157,false,Rx,0,8,D5,FB,09,C4,FF,E0,00,80,
2958248,000001A1,false,Rx,0,8,B0,C5,5C,10,A5,8C,80,20,
2963076,0000019F,false,Rx,0,8,E1,E1,7D,0E,00,6A,50,FE,
2963989,00000155,false,Rx,0,8,43,87,C4,54,96,60,02,C3,
2966075,000001C7,false,Rx,0,4,AA,A0,FF,C0,00,00,00,00,
2967030,00000157,false,Rx,0,8,D5,4B,09,C4,FF,E0,00,80,
2968107,000001A1,false,Rx,0,8,B0,C5,5C,10,A5,8C,80,20,
2973191,0000019F,false,Rx,0,8,E1,E1,7D,03,00,6A,50,FE,
2974124,00000155,false,Rx,0,8,43,87,C4,54,96,60,02,C3,
2976246,000001C7,false,Rx,0,4,AA,A0,FF,C0,00,00,00,00,
2977086,00000157,false,Rx,0,8,D5,9B,09,C4,FF,E0,00,80,
2978244,000001A1,false,Rx,0,8,B1,05,5C,10,A5,8C,80,20,
2981995,00000500,false,Rx,0,5,02,A5,5B,3F,90,00,00,00,
2983154,0000019F,false,Rx,0,8,E1,E1,7D,08,00,6A,50,FE,
2984120,00000155,false,Rx,0,8,43,87,C4,54,96,60,02,C3,
2986348,000004F7,false,Rx,0,8,00,1A,08,00,90,30,06,F0,
2986355,000001C7,false,Rx,0,4,AA,A0,FF,C0,00,00,00,00,
2986533,00000428,false,Rx,0,8,00,00,00,7F,00,00,00,00,
2986780,0000042F,false,Rx,0,2,00,20,00,00,00,00,00,00,
2986933,00000157,false,Rx,0,8,D5,EB,09,C4,FF,E0,00,80,
2988080,000001A1,false,Rx,0,8,B0,C5,5C,10,A5,8C,80,20,
2993246,0000019F,false,Rx,0,8,E1,E1,7D,0D,00,6A,50,FE,
2993315,00000511,false,Rx,0,7,00,81,F2,8E,2E,98,C8,00,
2994171,00000155,false,Rx,0,8,43,87,C4,54,96,60,02,C3,
2996277,000001C7,false,Rx,0,4,AA,A0,FF,C0,00,00,00,00,
2996986,00000157,false,Rx,0,8,D5,3B,09,C4,FF,E0,00,80,
2998152,000001A1,false,Rx,0,8,B0,C5,5C,10,A5,8C,80,20,
3002046,0000069F,false,Rx,0,4,71,30,28,2F,00,00,00,00,
3003094,0000019F,false,Rx,0,8,E1,E1,7D,02,00,6A,50,FE,
3004145,00000155,false,Rx,0,8,43,87,C5,54,96,60,02,C3,
3006274,000001C7,false,Rx,0,4,AA,A0,FF,C0,00,00,00,00,
3007074,00000157,false,Rx,0,8,D5,8B,09,C4,FF,E0,00,80,
3008250,000001A1,false,Rx,0,8,B1,05,5C,10,A5,8C,80,20,
3013164,0000019F,false,Rx,0,8,E1,E1,7D,07,00,6A,50,FE,
3013903,00000155,false,Rx,0,8,43,87,C4,54,96,60,02,C3,
3016044,00000445,false,Rx,0,7,80,55,AA,65,04,82,00,00,
3016296,000001C7,false,Rx,0,4,AA,A0,FF,C0,00,00,00,00,
3017125,00000157,false,Rx,0,8,D5,DB,09,C4,FF,E0,00,80,
3018241,000001A1,false,Rx,0,8,B0,C5,5C,10,A5,8C,80,20,
3022101,00000423,false,Rx,0,8,0B,1D,00,02,5D,80,B2,D8,
3023083,0000019F,false,Rx,0,8,E1,E1,7D,0C,00,6A,50,FE,
3023985,00000155,false,Rx,0,8,43,87,C4,54,96,60,02,C3,
3024146,00000424,false,Rx,0,8,11,40,56,C8,33,5E,55,34,
3024367,00000425,false,Rx,0,8,2A,BA,44,9C,42,18,CD,0B,
3026303,000001C7,false,Rx,0,4,AA,A0,FF,C0,00,00,00,00,
3027038,00000157,false,Rx,0,8,D5,2B,09,C4,FF,E0,00,80,
3027135,00000426,false,Rx,0,8,00,60,01,00,53,18,00,40,
3028250,000001A1,false,Rx,0,8,B0,C5,5C,10,A5,8C,80,20,
3033249,0000019F,false,Rx,0,8,E1,E1,7D,01,00,6A,50,FE,
3034100,00000155,false,Rx,0,8,43,87,C3,54,96,60,02,C3,
3036165,000001C7,false,Rx,0,4,AA,A0,FF,C0,00,00,00,00,
3037176,00000157,false,Rx,0,8,D5,7B,09,C4,FF,E0,00,80,
3038254,000001A1,false,Rx,0,8,B0,C5,5C,10,A5,8C,80,20,
3041959,00000435,false,Rx,0,8,FF,FF,1E,0B,2E,10,00,00,
3043105,0000019F,false,Rx,0,8,E1,E1,7D,06,00,6A,50,FE,
3043373,00000419,false,Rx,0,6,5E,23,32,E6,42,00,00,00,
3044011,00000155,false,Rx,0,8,43,87,C4,54,96,60,02,C3,
3046134,000001C7,false,Rx,0,4,AA,A0,FF,C0,00,00,00,00,
3047059,00000157,false,Rx,0,8,D5,CB,09,C4,FF,E0,00,80,
3047116,00000436,false,Rx,0,6,86,16,64,3D,FF,DC,00,00,
3048158,000001A1,false,Rx,0,8,B0,C5,5C,10,A5,8C,80,20,
3053175,0000019F,false,Rx,0,8,E1,E1,7D,0B,00,6A,50,FE,
3054151,00000155,false,Rx,0,8,43,87,C4,54,96,60,02,C3,
3056383,000001C7,false,Rx,0,4,AA,A0,FF,C0,00,00,00,00,
3056950,00000157,false,Rx,0,8,D5,1B,09,C4,FF,E0,00,80,
3058256,000001A1,false,Rx,0,8,B1,05,5C,10,A5,8C,80,20,
3063252,0000019F,false,Rx,0,8,E1,E1,7D,00,00,6A,50,FE,
3064047,00000155,false,Rx,0,8,43,87,C5,54,96,60,02,C3,
3066313,000001C7,false,Rx,0,4,AA,A0,FF,C0,00,00,00,00,
3067097,00000157,false,Rx,0,8,D5,6B,09,C4,FF,E0,00,80,
3068197,000001A1,false,Rx,0,8,B0,C5,5C,10,A5,8C,80,20,
3073090,0000019F,false,Rx,0,8,E1,E1,7D,05,00,6A,50,FE,
3073952,00000155,false,Rx,0,8,43,87,C5,54,96,60,02,C3,
3076120,000001C7,false,Rx,0,4,AA,A0,FF,C0,00,00,00,00,
3076914,00000157,false,Rx,0,8,D5,BB,09,C4,FF,E0,00,80,
3078042,000001A1,false,Rx,0,8,B0,C5,5C,10,A5,8C,80,20,
3082143,00000500,false,Rx,0,5,02,AA,D9,4F,A7,00,00,00,
3083037,0000019F,false,Rx,0,8,E1,E1,7D,0A,00,6A,50,FE,
3083961,00000155,false,Rx,0,8,43,87,C4,54,96,60,02,C3,
3086187,000004F7,false,Rx,0,8,00,1A,08,00,90,30,06,F0,
3086365,000001C7,false,Rx,0,4,AA,A0,FF,C0,00,00,00,00,
3086611,00000428,false,Rx,0,8,00,00,00,7F,00,00,00,00,
3086864,00000157,false,Rx,0,8,D5,0B,09,C4,FF,E0,00,80,
3087016,0000042F,false,Rx,0,2,00,20,00,00,00,00,00,00,
3088036,000001A1,false,Rx,0,8,B1,05,70,10,A5,8C,80,20,
3093043,0000019F,false,Rx,0,8,E1,E1,7D,0F,00,6A,50,FE,
3093339,00000511,false,Rx,0,7,00,C0,BB,47,99,A5,AB,00,
3093961,00000155,false,Rx,0,8,43,87,C4,54,96,60,02,C3,
3096137,000001C7,false,Rx,0,4,AA,A0,FF,C0,00,00,00,00,
3096912,00000157,false,Rx,0,8,D5,5B,09,C4,FF,E0,00,80,
3098037,000001A1,false,Rx,0,8,B1,05,5C,10,A5,8C,80,20,
3103068,0000019F,false,Rx,0,8,E1,E1,7D,04,00,6A,50,FE,
3103862,00000155,false,Rx,0,8,43,87,C4,54,96,60,02,C3,
3106137,000001C7,false,Rx,0,4,AA,A0,FF,C0,00,00,00,00,
3106862,00000157,false,Rx,0,8,D5,AB,09,C4,FF,E0,00,80,
3108037,000001A1,false,Rx,0,8,B0,C5,5C,10,A5,8C,80,20,
3113045,0000019F,false,Rx,0,8,E1,E1,7D,09,00,6A,50,FE,
3113875,00000155,false,Rx,0,8,43,87,C4,54,96,60,02,C3,
3116037,00000445,false,Rx,0,7,80,55,AA,65,04,82,00,00,
3116213,000001C7,false,Rx,0,4,AA,A0,FF,C0,00,00,00,00,
3116912,00000157,false,Rx,0,8,D5,FB,09,C4,FF,E0,00,80,
3118037,000001A1,false,Rx,0,8,B1,05,5C,10,A5,8C,80,20,
3121788,00000423,false,Rx,0,8,0B,1D,00,02,5D,80,B2,D8,
3123037,0000019F,false,Rx,0,8,E1,E1,7D,0E,00,6A,50,FE,
3123862,00000155,false,Rx,0,8,43,87,C5,54,96,60,02,C3,
3124089,00000424,false,Rx,0,8,11,40,56,C8,33,5E,55,34,
3124317,00000425,false,Rx,0,8,2A,BA,44,9C,42,18,CD,0B,
3126088,000001C7,false,Rx,0,4,AA,A0,FF,C0,00,00,00,00,
3126909,00000157,false,Rx,0,8,D5,4B,09,C4,FF,E0,00,80,
3127162,00000426,false,Rx,0,8,00,60,01,00,53,18,00,40,
3128037,000001A1,false,Rx,0,8,B1,05,5C,10,A5,8C,80,20,
3133038,0000019F,false,Rx,0,8,E1,E1,7D,03,00,6A,50,FE,
3133857,00000155,false,Rx,0,8,43,87,C5,54,96,60,02,C3,
3136089,000001C7,false,Rx,0,4,AA,A0,FF,C0,00,00,00,00,
3136935,00000157,false,Rx,0,8,D5,9B,09,C4,FF,E0,00,80,
3138062,000001A1,false,Rx,0,8,B0,C5,5C,10,A5,8C,80,20,
3141878,00000435,false,Rx,0,8,FF,FF,1E,0B,2E,10,00,00,
3143074,0000019F,false,Rx,0,8,E1,E1,7D,08,00,6A,50,FE,
3143323,00000419,false,Rx,0,6,5E,24,32,E6,42,00,00,00,
3143896,00000155,false,Rx,0,8,43,87,C4,54,96,60,02,C3,
3146114,000001C7,false,Rx,0,4,AA,A0,FF,C0,00,00,00,00,
3146912,00000157,false,Rx,0,8,D5,EB,09,C4,FF,E0,00,80,
3147112,00000436,false,Rx,0,6,86,16,64,3D,FF,DC,00,00,
3148040,000001A1,false,Rx,0,8,B0,C5,5C,10,A5,8C,80,20,
3153050,0000019F,false,Rx,0,8,E1,E1,7D,0D,00,6A,50,FE,
3153863,00000155,false,Rx,0,8,43,87,C4,54,96,60,02,C3,
3156124,000001C7,false,Rx,0,4,AA,A0,FF,C0,00,00,00,00,
3156963,00000157,false,Rx,0,8,D5,3B,09,C4,FF,E0,00,80,
3158037,000001A1,false,Rx,0,8,B1,05,5C,10,A5,8C,80,20,
3163066,0000019F,false,Rx,0,8,E1,E1,7D,02,00,6A,50,FE,
3164038,00000155,false,Rx,0,8,43,87,C4,54,96,60,02,C3,
3166117,000001C7,false,Rx,0,4,AA,A0,FF,C0,00,00,00,00,
3166915,00000157,false,Rx,0,8,D5,8B,09,C4,FF,E0,00,80,
3168038,000001A1,false,Rx,0,8,B0,C5,5C,10,A5,8C,80,20,
3173048,0000019F,false,Rx,0,8,E1,E1,7D,07,00,6A,50,FE,
3173896,00000155,false,Rx,0,8,43,87,C4,54,96,60,02,C3,
3176115,000001C7,false,Rx,0,4,AA,A0,FF,C0,00,00,00,00,
3176889,00000157,false,Rx,0,8,D5,DB,09,C4,FF,E0,00,80,
3178040,000001A1,false,Rx,0,8,B0,C5,5C,10,A5,8C,80,20,
3181872,00000500,false,Rx,0,5,02,E0,E2,0F,3F,00,00,00,
3183039,0000019F,false,Rx,0,8,E1,E1,7D,0C,00,6A,50,FE,
3183887,00000155,false,Rx,0,8,43,87,C5,54,96,60,02,C3,
3186203,000004F7,false,Rx,0,8,00,1A,08,00,90,30,06,F0,
3186372,000001C7,false,Rx,0,4,AA,A0,FF,C0,00,00,00,00,
3186671,00000428,false,Rx,0,8,00,00,00,7F,00,00,00,00,
3186897,00000157,false,Rx,0,8,D5,2B,09,C4,FF,E0,00,80,
3187050,0000042F,false,Rx,0,2,00,20,00,00,00,00,00,00,
3188048,000001A1,false,Rx,0,8,B1,05,5C,10,A5,8C,80,20,
3193049,0000019F,false,Rx,0,8,E1,E1,7D,01,00,6A,50,FE,
3193345,00000511,false,Rx,0,7,00,FF,84,00,04,B2,8E,00,
3193937,00000155,false,Rx,0,8,43,87,C5,54,96,60,02,C2,
3196146,000001C7,false,Rx,0,4,AA,A0,FF,C0,00,00,00,00,
3196937,00000157,false,Rx,0,8,D5,7B,09,C4,FF,E0,00,80,
3198042,000001A1,false,Rx,0,8,B0,C5,70,10,A5,8C,80,20,
3203069,0000019F,false,Rx,0,8,E1,E1,7D,06,00,6A,50,FE,
3203913,00000155,false,Rx,0,8,43,87,C4,54,96,60,02,C2,
3206135,000001C7,false,Rx,0,4,AA,A0,FF,C0,00,00,00,00,
3206930,00000157,false,Rx,0,8,D5,CB,09,C4,FF,E0,00,80,
3208030,000001A1,false,Rx,0,8,B0,C5,5C,10,A5,8C,80,20,
3213040,0000019F,false,Rx,0,8,E1,E1,7D,0B,00,6A,50,FE,
3213861,00000155,false,Rx,0,8,43,87,C3,54,96,60,02,C2,
3216036,00000445,false,Rx,0,7,80,55,AA,65,04,82,00,00,
3216212,000001C7,false,Rx,0,4,AA,A0,FF,C0,00,00,00,00,
3216910,00000157,false,Rx,0,8,D5,1B,09,C4,FF,E0,00,80,
3218034,000001A1,false,Rx,0,8,B0,C5,5C,10,A5,8C,80,20,
3221865,00000423,false,Rx,0,8,0B,1D,00,02,5D,80,B2,D7,
3223037,0000019F,false,Rx,0,8,E1,E1,7D,00,00,6A,50,FE,
3223859,00000155,false,Rx,0,8,43,87,C4,54,96,60,02,C2,
3224087,00000424,false,Rx,0,8,11,40,56,C8,33,5E,55,34,
3224316,00000425,false,Rx,0,8,2A,BA,44,9C,42,18,CD,0B,
3226137,000001C7,false,Rx,0,4,AA,A0,FF,C0,00,00,00,00,
3226884,00000157,false,Rx,0,8,D5,6B,09,C4,FF,E0,00,80,
3227113,00000426,false,Rx,0,8,00,60,01,00,53,18,00,40,
3228037,000001A1,false,Rx,0,8,B0,C5,70,10,A5,8C,80,20,
3233064,0000019F,false,Rx,0,8,E1,E1,7D,05,00,6A,50,FE,
3233859,00000155,false,Rx,0,8,43,87,C4,54,96,60,02,C2,
3236158,000001C7,false,Rx,0,4,AA,A0,FF,C0,00,00,00,00,
3236934,00000157,false,Rx,0,8,D5,BB,09,C4,FF,E0,00,80,
3238036,000001A1,false,Rx,0,8,B0,C5,5C,10,A5,8C,80,20,
3241864,00000435,false,Rx,0,8,FF,FF,1E,0B,2E,10,00,00,
3243036,0000019F,false,Rx,0,8,E1,E1,7D,0A,00,6A,50,FE,
3243312,00000419,false,Rx,0,6,5E,24,32,E6,42,00,00,00,
3243884,00000155,false,Rx,0,8,43,87,C5,54,96,60,02,C2,
3246163,000001C7,false,Rx,0,4,AA,A0,FF,C0,00,00,00,00,
3246912,00000157,false,Rx,0,8,D5,0B,09,C4,FF,E0,00,80,
3247088,00000436,false,Rx,0,6,86,16,64,3D,FF,DC,00,00,
3248035,000001A1,false,Rx,0,8,B0,C5,70,10,A5,8C,80,20,
3253040,0000019F,false,Rx,0,8,E1,E1,7D,0F,00,6A,50,FE,
3253860,00000155,false,Rx,0,8,43,87,C5,54,96,60,02,C2,
3256162,000001C7,false,Rx,0,4,AA,A0,FF,C0,00,00,00,00,
3256960,00000157,false,Rx,0,8,D5,5B,09,C4,FF,E0,00,80,
3258035,000001A1,false,Rx,0,8,B0,C5,5C,10,A5,8C,80,20,
3263039,0000019F,false,Rx,0,8,E1,E1,7D,04,00,6A,50,FE,
3263936,00000155,false,Rx,0,8,43,87,C4,54,96,60,02,C2,
3266165,000001C7,false,Rx,0,4,AA,A0,FF,C0,00,00,00,00,
3266961,00000157,false,Rx,0,8,D5,AB,09,C4,FF,E0,00,80,
3268034,000001A1,false,Rx,0,8,B1,05,5C,10,A5,8C,80,20,
3273040,0000019F,false,Rx,0,8,E1,E1,7D,09,00,6A,50,FE,
3273938,00000155,false,Rx,0,8,43,87,C3,54,96,60,02,C2,
3276166,000001C7,false,Rx,0,4,AA,A0,FF,C0,00,00,00,00,
3276937,00000157,false,Rx,0,8,D5,FB,09,C4,FF,E0,00,80,
3278037,000001A1,false,Rx,0,8,B0,C5,5C,10,A5,8C,80,20,
3281889,00000500,false,Rx,0,5,02,36,6F,E1,BF,00,00,00,
3283061,0000019F,false,Rx,0,8,E1,E1,7D,0E,00,6A,50,FE,
3283911,00000155,false,Rx,0,8,43,87,C4,54,96,60,02,C2,
3286271,000004F7,false,Rx,0,8,00,1A,08,00,90,30,06,F0,
3286438,000001C7,false,Rx,0,4,AA,A0,FF,C0,00,00,00,00,
3286735,00000428,false,Rx,0,8,00,00,00,7F,00,00,00,00,
3286963,00000157,false,Rx,0,8,D5,4B,09,C4,FF,E0,00,80,
3287091,0000042F,false,Rx,0,2,00,20,00,00,00,00,00,00,
3288035,000001A1,false,Rx,0,8,B0,C5,5C,10,A5,8C,80,20,
3293072,0000019F,false,Rx,0,8,E1,E1,7D,03,00,6A,50,FE,
3293339,00000511,false,Rx,0,7,00,3E,4D,B9,6F,BF,71,00,
3293936,00000155,false,Rx,0,8,43,87,C4,54,96,60,02,C1,
3296187,000001C7,false,Rx,0,4,AA,A0,FF,C0,00,00,00,00,
3296885,00000157,false,Rx,0,8,D5,9B,09,C4,FF,E0,00,80,
3298037,000001A1,false,Rx,0,8,B1,05,5C,10,A5,8C,80,20,
3303065,0000019F,false,Rx,0,8,E1,E1,7D,08,00,6A,50,FE,
3303860,00000155,false,Rx,0,8,43,87,C4,54,96,60,02,C2,
3306186,000001C7,false,Rx,0,4,AA,A0,FF,C0,00,00,00,00,
3306959,00000157,false,Rx,0,8,D5,EB,09,C4,FF,E0,00,80,
3308047,000001A1,false,Rx,0,8,B0,C5,5C,10,A5,8C,80,20,
3313039,0000019F,false,Rx,0,8,E1,E1,7D,0D,00,6A,50,FE,
3313861,00000155,false,Rx,0,8,43,87,C5,54,96,60,02,C2,
3316036,00000445,false,Rx,0,7,80,55,AA,65,04,82,00,00,
3316212,000001C7,false,Rx,0,4,AA,A0,FF,C0,00,00,00,00,
3316860,00000157,false,Rx,0,8,D5,3B,09,C4,FF,E0,00,80,
3318035,000001A1,false,Rx,0,8,B0,C5,5C,10,A5,8C,80,20,
3321841,00000423,false,Rx,0,8,0B,1D,00,02,5D,80,B2,D7,
3323062,0000019F,false,Rx,0,8,E1,E1,7D,02,00,6A,50,FE,
3323864,00000155,false,Rx,0,8,43,87,C4,54,96,60,02,C1,
3324063,00000424,false,Rx,0,8,11,40,56,C8,33,5E,55,34,
3324314,00000425,false,Rx,0,8,2A,BA,44,9C,42,18,CD,0B,
3326213,000001C7,false,Rx,0,4,AA,A0,FF,C0,00,00,00,00,
3326962,00000157,false,Rx,0,8,D5,8B,09,C4,FF,E0,00,80,
3327212,00000426,false,Rx,0,8,00,60,01,00,53,18,00,40,
3328034,000001A1,false,Rx,0,8,B1,05,5C,10,A5,8C,80,20,
3333065,0000019F,false,Rx,0,8,E1,E1,7D,07,00,6A,50,FE,
3333860,00000155,false,Rx,0,8,43,87,C4,54,96,60,02,C2,
3336213,000001C7,false,Rx,0,4,AA,A0,FF,C0,00,00,00,00,
3336935,00000157,false,Rx,0,8,D5,DB,09,C4,FF,E0,00,80,
3338035,000001A1,false,Rx,0,8,B0,C5,5C,10,A5,8C,80,20,
3341915,00000435,false,Rx,0,8,FF,FF,1E,0B,2E,10,00,00,
3343062,0000019F,false,Rx,0,8,E1,E1,7D,0C,00,6A,50,FE,
3343312,00000419,false,Rx,0,6,5E,24,32,E6,42,00,00,00,
3343859,00000155,false,Rx,0,8,43,87,C4,54,96,60,02,C1,
3346214,000001C7,false,Rx,0,4,AA,A0,FF,C0,00,00,00,00,
3346835,00000157,false,Rx,0,8,D5,2B,09,C4,FF,E0,00,80,
3347037,00000436,false,Rx,0,6,86,16,64,3D,FF,DC,00,00,
3348035,000001A1,false,Rx,0,8,B0,C5,5C,10,A5,8C,80,20,
3353062,0000019F,false,Rx,0,8,E1,E1,7D,01,00,6A,50,FE,
3353857,00000155,false,Rx,0,8,43,87,C4,54,96,60,02,C2,
3356220,000001C7,false,Rx,0,4,AA,A0,FF,C0,00,00,00,00,
3356913,00000157,false,Rx,0,8,D5,7B,09,C4,FF,E0,00,80,
3358040,000001A1,false,Rx,0,8,B1,05,5C,10,A5,8C,80,20,
3363066,0000019F,false,Rx,0,8,E1,E1,7D,06,00,6A,50,FE,
3363962,00000155,false,Rx,0,8,43,87,C5,54,96,60,02,C2,
3366214,000001C7,false,Rx,0,4,AA,A0,FF,C0,00,00,00,00,
3366912,00000157,false,Rx,0,8,D5,CB,09,C4,FF,E0,00,80,
3368037,000001A1,false,Rx,0,8,B1,05,5C,10,A5,8C,80,20,
3373061,0000019F,false,Rx,0,8,E1,E1,7D,0B,00,6A,50,FE,
3373882,00000155,false,Rx,0,8,43,87,C5,54,96,60,02,C2,
3376236,000001C7,false,Rx,0,4,AA,A0,FF,C0,00,00,00,00,
3376905,00000157,false,Rx,0,8,D5,1B,09,C4,FF,E0,00,80,
3378037,000001A1,false,Rx,0,8,B0,C5,5C,10,A5,8C,80,20,
3382191,00000500,false,Rx,0,5,02,84,86,26,1B,00,00,00,
3383061,0000019F,false,Rx,0,8,E1,E1,7D,00,00,6A,50,FE,
3383910,00000155,false,Rx,0,8,43,87,C4,54,96,60,02,C2,
3386285,000004F7,false,Rx,0,8,00,1A,08,00,90,30,06,F0,
3386523,000001C7,false,Rx,0,4,AA,A0,FF,C0,00,00,00,00,
3386797,00000428,false,Rx,0,8,00,00,00,7F,00,00,00,00,
3387022,00000157,false,Rx,0,8,D5,6B,09,C4,FF,E0,00,80,
3387147,0000042F,false,Rx,0,2,00,20,00,00,00,00,00,00,
3388030,000001A1,false,Rx,0,8,B0,C5,70,10,A5,8C,80,20,
3393039,0000019F,false,Rx,0,8,E1,E1,7D,05,00,6A,50,FE,
3393337,00000511,false,Rx,0,7,00,7D,16,72,DA,CC,54,00,
3393934,00000155,false,Rx,0,8,43,87,C4,54,96,60,02,C2,
3396238,000001C7,false,Rx,0,4,AA,A0,FF,C0,00,00,00,00,
3396861,00000157,false,Rx,0,8,D5,BB,09,C4,FF,E0,00,80,
3398035,000001A1,false,Rx,0,8,B1,05,5C,10,A5,8C,80,20,
3403040,0000019F,false,Rx,0,8,E1,E1,7D,0A,00,6A,50,FE,
3403910,00000155,false,Rx,0,8,43,87,C4,54,96,60,02,C2,
3406237,000001C7,false,Rx,0,4,AA,A0,FF,C0,00,00,00,00,
3406905,00000157,false,Rx,0,8,D5,0B,09,C4,FF,E0,00,80,
3408031,000001A1,false,Rx,0,8,B0,C5,5C,10,A5,8C,80,20,
3413039,0000019F,false,Rx,0,8,E1,E1,7D,0F,00,6A,50,FE,
3413835,00000155,false,Rx,0,8,43,87,C4,54,96,60,02,C2,
3416037,00000445,false,Rx,0,7,80,55,AA,65,04,82,00,00,
3416237,000001C7,false,Rx,0,4,AA,A0,FF,C0,00,00,00,00,
3416959,00000157,false,Rx,0,8,D5,5B,09,C4,FF,E0,00,80,
3418035,000001A1,false,Rx,0,8,B0,C5,5C,10,A5,8C,80,20,
3421887,00000423,false,Rx,0,8,0B,1D,00,02,B2,80,5D,D7,
3423067,0000019F,false,Rx,0,8,E1,E1,7D,04,00,6A,50,FE,
3423837,00000155,false,Rx,0,8,43,87,C5,54,96,60,02,C1,
3424062,00000424,false,Rx,0,8,11,40,56,C8,33,5E,AA,34,
3424290,00000425,false,Rx,0,8,2A,BA,44,9C,42,18,CD,0B,
3426262,000001C7,false,Rx,0,4,AA,A0,FF,C0,00,00,00,00,
3426910,00000157,false,Rx,0,8,D5,AB,09,C4,FF,E0,00,80,
3427163,00000426,false,Rx,0,8,00,60,01,00,53,18,00,40,
3428035,000001A1,false,Rx,0,8,B1,05,70,10,A5,8C,80,20,
3433037,0000019F,false,Rx,0,8,E1,E1,7D,09,00,6A,50,FE,
3433860,00000155,false,Rx,0,8,43,87,C5,54,96,60,02,C2,
3436262,000001C7,false,Rx,0,4,AA,A0,FF,C0,00,00,00,00,
3436936,00000157,false,Rx,0,8,D5,FB,09,C4,FF,E0,00,80,
3438035,000001A1,false,Rx,0,8,B0,C5,5C,10,A5,8C,80,20,
3441837,00000435,false,Rx,0,8,FF,FF,1E,0B,2E,10,00,00,
3443037,0000019F,false,Rx,0,8,E1,E1,7D,0E,00,6A,50,FE,
3443313,00000419,false,Rx,0,6,5E,25,32,E6,42,00,00,00,
3443859,00000155,false,Rx,0,8,43,87,C4,54,96,60,02,C2,
3446263,000001C7,false,Rx,0,4,AA,A0,FF,C0,00,00,00,00,
3446936,00000157,false,Rx,0,8,D5,4B,09,C4,FF,E0,00,80,
3447138,00000436,false,Rx,0,6,86,16,64,3D,FF,DC,00,00,
3448035,000001A1,false,Rx,0,8,B1,05,5C,10,A5,8C,80,20,
3453039,0000019F,false,Rx,0,8,E1,E1,7D,03,00,6A,50,FE,
3453861,00000155,false,Rx,0,8,43,87,C4,54,96,60,02,C2,
3456261,000001C7,false,Rx,0,4,AA,A0,FF,C0,00,00,00,00,
3456970,00000157,false,Rx,0,8,D5,9B,09,C4,FF,E0,00,80,
3458196,000001A1,false,Rx,0,8,B0,C5,5C,10,A5,8C,80,20,
3463301,0000019F,false,Rx,0,8,E1,E1,7D,08,00,6A,50,FE,
3464131,00000155,false,Rx,0,8,43,87,C4,54,96,60,02,C1,
3466426,000001C7,false,Rx,0,4,AA,A0,FF,C0,00,00,00,00,
3467098,00000157,false,Rx,0,8,D5,EB,09,C4,FF,E0,00,80,
3468072,000001A1,false,Rx,0,8,B1,05,5C,10,A5,8C,80,20,
3473167,0000019F,false,Rx,0,8,E1,E1,7D,0D,00,6A,50,FE,
3474040,00000155,false,Rx,0,8,43,87,C4,54,96,60,02,C2,
3476359,000001C7,false,Rx,0,4,AA,A0,FF,C0,00,00,00,00,
3476992,00000157,false,Rx,0,8,D5,3B,09,C4,FF,E0,00,80,
3478185,000001A1,false,Rx,0,8,B1,05,5C,10,A5,8C,80,20,
3482201,00000500,false,Rx,0,5,02,C7,62,8D,0A,00,00,00,
3483241,0000019F,false,Rx,0,8,E1,E1,7D,02,00,6A,50,FE,
3484061,00000155,false,Rx,0,8,43,87,C4,54,96,60,02,C2,
3486428,000004F7,false,Rx,0,8,00,1A,08,00,90,30,06,F0,
3486528,000001C7,false,Rx,0,4,AA,A0,FF,C0,00,00,00,00,
3486903,00000428,false,Rx,0,8,00,00,00,7F,00,00,00,00,
3487059,00000157,false,Rx,0,8,D5,8B,09,C4,FF,E0,00,80,
3487219,0000042F,false,Rx,0,2,00,20,00,00,00,00,00,00,
3488160,000001A1,false,Rx,0,8,B0,C5,5C,10,A5,8C,80,20,
3493271,0000019F,false,Rx,0,8,E1,E1,7D,07,00,6A,50,FE,
3493341,00000511,false,Rx,0,7,00,BC,DF,2B,45,D9,37,00,
3494151,00000155,false,Rx,0,8,43,87,C5,54,96,60,02,C1,
3496488,000001C7,false,Rx,0,4,AA,A0,FF,C0,00,00,00,00,
3497061,00000157,false,Rx,0,8,D5,DB,09,C4,FF,E0,00,80,
3498248,000001A1,false,Rx,0,8,B1,05,5C,10,A5,8C,80,20,
3503252,0000019F,false,Rx,0,8,E1,E1,7D,0C,00,6A,50,FE,
3504011,00000155,false,Rx,0,8,43,87,C4,54,96,60,02,C2,
3506501,000001C7,false,Rx,0,4,AA,A0,FF,C0,00,00,00,00,
3507058,00000157,false,Rx,0,8,D5,2B,09,C4,FF,E0,00,80,
3508164,000001A1,false,Rx,0,8,B1,05,5C,10,A5,8C,80,20,
3513279,0000019F,false,Rx,0,8,E1,E1,7D,01,00,6A,50,FE,
3514056,00000155,false,Rx,0,8,43,87,C4,54,96,60,02,C2,
3516232,00000445,false,Rx,0,7,80,55,55,65,04,82,00,00,
3516298,000001C7,false,Rx,0,4,AA,A0,FF,C0,00,00,00,00,
3517074,00000157,false,Rx,0,8,D5,7B,09,C4,FF,E0,00,80,
3518256,000001A1,false,Rx,0,8,B0,C5,5C,10,A5,8C,80,20,
3522107,00000423,false,Rx,0,8,0B,1D,00,02,B2,80,5D,D7,
3523287,0000019F,false,Rx,0,8,E1,E1,7D,06,00,6A,50,FE,
3524065,00000155,false,Rx,0,8,43,87,C3,54,96,60,02,C1,
3524075,00000424,false,Rx,0,8,11,40,56,C8,33,5E,AA,34,
3524338,00000425,false,Rx,0,8,2A,BA,44,9C,42,18,CD,0B,
3526540,000001C7,false,Rx,0,4,AA,A0,FF,C0,00,00,00,00,
3527080,00000157,false,Rx,0,8,D5,CB,09,C4,FF,E0,00,80,
3527152,00000426,false,Rx,0,8,00,60,01,00,53,18,00,40,
3528262,000001A1,false,Rx,0,8,B0,C5,5C,10,A5,8C,80,20,
3533183,0000019F,false,Rx,0,8,E1,E1,7D,0B,00,6A,50,FE,
3533912,00000155,false,Rx,0,8,43,87,C4,54,96,60,02,C2,
3536397,000001C7,false,Rx,0,4,AA,A0,FF,C0,00,00,00,00,
3537073,00000157,false,Rx,0,8,D5,1B,09,C4,FF,E0,00,80,
3538261,000001A1,false,Rx,0,8,B1,05,5C,10,A5,8C,80,20,
3542089,00000435,false,Rx,0,8,FF,FF,1E,0B,2E,10,00,00,
3543114,0000019F,false,Rx,0,8,E1,E1,7D,00,00,6A,50,FE,
3543356,00000419,false,Rx,0,6,5E,24,32,E6,42,00,00,00,
3544090,00000155,false,Rx,0,8,43,87,C4,54,96,60,02,C2,
3546498,000001C7,false,Rx,0,4,AA,A0,FF,C0,00,00,00,00,
