Time Stamp,ID,Extended,Dir,Bus,LEN,D1,D2,D3,D4,D5,D6,D7,D8
687660,0000019F,false,Rx,0,8,E1,E1,7D,0D,00,6A,50,FE,
689043,000001C7,false,Rx,0,4,AA,A0,FF,C0,00,00,00,00,
689470,00000155,false,Rx,0,8,48,87,C6,54,96,98,02,C2,
691011,00000157,false,Rx,0,8,D5,3B,09,C4,FF,E0,00,80,
692660,000001A1,false,Rx,0,8,B1,05,5C,11,A5,8C,80,20,
695964,00000423,false,Rx,0,8,0B,1D,00,02,5D,80,B2,D8,
696455,00000445,false,Rx,0,7,80,55,AA,65,04,82,00,00,
697665,0000019F,false,Rx,0,8,E1,E1,7D,02,00,6A,50,FE,
699325,000004F7,false,Rx,0,8,00,1A,08,00,90,30,06,F0,
699336,000001C7,false,Rx,0,4,AA,A0,FF,C0,00,00,00,00,
699536,00000155,false,Rx,0,8,48,87,C6,54,96,98,02,C2,
699724,00000424,false,Rx,0,8,11,40,56,C8,33,5E,55,34,
699929,00000425,false,Rx,0,8,2A,BA,44,9C,42,18,CD,0B,
700252,00000428,false,Rx,0,8,00,00,00,7F,00,00,00,00,
700325,0000042F,false,Rx,0,2,00,20,00,00,00,00,00,00,
700928,00000157,false,Rx,0,8,D5,8B,09,C4,FF,E0,00,80,
701155,00000426,false,Rx,0,8,00,60,01,00,53,18,00,40,
702623,000001A1,false,Rx,0,8,B1,05,5C,11,A5,8C,80,20,
707678,0000019F,false,Rx,0,8,E1,E1,7D,07,00,6A,50,FE,
709149,000001C7,false,Rx,0,4,AA,A0,FF,C0,00,00,00,00,
709474,00000155,false,Rx,0,8,48,87,C6,54,96,98,02,C2,
711073,00000157,false,Rx,0,8,D5,DB,09,C4,FF,E0,00,80,
712656,000001A1,false,Rx,0,8,B1,05,5C,11,A5,8C,80,20,
714767,00000500,false,Rx,0,5,02,1C,5A,E7,47,00,00,00,
716043,00000435,false,Rx,0,8,FF,FF,1E,0B,2E,10,00,00,
717651,0000019F,false,Rx,0,8,E1,E1,7D,0C,00,6A,50,FE,
717902,00000419,false,Rx,0,6,5E,22,32,E6,40,00,00,00,
719106,000001C7,false,Rx,0,4,AA,A0,FF,C0,00,00,00,00,
719500,00000155,false,Rx,0,8,48,87,C4,54,96,98,02,C2,
721110,00000157,false,Rx,0,8,D5,2B,09,C4,FF,E0,00,80,
721237,00000436,false,Rx,0,6,86,16,64,3B,FF,DC,00,00,
722594,000001A1,false,Rx,0,8,B0,C5,5C,11,A5,8C,80,20,
727594,0000019F,false,Rx,0,8,E1,E1,7D,01,00,6A,50,FE,
728995,000001C7,false,Rx,0,4,AA,A0,FF,C0,00,00,00,00,
729392,00000155,false,Rx,0,8,48,87,C4,54,96,98,02,C2,
731065,00000157,false,Rx,0,8,D5,7B,09,C4,FF,E0,00,80,
732583,000001A1,false,Rx,0,8,B1,05,5C,11,A5,8C,80,20,
737586,0000019F,false,Rx,0,8,E1,E1,7D,06,00,6A,50,FE,
738986,000001C7,false,Rx,0,4,AA,A0,FF,C0,00,00,00,00,
739517,00000155,false,Rx,0,8,48,87,C5,54,96,98,02,C2,
741039,00000157,false,Rx,0,8,D5,CB,09,C4,FF,E0,00,80,
742574,000001A1,false,Rx,0,8,B0,C5,5C,11,A5,8C,80,20,
747582,0000019F,false,Rx,0,8,E1,E1,7D,0B,00,6A,50,FE,
748986,000001C7,false,Rx,0,4,AA,A0,FF,C0,00,00,00,00,
749407,00000155,false,Rx,0,8,48,87,C5,54,96,98,02,C2,
751031,00000157,false,Rx,0,8,D5,1B,09,C4,FF,E0,00,80,
752573,000001A1,false,Rx,0,8,B1,05,5C,11,A5,8C,80,20,
757582,0000019F,false,Rx,0,8,E1,E1,7D,00,00,6A,50,FE,
759003,000001C7,false,Rx,0,4,AA,A0,FF,C0,00,00,00,00,
759405,00000155,false,Rx,0,8,48,87,C5,54,96,98,02,C2,
761026,00000157,false,Rx,0,8,D5,6B,09,C4,FF,E0,00,80,
762579,000001A1,false,Rx,0,8,B0,C5,5C,11,A5,8C,80,20,
767581,0000019F,false,Rx,0,8,E1,E1,7D,05,00,6A,50,FE,
767827,00000511,false,Rx,0,7,00,D5,FE,DA,12,54,4C,00,
769006,000001C7,false,Rx,0,4,AA,A0,FF,C0,00,00,00,00,
769457,00000155,false,Rx,0,8,48,87,C5,54,96,98,02,C2,
771078,00000157,false,Rx,0,8,D5,BB,09,C4,FF,E0,00,80,
772586,000001A1,false,Rx,0,8,B0,C5,5C,11,A5,8C,80,20,
777586,0000019F,false,Rx,0,8,E1,E1,7D,0A,00,6A,50,FE,
779007,000001C7,false,Rx,0,4,AA,A0,FF,C0,00,00,00,00,
779460,00000155,false,Rx,0,8,48,87,C6,54,96,98,02,C2,
781010,00000157,false,Rx,0,8,D5,0B,09,C4,FF,E0,00,80,
782574,000001A1,false,Rx,0,8,B1,05,5C,11,A5,8C,80,20,
787591,0000019F,false,Rx,0,8,E1,E1,7D,0F,00,6A,50,FE,
789039,000001C7,false,Rx,0,4,AA,A0,FF,C0,00,00,00,00,
789384,00000155,false,Rx,0,8,48,87,C5,54,96,98,02,C2,
790932,00000157,false,Rx,0,8,D5,5B,09,C4,FF,E0,00,80,
792575,000001A1,false,Rx,0,8,B0,C5,5C,11,A5,8C,80,20,
795895,00000423,false,Rx,0,8,0B,1D,00,02,5D,80,B2,D8,
796416,00000445,false,Rx,0,7,80,55,AA,65,04,82,00,00,
797578,0000019F,false,Rx,0,8,E1,E1,7D,04,00,6A,50,FE,
799106,000004F7,false,Rx,0,8,00,1A,08,00,90,30,06,F0,
799256,000001C7,false,Rx,0,4,AA,A0,FF,C0,00,00,00,00,
799491,00000155,false,Rx,0,8,48,87,C4,54,96,98,02,C2,
799727,00000424,false,Rx,0,8,11,40,56,C8,33,5E,55,34,
799955,00000425,false,Rx,0,8,2A,BA,44,9C,42,18,CD,0B,
800184,00000428,false,Rx,0,8,00,00,00,7F,00,00,00,00,
800363,0000042F,false,Rx,0,2,00,20,00,00,00,00,00,00,
800980,00000157,false,Rx,0,8,D5,AB,09,C4,FF,E0,00,80,
801205,00000426,false,Rx,0,8,00,60,01,00,53,18,00,40,
802572,000001A1,false,Rx,0,8,B0,C5,5C,11,A5,8C,80,20,
807577,0000019F,false,Rx,0,8,E1,E1,7D,09,00,6A,50,FE,
809035,000001C7,false,Rx,0,4,AA,A0,FF,C0,00,00,00,00,
809385,00000155,false,Rx,0,8,48,87,C4,54,96,98,02,C2,
810936,00000157,false,Rx,0,8,D5,FB,09,C4,FF,E0,00,80,
812575,000001A1,false,Rx,0,8,B1,05,5C,11,A5,8C,80,20,
814663,00000500,false,Rx,0,5,02,81,FE,9F,B6,00,00,00,
815908,00000435,false,Rx,0,8,FF,FF,1E,0B,2E,10,00,00,
817580,0000019F,false,Rx,0,8,E1,E1,7D,0E,00,6A,50,FE,
817805,00000419,false,Rx,0,6,5E,22,32,E6,40,00,00,00,
819037,000001C7,false,Rx,0,4,AA,A0,FF,C0,00,00,00,00,
819382,00000155,false,Rx,0,8,48,87,C5,54,96,98,02,C2,
821010,00000157,false,Rx,0,8,D5,4B,09,C4,FF,E0,00,80,
821197,00000436,false,Rx,0,6,86,16,64,3B,FF,DC,00,00,
822576,000001A1,false,Rx,0,8,B1,05,5C,11,A5,8C,80,20,
827584,0000019F,false,Rx,0,8,E1,E1,7D,03,00,6A,50,FE,
829032,000001C7,false,Rx,0,4,AA,A0,FF,C0,00,00,00,00,
829383,00000155,false,Rx,0,8,48,87,C5,54,96,98,02,C2,
831031,00000157,false,Rx,0,8,D5,9B,09,C4,FF,E0,00,80,
832574,000001A1,false,Rx,0,8,B0,C5,5C,11,A5,8C,80,20,
837584,0000019F,false,Rx,0,8,E1,E1,7D,08,00,6A,50,FE,
839072,000001C7,false,Rx,0,4,AA,A0,FF,C0,00,00,00,00,
839460,00000155,false,Rx,0,8,48,87,C5,54,96,98,02,C3,
840960,00000157,false,Rx,0,8,D5,EB,09,C4,FF,E0,00,80,
842576,000001A1,false,Rx,0,8,B1,05,5C,11,A5,8C,80,20,
847579,0000019F,false,Rx,0,8,E1,E1,7D,0D,00,6A,50,FE,
849059,000001C7,false,Rx,0,4,AA,A0,FF,C0,00,00,00,00,
849434,00000155,false,Rx,0,8,48,87,C5,54,96,98,02,C3,
850957,00000157,false,Rx,0,8,D5,3B,09,C4,FF,E0,00,80,
852583,000001A1,false,Rx,0,8,B1,05,5C,11,A5,8C,80,20,
857580,0000019F,false,Rx,0,8,E1,E1,7D,02,00,6A,50,FE,
859060,000001C7,false,Rx,0,4,AA,A0,FF,C0,00,00,00,00,
859432,00000155,false,Rx,0,8,48,87,C4,54,96,98,02,C3,
860984,00000157,false,Rx,0,8,D5,8B,09,C4,FF,E0,00,80,
862576,000001A1,false,Rx,0,8,B0,C5,5C,11,A5,8C,80,20,
867584,0000019F,false,Rx,0,8,E1,E1,7D,07,00,6A,50,FE,
867829,00000511,false,Rx,0,7,00,14,C7,93,7D,61,2F,00,
869057,000001C7,false,Rx,0,4,AA,A0,FF,C0,00,00,00,00,
869458,00000155,false,Rx,0,8,48,87,C4,54,96,98,02,C3,
870983,00000157,false,Rx,0,8,D5,DB,09,C4,FF,E0,00,80,
872575,000001A1,false,Rx,0,8,B1,05,5C,11,A5,8C,80,20,
877609,0000019F,false,Rx,0,8,E1,E1,7D,0C,00,6A,50,FE,
879056,000001C7,false,Rx,0,4,AA,A0,FF,C0,00,00,00,00,
879411,00000155,false,Rx,0,8,48,87,C5,54,96,98,02,C3,
881008,00000157,false,Rx,0,8,D5,2B,09,C4,FF,E0,00,80,
882574,000001A1,false,Rx,0,8,B1,05,5C,11,A5,8C,80,20,
887581,0000019F,false,Rx,0,8,E1,E1,7D,01,00,6A,50,FE,
889092,000001C7,false,Rx,0,4,AA,A0,FF,C0,00,00,00,00,
889385,00000155,false,Rx,0,8,48,87,C5,54,96,98,02,C3,
891013,00000157,false,Rx,0,8,D5,7B,09,C4,FF,E0,00,80,
892582,000001A1,false,Rx,0,8,B0,C5,5C,11,A5,8C,80,20,
895892,00000423,false,Rx,0,8,0B,1D,00,02,5D,80,B2,D8,
896408,00000445,false,Rx,0,7,80,55,AA,65,04,82,00,00,
897578,0000019F,false,Rx,0,8,E1,E1,7D,06,00,6A,50,FE,
899160,000004F7,false,Rx,0,8,00,1A,08,00,90,30,06,F0,
899380,00000155,false,Rx,0,8,48,87,C5,54,96,98,02,C3,
899573,000001C7,false,Rx,0,4,AA,A0,FF,C0,00,00,00,00,
899778,00000424,false,Rx,0,8,11,40,56,C8,33,5E,55,34,
900006,00000425,false,Rx,0,8,2A,BA,44,9C,42,18,CD,0B,
900260,00000428,false,Rx,0,8,00,00,00,7F,00,00,00,00,
900387,0000042F,false,Rx,0,2,00,20,00,00,00,00,00,00,
900988,00000157,false,Rx,0,8,D5,CB,09,C4,FF,E0,00,80,
901239,00000426,false,Rx,0,8,00,60,01,00,53,18,00,40,
902576,000001A1,false,Rx,0,8,B1,05,5C,11,A5,8C,80,20,
907583,0000019F,false,Rx,0,8,E1,E1,7D,0B,00,6A,50,FE,
909084,000001C7,false,Rx,0,4,AA,A0,FF,C0,00,00,00,00,
909383,00000155,false,Rx,0,8,48,87,C6,54,96,98,02,C3,
910941,00000157,false,Rx,0,8,D5,1B,09,C4,FF,E0,00,80,
912581,000001A1,false,Rx,0,8,B1,05,5C,11,A5,8C,80,20,
914914,00000500,false,Rx,0,5,02,E7,75,D3,B4,00,00,00,
915907,00000435,false,Rx,0,8,FF,FF,1E,0B,2E,10,00,00,
917576,0000019F,false,Rx,0,8,E1,E1,7D,00,00,6A,50,FE,
917804,00000419,false,Rx,0,6,5E,22,32,E6,40,00,00,00,
919082,000001C7,false,Rx,0,4,AA,A0,FF,C0,00,00,00,00,
919384,00000155,false,Rx,0,8,48,87,C5,54,96,98,02,C3,
920957,00000157,false,Rx,0,8,D5,6B,09,C4,FF,E0,00,80,
921158,00000436,false,Rx,0,6,86,16,64,3B,FF,DC,00,00,
922576,000001A1,false,Rx,0,8,B1,05,5C,11,A5,8C,80,20,
927585,0000019F,false,Rx,0,8,E1,E1,7D,05,00,6A,50,FE,
929115,000001C7,false,Rx,0,4,AA,A0,FF,C0,00,00,00,00,
929384,00000155,false,Rx,0,8,48,87,C5,54,96,98,02,C3,
930983,00000157,false,Rx,0,8,D5,BB,09,C4,FF,E0,00,80,
932577,000001A1,false,Rx,0,8,B0,C5,5C,11,A5,8C,80,20,
937585,0000019F,false,Rx,0,8,E1,E1,7D,0A,00,6A,50,FE,
939106,000001C7,false,Rx,0,4,AA,A0,FF,C0,00,00,00,00,
939486,00000155,false,Rx,0,8,48,87,C4,54,96,98,02,C3,
940961,00000157,false,Rx,0,8,D5,0B,09,C4,FF,E0,00,80,
942585,000001A1,false,Rx,0,8,B1,05,5C,11,A5,8C,80,20,
947587,0000019F,false,Rx,0,8,E1,E1,7D,0F,00,6A,50,FE,
949108,000001C7,false,Rx,0,4,AA,A0,FF,C0,00,00,00,00,
949410,00000155,false,Rx,0,8,48,87,C5,54,96,98,02,C3,
950940,00000157,false,Rx,0,8,D5,5B,09,C4,FF,E0,00,80,
952577,000001A1,false,Rx,0,8,B0,C5,5C,11,A5,8C,80,20,
957585,0000019F,false,Rx,0,8,E1,E1,7D,04,00,6A,50,FE,
959134,000001C7,false,Rx,0,4,AA,A0,FF,C0,00,00,00,00,
959410,00000155,false,Rx,0,8,48,87,C5,54,96,98,02,C3,
960983,00000157,false,Rx,0,8,D5,AB,09,C4,FF,E0,00,80,
962579,000001A1,false,Rx,0,8,B1,05,5C,11,A5,8C,80,20,
967585,0000019F,false,Rx,0,8,E1,E1,7D,09,00,6A,50,FE,
967831,00000511,false,Rx,0,7,00,53,90,4C,E8,6E,12,00,
969132,000001C7,false,Rx,0,4,AA,A0,FF,C0,00,00,00,00,
969457,00000155,false,Rx,0,8,48,87,C5,54,96,98,02,C3,
971018,00000157,false,Rx,0,8,D5,FB,09,C4,FF,E0,00,80,
972581,000001A1,false,Rx,0,8,B1,05,5C,11,A5,8C,80,20,
977577,0000019F,false,Rx,0,8,E1,E1,7D,0E,00,6A,50,FE,
979130,000001C7,false,Rx,0,4,AA,A0,FF,C0,00,00,00,00,
979432,00000155,false,Rx,0,8,48,87,C5,54,96,98,02,C3,
980929,00000157,false,Rx,0,8,D5,4B,09,C4,FF,E0,00,80,
982577,000001A1,false,Rx,0,8,B0,C5,5C,11,A5,8C,80,20,
987579,0000019F,false,Rx,0,8,E1,E1,7D,03,00,6A,50,FE,
989131,000001C7,false,Rx,0,4,AA,A0,FF,C0,00,00,00,00,
989355,00000155,false,Rx,0,8,48,87,C5,54,96,98,02,C3,
991004,00000157,false,Rx,0,8,D5,9B,09,C4,FF,E0,00,80,
992572,000001A1,false,Rx,0,8,B1,05,5C,11,A5,8C,80,20,
995955,00000423,false,Rx,0,8,0B,1D,00,02,B2,80,5D,D8,
996399,00000445,false,Rx,0,7,80,55,55,65,04,82,00,00,
997567,0000019F,false,Rx,0,8,E1,E1,7D,08,00,6A,50,FE,
999200,000004F7,false,Rx,0,8,00,1A,08,00,90,30,06,F0,
999422,00000155,false,Rx,0,8,48,87,C5,54,96,98,02,C3,
999596,000001C7,false,Rx,0,4,AA,A0,FF,C0,00,00,00,00,
999822,00000424,false,Rx,0,8,11,40,56,C8,33,5E,AA,34,
1000046,00000425,false,Rx,0,8,2A,BA,44,9C,42,18,CD,0B,
1000296,00000428,false,Rx,0,8,00,00,00,7F,00,00,00,00,
1000446,0000042F,false,Rx,0,2,00,20,00,00,00,00,00,00,
1000973,00000157,false,Rx,0,8,D5,EB,09,C4,FF,E0,00,80,
1001196,00000426,false,Rx,0,8,00,60,01,00,53,18,00,40,
1002567,000001A1,false,Rx,0,8,B1,05,5C,11,A5,8C,80,20,
1007578,0000019F,false,Rx,0,8,E1,E1,7D,0D,00,6A,50,FE,
1009159,000001C7,false,Rx,0,4,AA,A0,FF,C0,00,00,00,00,
1009381,00000155,false,Rx,0,8,48,87,C4,54,96,98,02,C3,
1010955,00000157,false,Rx,0,8,D5,3B,09,C4,FF,E0,00,80,
1012576,000001A1,false,Rx,0,8,B0,C5,5C,11,A5,8C,80,20,
1014711,00000500,false,Rx,0,5,02,DB,38,EC,C0,00,00,00,
1015961,00000435,false,Rx,0,8,FF,FF,1E,0B,2E,10,00,00,
1017581,0000019F,false,Rx,0,8,E1,E1,7D,02,00,6A,50,FE,
1017802,00000419,false,Rx,0,6,5E,22,32,E6,40,00,00,00,
1019153,000001C7,false,Rx,0,4,AA,A0,FF,C0,00,00,00,00,
1019374,00000155,false,Rx,0,8,48,87,C4,54,96,98,02,C3,
1020929,00000157,false,Rx,0,8,D5,8B,09,C4,FF,E0,00,80,
1021150,00000436,false,Rx,0,6,86,16,64,3B,FF,DC,00,00,
1022570,000001A1,false,Rx,0,8,B1,05,5C,11,A5,8C,80,20,
1027577,0000019F,false,Rx,0,8,E1,E1,7D,07,00,6A,50,FE,
1029163,000001C7,false,Rx,0,4,AA,A0,FF,C0,00,00,00,00,
1029384,00000155,false,Rx,0,8,48,87,C5,54,96,98,02,C3,
1030931,00000157,false,Rx,0,8,D5,DB,09,C4,FF,E0,00,80,
1032575,000001A1,false,Rx,0,8,B1,05,5C,11,A5,8C,80,20,
1037571,0000019F,false,Rx,0,8,E1,E1,7D,0C,00,6A,50,FE,
1039172,000001C7,false,Rx,0,4,AA,A0,FF,C0,00,00,00,00,
1039447,00000155,false,Rx,0,8,48,87,C5,54,96,98,02,C3,
1040999,00000157,false,Rx,0,8,D5,2B,09,C4,FF,E0,00,80,
1042566,000001A1,false,Rx,0,8,B0,C5,5C,11,A5,8C,80,20,
1047577,0000019F,false,Rx,0,8,E1,E1,7D,01,00,6A,50,FE,
1049181,000001C7,false,Rx,0,4,AA,A0,FF,C0,00,00,00,00,
1049431,00000155,false,Rx,0,8,48,87,C5,54,96,98,02,C3,
1050952,00000157,false,Rx,0,8,D5,7B,09,C4,FF,E0,00,80,
1052571,000001A1,false,Rx,0,8,B1,05,5C,11,A5,8C,80,20,
1057576,0000019F,false,Rx,0,8,E1,E1,7D,06,00,6A,50,FE,
1059180,000001C7,false,Rx,0,4,AA,A0,FF,C0,00,00,00,00,
1059432,00000155,false,Rx,0,8,48,87,C5,54,96,98,02,C3,
1060905,00000157,false,Rx,0,8,D5,CB,09,C4,FF,E0,00,80,
1062574,000001A1,false,Rx,0,8,B1,05,5C,11,A5,8C,80,20,
1067577,0000019F,false,Rx,0,8,E1,E1,7D,0B,00,6A,50,FE,
1067827,00000511,false,Rx,0,7,00,92,59,05,53,7B,F5,00,
1069180,000001C7,false,Rx,0,4,AA,A0,FF,C0,00,00,00,00,
1069456,00000155,false,Rx,0,8,48,87,C5,54,96,98,02,C3,
1071008,00000157,false,Rx,0,8,D5,1B,09,C4,FF,E0,00,80,
1072571,000001A1,false,Rx,0,8,B0,C5,5C,11,A5,8C,80,20,
1077611,0000019F,false,Rx,0,8,E1,E1,7D,00,00,6A,50,FE,
1079231,000001C7,false,Rx,0,4,AA,A0,FF,C0,00,00,00,00,
1079405,00000155,false,Rx,0,8,48,87,C4,54,96,98,02,C3,
1081003,00000157,false,Rx,0,8,D5,6B,09,C4,FF,E0,00,80,
1082573,000001A1,false,Rx,0,8,B0,C5,5C,11,A5,8C,80,20,
1087611,0000019F,false,Rx,0,8,E1,E1,7D,05,00,6A,50,FE,
1089243,000001C7,false,Rx,0,4,AA,A0,FF,C0,00,00,00,00,
1089430,00000155,false,Rx,0,8,48,87,C4,54,96,98,02,C3,
1090983,00000157,false,Rx,0,8,D5,BB,09,C4,FF,E0,00,80,
1092572,000001A1,false,Rx,0,8,B1,05,5C,11,A5,8C,80,20,
1095981,00000423,false,Rx,0,8,0B,1D,00,02,B2,80,5D,D8,
1096406,00000445,false,Rx,0,7,80,55,55,65,04,82,00,00,
1097571,0000019F,false,Rx,0,8,E1,E1,7D,0A,00,6A,50,FE,
1099308,000004F7,false,Rx,0,8,00,1A,08,00,90,30,06,F0,
1099499,00000155,false,Rx,0,8,48,87,C5,54,96,98,02,C3,
1099671,000001C7,false,Rx,0,4,AA,A0,FF,C0,00,00,00,00,
1099896,00000424,false,Rx,0,8,11,40,56,C8,33,5E,AA,34,
1100121,00000425,false,Rx,0,8,2A,BA,44,9C,42,18,CD,0B,
1100373,00000428,false,Rx,0,8,00,00,00,7F,00,00,00,00,
1100567,0000042F,false,Rx,0,2,00,20,00,00,00,00,00,00,
1100913,00000157,false,Rx,0,8,D5,0B,09,C4,FF,E0,00,80,
1101164,00000426,false,Rx,0,8,00,60,01,00,53,18,00,40,
1102568,000001A1,false,Rx,0,8,B0,C5,5C,11,A5,8C,80,20,
1107602,0000019F,false,Rx,0,8,E1,E1,7D,0F,00,6A,50,FE,
1109228,000001C7,false,Rx,0,4,AA,A0,FF,C0,00,00,00,00,
1109431,00000155,false,Rx,0,8,48,87,C5,54,96,98,02,C3,
1110930,00000157,false,Rx,0,8,D5,5B,09,C4,FF,E0,00,80,
1112573,000001A1,false,Rx,0,8,B1,05,5C,11,A5,8C,80,20,
1114770,00000500,false,Rx,0,5,02,FB,AB,5A,2E,00,00,00,
1115899,00000435,false,Rx,0,8,FF,FF,1E,0B,2E,10,00,00,
1117567,0000019F,false,Rx,0,8,E1,E1,7D,04,00,6A,50,FE,
1117815,00000419,false,Rx,0,6,5E,22,32,E6,40,00,00,00,
1119224,000001C7,false,Rx,0,4,AA,A0,FF,C0,00,00,00,00,
1119421,00000155,false,Rx,0,8,48,87,C5,54,96,98,02,C3,
1120979,00000157,false,Rx,0,8,D5,AB,09,C4,FF,E0,00,80,
1121180,00000436,false,Rx,0,6,86,16,64,3B,FF,DC,00,00,
1122572,000001A1,false,Rx,0,8,B1,05,5C,11,A5,8C,80,20,
1127610,0000019F,false,Rx,0,8,E1,E1,7D,09,00,6A,50,FE,
1129231,000001C7,false,Rx,0,4,AA,A0,FF,C0,00,00,00,00,
1129455,00000155,false,Rx,0,8,48,87,C6,54,96,98,02,C3,
1131038,00000157,false,Rx,0,8,D5,FB,09,C4,FF,E0,00,80,
1132607,000001A1,false,Rx,0,8,B0,C5,5C,11,A5,8C,80,20,
1137612,0000019F,false,Rx,0,8,E1,E1,7D,0E,00,6A,50,FE,
1139230,000001C7,false,Rx,0,4,AA,A0,FF,C0,00,00,00,00,
1139516,00000155,false,Rx,0,8,48,87,C5,54,96,98,02,C3,
1141192,00000157,false,Rx,0,8,D5,4B,09,C4,FF,E0,00,80,
1142747,000001A1,false,Rx,0,8,B0,C5,5C,11,A5,8C,80,20,
1147579,0000019F,false,Rx,0,8,E1,E1,7D,03,00,6A,50,FE,
1149233,000001C7,false,Rx,0,4,AA,A0,FF,C0,00,00,00,00,
1149459,00000155,false,Rx,0,8,48,87,C4,54,96,98,02,C3,
1151007,00000157,false,Rx,0,8,D5,9B,09,C4,FF,E0,00,80,
1152575,000001A1,false,Rx,0,8,B1,05,5C,11,A5,8C,80,20,
1157577,0000019F,false,Rx,0,8,E1,E1,7D,08,00,6A,50,FE,
1159257,000001C7,false,Rx,0,4,AA,A0,FF,C0,00,00,00,00,
1159455,00000155,false,Rx,0,8,48,87,C4,54,96,98,02,C3,
1160962,00000157,false,Rx,0,8,D5,EB,09,C4,FF,E0,00,80,
1162580,000001A1,false,Rx,0,8,B0,C5,5C,11,A5,8C,80,20,
1167582,0000019F,false,Rx,0,8,E1,E1,7D,0D,00,6A,50,FE,
1167832,00000511,false,Rx,0,7,00,D1,22,BE,BE,88,D8,00,
1169262,000001C7,false,Rx,0,4,AA,A0,FF,C0,00,00,00,00,
1169484,00000155,false,Rx,0,8,48,87,C5,54,96,98,02,C3,
1171012,00000157,false,Rx,0,8,D5,3B,09,C4,FF,E0,00,80,
1172571,000001A1,false,Rx,0,8,B1,05,5C,11,A5,8C,80,20,
1177613,0000019F,false,Rx,0,8,E1,E1,7D,02,00,6A,50,FE,
1179286,000001C7,false,Rx,0,4,AA,A0,FF,C0,00,00,00,00,
1179476,00000155,false,Rx,0,8,48,87,C5,54,96,98,02,C3,
1180978,00000157,false,Rx,0,8,D5,8B,09,C4,FF,E0,00,80,
1182609,000001A1,false,Rx,0,8,B1,05,5C,11,A5,8C,80,20,
1187620,0000019F,false,Rx,0,8,E1,E1,7D,07,00,6A,50,FE,
1189306,000001C7,false,Rx,0,4,AA,A0,FF,C0,00,00,00,00,
1189485,00000155,false,Rx,0,8,48,87,C6,54,96,98,02,C3,
1191056,00000157,false,Rx,0,8,D5,DB,09,C4,FF,E0,00,80,
1192587,000001A1,false,Rx,0,8,B1,05,5C,11,A5,8C,80,20,
1195898,00000423,false,Rx,0,8,0B,1D,00,02,B2,80,5D,D8,
1196420,00000445,false,Rx,0,7,80,55,55,65,04,82,00,00,
1197613,0000019F,false,Rx,0,8,E1,E1,7D,0C,00,6A,50,FE,
1199371,000004F7,false,Rx,0,8,00,1A,08,00,90,30,06,F0,
1199612,00000155,false,Rx,0,8,48,87,C6,54,96,98,02,C3,
1199790,000001C7,false,Rx,0,4,AA,A0,FF,C0,00,00,00,00,
1200011,00000424,false,Rx,0,8,11,40,56,C8,33,5E,AA,34,
1200235,00000425,false,Rx,0,8,2A,BA,44,9C,42,18,CD,0B,
1200482,00000428,false,Rx,0,8,00,00,00,7F,00,00,00,00,
1200567,0000042F,false,Rx,0,2,00,20,00,00,00,00,00,00,
1200970,00000157,false,Rx,0,8,D5,2B,09,C4,FF,E0,00,80,
1201203,00000426,false,Rx,0,8,00,60,01,00,53,18,00,40,
1202627,000001A1,false,Rx,0,8,B1,05,5C,11,A5,8C,80,20,
1207623,0000019F,false,Rx,0,8,E1,E1,7D,01,00,6A,50,FE,
1209330,000001C7,false,Rx,0,4,AA,A0,FF,C0,00,00,00,00,
1209558,00000155,false,Rx,0,8,48,87,C5,54,96,98,02,C3,
1210935,00000157,false,Rx,0,8,D5,7B,09,C4,FF,E0,00,80,
1212622,000001A1,false,Rx,0,8,B1,05,5C,11,A5,8C,80,20,
1215097,00000500,false,Rx,0,5,02,80,A4,4D,0C,00,00,00,
1216004,00000435,false,Rx,0,8,FF,FF,1E,0B,2E,10,00,00,
1217622,0000019F,false,Rx,0,8,E1,E1,7D,06,00,6A,50,FE,
1217856,00000419,false,Rx,0,6,5E,22,32,E6,40,00,00,00,
1219324,000001C7,false,Rx,0,4,AA,A0,FF,C0,00,00,00,00,
1219515,00000155,false,Rx,0,8,48,87,C4,54,96,98,02,C3,
1220980,00000157,false,Rx,0,8,D5,CB,09,C4,FF,E0,00,80,
1221164,00000436,false,Rx,0,6,86,16,64,3B,FF,DC,00,00,
1222623,000001A1,false,Rx,0,8,B0,C5,5C,11,A5,8C,80,20,
1227628,0000019F,false,Rx,0,8,E1,E1,7D,0B,00,6A,50,FE,
1229334,000001C7,false,Rx,0,4,AA,A0,FF,C0,00,00,00,00,
1229557,00000155,false,Rx,0,8,48,87,C4,54,96,98,02,C3,
1231083,00000157,false,Rx,0,8,D5,1B,09,C4,FF,E0,00,80,
1232623,000001A1,false,Rx,0,8,B1,05,5C,11,A5,8C,80,20,
1237581,0000019F,false,Rx,0,8,E1,E1,7D,00,00,6A,50,FE,
1239307,000001C7,false,Rx,0,4,AA,A0,FF,C0,00,00,00,00,
1239731,00000155,false,Rx,0,8,48,87,C4,54,96,98,02,C3,
1240958,00000157,false,Rx,0,8,D5,6B,09,C4,FF,E0,00,80,
1242575,000001A1,false,Rx,0,8,B0,C5,5C,11,A5,8C,80,20,
1247624,0000019F,false,Rx,0,8,E1,E1,7D,05,00,6A,50,FE,
1249358,000001C7,false,Rx,0,4,AA,A0,FF,C0,00,00,00,00,
1249608,00000155,false,Rx,0,8,48,87,C5,54,96,98,02,C3,
1251046,00000157,false,Rx,0,8,D5,BB,09,C4,FF,E0,00,80,
1252651,000001A1,false,Rx,0,8,B0,C5,5C,11,A5,8C,80,20,
1257592,0000019F,false,Rx,0,8,E1,E1,7D,0A,00,6A,50,FE,
1259321,000001C7,false,Rx,0,4,AA,A0,FF,C0,00,00,00,00,
1259584,00000155,false,Rx,0,8,48,87,C5,54,96,98,02,C3,
1260914,00000157,false,Rx,0,8,D5,0B,09,C4,FF,E0,00,80,
1262589,000001A1,false,Rx,0,8,B1,05,5C,11,A5,8C,80,20,
1267608,0000019F,false,Rx,0,8,E1,E1,7D,0F,00,6A,50,FE,
1267835,00000511,false,Rx,0,7,00,10,EB,77,29,95,BB,00,
1269323,000001C7,false,Rx,0,4,AA,A0,FF,C0,00,00,00,00,
1269649,00000155,false,Rx,0,8,48,87,C6,54,96,98,02,C3,
1271144,00000157,false,Rx,0,8,D5,5B,09,C4,FF,E0,00,80,
1272649,000001A1,false,Rx,0,8,B1,05,5C,11,A5,8C,80,20,
1277735,0000019F,false,Rx,0,8,E1,E1,7D,04,00,6A,50,FE,
1279589,00000155,false,Rx,0,8,48,87,C6,54,96,98,02,C3,
1279598,000001C7,false,Rx,0,4,AA,A0,FF,C0,00,00,00,00,
1280994,00000157,false,Rx,0,8,D5,AB,09,C4,FF,E0,00,80,
1282748,000001A1,false,Rx,0,8,B0,C5,5C,11,A5,8C,80,20,
1287598,0000019F,false,Rx,0,8,E1,E1,7D,09,00,6A,50,FE,
1289601,00000155,false,Rx,0,8,48,87,C5,54,96,98,02,C3,
1289610,000001C7,false,Rx,0,4,AA,A0,FF,C0,00,00,00,00,
1291243,00000157,false,Rx,0,8,D5,FB,09,C4,FF,E0,00,80,
1292657,000001A1,false,Rx,0,8,B1,05,5C,11,A5,8C,80,20,
1295914,00000423,false,Rx,0,8,0B,1D,00,02,B2,80,5D,D8,
1296459,00000445,false,Rx,0,7,80,55,55,65,04,82,00,00,
1297746,0000019F,false,Rx,0,8,E1,E1,7D,0E,00,6A,50,FE,
1299592,00000155,false,Rx,0,8,48,87,C4,54,96,98,02,C3,
1299599,00000424,false,Rx,0,8,11,40,56,C8,33,5E,AA,34,
1299831,00000425,false,Rx,0,8,2A,BA,44,9C,42,18,CD,0B,
1300103,000004AE,false,Rx,0,8,D2,B2,3C,A0,92,5A,88,84,
1300311,000004F7,false,Rx,0,8,00,1A,08,00,90,30,06,F0,
1300453,000004AF,false,Rx,0,5,65,3B,4B,3A,40,00,00,00,
1300619,000001C7,false,Rx,0,4,AA,A0,FF,C0,00,00,00,00,
1300931,00000428,false,Rx,0,8,00,00,00,7F,00,00,00,00,
1301158,00000157,false,Rx,0,8,D5,4B,09,C4,FF,E0,00,80,
1301304,0000042F,false,Rx,0,2,00,20,00,00,00,00,00,00,
1301525,00000426,false,Rx,0,8,00,60,01,00,53,18,00,40,
1301685,00000659,false,Rx,0,4,26,00,03,36,00,00,00,00,
1302749,000001A1,false,Rx,0,8,B1,05,5C,11,A5,8C,80,20,
1307749,0000019F,false,Rx,0,8,E1,E1,7D,03,00,6A,50,FE,
1309388,000001C7,false,Rx,0,4,AA,A0,FF,C0,00,00,00,00,
1309561,00000155,false,Rx,0,8,48,87,C4,54,96,98,02,C3,
1311231,00000157,false,Rx,0,8,D5,9B,09,C4,FF,E0,00,80,
1312817,000001A1,false,Rx,0,8,B0,C5,5C,11,A5,8C,80,20,
1315028,00000500,false,Rx,0,5,02,4B,F4,EF,44,00,00,00,
1316015,00000435,false,Rx,0,8,FF,FF,1E,0B,2E,10,00,00,
1317650,0000019F,false,Rx,0,8,E1,E1,7D,08,00,6A,50,FE,
1317845,00000419,false,Rx,0,6,5E,22,32,E6,40,00,00,00,
1319596,00000155,false,Rx,0,8,48,87,C5,54,96,98,02,C3,
1319606,000001C7,false,Rx,0,4,AA,A0,FF,C0,00,00,00,00,
1321103,00000157,false,Rx,0,8,D5,EB,09,C4,FF,E0,00,80,
1321223,00000436,false,Rx,0,6,86,16,64,3B,FF,DC,00,00,
1322743,000001A1,false,Rx,0,8,B0,C5,5C,11,A5,8C,80,20,
1327657,0000019F,false,Rx,0,8,E1,E1,7D,0D,00,6A,50,FE,
1329623,00000155,false,Rx,0,8,48,87,C6,54,96,98,02,C3,
1329632,000001C7,false,Rx,0,4,AA,A0,FF,C0,00,00,00,00,
1331013,00000157,false,Rx,0,8,D5,3B,09,C4,FF,E0,00,80,
1332652,000001A1,false,Rx,0,8,B1,05,5C,11,A5,8C,80,20,
1337750,0000019F,false,Rx,0,8,E1,E1,7D,02,00,6A,50,FE,
1339390,000001C7,false,Rx,0,4,AA,A0,FF,C0,00,00,00,00,
1339593,00000155,false,Rx,0,8,48,87,C6,54,96,98,02,C3,
1341097,00000157,false,Rx,0,8,D5,8B,09,C4,FF,E0,00,80,
1342654,000001A1,false,Rx,0,8,B0,C5,5C,11,A5,8C,80,20,
1347755,0000019F,false,Rx,0,8,E1,E1,7D,07,00,6A,50,FE,
1349490,00000155,false,Rx,0,8,48,87,C6,54,96,98,02,C3,
1349577,000001C7,false,Rx,0,4,AA,A0,FF,C0,00,00,00,00,
1351193,00000157,false,Rx,0,8,D5,DB,09,C4,FF,E0,00,80,
1352600,000001A1,false,Rx,0,8,B0,C5,5C,11,A5,8C,80,20,
1357658,0000019F,false,Rx,0,8,E1,E1,7D,0C,00,6A,50,FE,
1359650,00000155,false,Rx,0,8,48,87,C5,54,96,98,02,C3,
1359660,000001C7,false,Rx,0,4,AA,A0,FF,C0,00,00,00,00,
1361084,00000157,false,Rx,0,8,D5,2B,09,C4,FF,E0,00,80,
1362812,000001A1,false,Rx,0,8,B1,05,5C,11,A5,8C,80,20,
1367750,0000019F,false,Rx,0,8,E1,E1,7D,01,00,6A,50,FE,
1367832,00000511,false,Rx,0,7,00,4F,B4,30,94,A2,9E,00,
1369504,000001C7,false,Rx,0,4,AA,A0,FF,C0,00,00,00,00,
1369577,00000155,false,Rx,0,8,48,87,C5,54,96,98,02,C3,
1371174,00000157,false,Rx,0,8,D5,7B,09,C4,FF,E0,00,80,
1372769,000001A1,false,Rx,0,8,B1,05,5C,11,A5,8C,80,20,
1377662,0000019F,false,Rx,0,8,E1,E1,7D,06,00,6A,50,FE,
1379612,000001C7,false,Rx,0,4,AA,A0,FF,C0,00,00,00,00,
1379623,00000155,false,Rx,0,8,48,87,C4,54,96,98,02,C3,
1381114,00000157,false,Rx,0,8,D5,CB,09,C4,FF,E0,00,80,
1382751,000001A1,false,Rx,0,8,B0,C5,5C,11,A5,8C,80,20,
1387602,0000019F,false,Rx,0,8,E1,E1,7D,0B,00,6A,50,FE,
1389503,00000155,false,Rx,0,8,48,87,C5,54,96,98,02,C3,
1389512,000001C7,false,Rx,0,4,AA,A0,FF,C0,00,00,00,00,
1391078,00000157,false,Rx,0,8,D5,1B,09,C4,FF,E0,00,80,
1392660,000001A1,false,Rx,0,8,B1,05,5C,11,A5,8C,80,20,
1396018,00000423,false,Rx,0,8,0B,1D,00,02,B2,80,5D,D8,
1396421,00000445,false,Rx,0,7,80,55,55,65,04,82,00,00,
1397629,0000019F,false,Rx,0,8,E1,E1,7D,00,00,6A,50,FE,
1399386,00000155,false,Rx,0,8,48,87,C6,54,96,98,02,C3,
1399627,00000424,false,Rx,0,8,11,40,56,C8,33,5E,AA,34,
1399834,00000425,false,Rx,0,8,2A,BA,44,9C,42,18,CD,0B,
1400090,000004F7,false,Rx,0,8,00,1A,08,00,90,30,06,F0,
1400190,000001C7,false,Rx,0,4,AA,A0,FF,C0,00,00,00,00,
1400506,00000428,false,Rx,0,8,00,00,00,7F,00,00,00,00,
1400659,0000042F,false,Rx,0,2,00,20,00,00,00,00,00,00,
1401041,00000157,false,Rx,0,8,D5,6B,09,C4,FF,E0,00,80,
1401263,00000426,false,Rx,0,8,00,60,01,00,53,18,00,40,
1402629,000001A1,false,Rx,0,8,B0,C5,5C,11,A5,8C,80,20,
1407625,0000019F,false,Rx,0,8,E1,E1,7D,05,00,6A,50,FE,
1409383,00000155,false,Rx,0,8,48,87,C5,54,96,98,02,C3,
1409525,000001C7,false,Rx,0,4,AA,A0,FF,C0,00,00,00,00,
1411031,00000157,false,Rx,0,8,D5,BB,09,C4,FF,E0,00,80,
1412625,000001A1,false,Rx,0,8,B1,05,5C,11,A5,8C,80,20,
1414907,00000500,false,Rx,0,5,02,D8,4F,A2,FB,00,00,00,
1415982,00000435,false,Rx,0,8,FF,FF,1E,0B,2E,10,00,00,
1417624,0000019F,false,Rx,0,8,E1,E1,7D,0A,00,6A,50,FE,
1417879,00000419,false,Rx,0,6,5E,22,32,E6,40,00,00,00,
1419409,00000155,false,Rx,0,8,48,87,C6,54,96,98,02,C3,
1419519,000001C7,false,Rx,0,4,AA,A0,FF,C0,00,00,00,00,
1421056,00000157,false,Rx,0,8,D5,0B,09,C4,FF,E0,00,80,
1421246,00000436,false,Rx,0,6,86,16,64,3B,FF,DC,00,00,
1422626,000001A1,false,Rx,0,8,B1,05,5C,11,A5,8C,80,20,
1427626,0000019F,false,Rx,0,8,E1,E1,7D,0F,00,6A,50,FE,
1429407,00000155,false,Rx,0,8,48,87,C6,54,96,98,02,C3,
1429524,000001C7,false,Rx,0,4,AA,A0,FF,C0,00,00,00,00,
1431032,00000157,false,Rx,0,8,D5,5B,09,C4,FF,E0,00,80,
1432625,000001A1,false,Rx,0,8,B1,05,5C,11,A5,8C,80,20,
1437630,0000019F,false,Rx,0,8,E1,E1,7D,04,00,6A,50,FE,
1439407,000001C7,false,Rx,0,4,AA,A0,FF,C0,00,00,00,00,
1439624,00000155,false,Rx,0,8,48,87,C5,54,96,98,02,C3,
1441056,00000157,false,Rx,0,8,D5,AB,09,C4,FF,E0,00,80,
1442628,000001A1,false,Rx,0,8,B1,05,5C,11,A5,8C,80,20,
1447625,0000019F,false,Rx,0,8,E1,E1,7D,09,00,6A,50,FE,
1449457,00000155,false,Rx,0,8,48,87,C4,54,96,98,02,C3,
1449595,000001C7,false,Rx,0,4,AA,A0,FF,C0,00,00,00,00,
1450985,00000157,false,Rx,0,8,D5,FB,09,C4,FF,E0,00,80,
1452581,000001A1,false,Rx,0,8,B0,C5,5C,11,A5,8C,80,20,
1457582,0000019F,false,Rx,0,8,E1,E1,7D,0E,00,6A,50,FE,
1459422,00000155,false,Rx,0,8,48,87,C4,54,96,98,02,C3,
1459588,000001C7,false,Rx,0,4,AA,A0,FF,C0,00,00,00,00,
1460994,00000157,false,Rx,0,8,D5,4B,09,C4,FF,E0,00,80,
1462577,000001A1,false,Rx,0,8,B0,C5,5C,11,A5,8C,80,20,
1467632,0000019F,false,Rx,0,8,E1,E1,7D,03,00,6A,50,FE,
1467884,00000511,false,Rx,0,7,00,8E,7D,E9,FF,AF,81,00,
1469438,00000155,false,Rx,0,8,48,87,C5,54,96,98,02,C3,
1469598,000001C7,false,Rx,0,4,AA,A0,FF,C0,00,00,00,00,
1471007,00000157,false,Rx,0,8,D5,9B,09,C4,FF,E0,00,80,
1472591,000001A1,false,Rx,0,8,B1,05,5C,11,A5,8C,80,20,
1477619,0000019F,false,Rx,0,8,E1,E1,7D,08,00,6A,50,FE,
1479396,00000155,false,Rx,0,8,48,87,C5,54,96,98,02,C3,
1479616,000001C7,false,Rx,0,4,AA,A0,FF,C0,00,00,00,00,
1480956,00000157,false,Rx,0,8,D5,EB,09,C4,FF,E0,00,80,
1482626,000001A1,false,Rx,0,8,B1,05,5C,11,A5,8C,80,20,
1487625,0000019F,false,Rx,0,8,E1,E1,7D,0D,00,6A,50,FE,
1489384,00000155,false,Rx,0,8,48,87,C6,54,96,98,02,C3,
1489515,000001C7,false,Rx,0,4,AA,A0,FF,C0,00,00,00,00,
1491056,00000157,false,Rx,0,8,D5,3B,09,C4,FF,E0,00,80,
1492627,000001A1,false,Rx,0,8,B0,C5,5C,11,A5,8C,80,20,
1495911,00000423,false,Rx,0,8,0B,1D,00,02,5D,80,B2,D8,
1496387,00000445,false,Rx,0,7,80,55,AA,65,04,82,00,00,
1497626,0000019F,false,Rx,0,8,E1,E1,7D,02,00,6A,50,FE,
1499384,00000155,false,Rx,0,8,48,87,C6,54,96,98,02,C3,
1499624,00000424,false,Rx,0,8,11,40,56,C8,33,5E,55,34,
1499831,00000425,false,Rx,0,8,2A,BA,44,9C,42,18,CD,0B,
1500059,000004F7,false,Rx,0,8,00,1A,08,00,90,30,06,F0,
1500238,000001C7,false,Rx,0,4,AA,A0,FF,C0,00,00,00,00,
1500493,00000428,false,Rx,0,8,00,00,00,7F,00,00,00,00,
1500633,0000042F,false,Rx,0,2,00,20,00,00,00,00,00,00,
1500983,00000157,false,Rx,0,8,D5,8B,09,C4,FF,E0,00,80,
1501237,00000426,false,Rx,0,8,00,60,01,00,53,18,00,40,
1502625,000001A1,false,Rx,0,8,B1,05,5C,11,A5,8C,80,20,
1507626,0000019F,false,Rx,0,8,E1,E1,7D,07,00,6A,50,FE,
1509382,00000155,false,Rx,0,8,48,87,C5,54,96,98,02,C3,
1509560,000001C7,false,Rx,0,4,AA,A0,FF,C0,00,00,00,00,
1511032,00000157,false,Rx,0,8,D5,DB,09,C4,FF,E0,00,80,
1512625,000001A1,false,Rx,0,8,B1,05,5C,11,A5,8C,80,20,
1515145,00000500,false,Rx,0,5,02,FD,99,6E,F6,00,00,00,
1515907,00000435,false,Rx,0,8,FF,FF,1E,0B,2E,10,00,00,
1517623,0000019F,false,Rx,0,8,E1,E1,7D,0C,00,6A,50,FE,
1517836,00000419,false,Rx,0,6,5E,22,32,E6,40,00,00,00,
1519359,00000155,false,Rx,0,8,48,87,C5,54,96,98,02,C3,
1519549,000001C7,false,Rx,0,4,AA,A0,FF,C0,00,00,00,00,
1520973,00000157,false,Rx,0,8,D5,2B,09,C4,FF,E0,00,80,
1521160,00000436,false,Rx,0,6,86,16,64,3B,FF,DC,00,00,
1522613,000001A1,false,Rx,0,8,B0,C5,5C,11,A5,8C,80,20,
1527579,0000019F,false,Rx,0,8,E1,E1,7D,01,00,6A,50,FE,
1529585,00000155,false,Rx,0,8,48,87,C4,54,96,98,02,C3,
1529592,000001C7,false,Rx,0,4,AA,A0,FF,C0,00,00,00,00,
1531194,00000157,false,Rx,0,8,D5,7B,09,C4,FF,E0,00,80,
1532652,000001A1,false,Rx,0,8,B1,05,5C,11,A5,8C,80,20,
1535170,0000069F,false,Rx,0,4,71,30,28,2F,00,00,00,00,
1537644,0000019F,false,Rx,0,8,E1,E1,7D,06,00,6A,50,FE,
1539630,00000155,false,Rx,0,8,48,87,C5,54,96,98,02,C3,
1539636,000001C7,false,Rx,0,4,AA,A0,FF,C0,00,00,00,00,
1541012,00000157,false,Rx,0,8,D5,CB,09,C4,FF,E0,00,80,
1542737,000001A1,false,Rx,0,8,B1,05,5C,11,A5,8C,80,20,
1547660,0000019F,false,Rx,0,8,E1,E1,7D,0B,00,6A,50,FE,
1549525,00000155,false,Rx,0,8,48,87,C5,54,96,98,02,C3,
1549584,000001C7,false,Rx,0,4,AA,A0,FF,C0,00,00,00,00,
1551192,00000157,false,Rx,0,8,D5,1B,09,C4,FF,E0,00,80,
1552651,000001A1,false,Rx,0,8,B0,C5,5C,11,A5,8C,80,20,
1557584,0000019F,false,Rx,0,8,E1,E1,7D,00,00,6A,50,FE,
1559616,00000155,false,Rx,0,8,48,87,C5,54,96,98,02,C3,
1559621,000001C7,false,Rx,0,4,AA,A0,FF,C0,00,00,00,00,
1561074,00000157,false,Rx,0,8,D5,6B,09,C4,FF,E0,00,80,
1562743,000001A1,false,Rx,0,8,B1,05,5C,11,A5,8C,80,20,
1567749,0000019F,false,Rx,0,8,E1,E1,7D,05,00,6A,50,FE,
1567886,00000511,false,Rx,0,7,00,CD,46,A2,6A,BC,64,00,
1569494,00000155,false,Rx,0,8,48,87,C6,54,96,98,02,C3,
1569679,000001C7,false,Rx,0,4,AA,A0,FF,C0,00,00,00,00,
1571225,00000157,false,Rx,0,8,D5,BB,09,C4,FF,E0,00,80,
1572625,000001A1,false,Rx,0,8,B1,05,5C,11,A5,8C,80,20,
1577750,0000019F,false,Rx,0,8,E1,E1,7D,0A,00,6A,50,FE,
1579500,00000155,false,Rx,0,8,48,87,C6,54,96,98,02,C3,
1579656,000001C7,false,Rx,0,4,AA,A0,FF,C0,00,00,00,00,
1581108,00000157,false,Rx,0,8,D5,0B,09,C4,FF,E0,00,80,
1582650,000001A1,false,Rx,0,8,B1,05,5C,11,A5,8C,80,20,
1587674,0000019F,false,Rx,0,8,E1,E1,7D,0F,00,6A,50,FE,
1589410,00000155,false,Rx,0,8,48,87,C5,54,96,98,02,C3,
1589562,000001C7,false,Rx,0,4,AA,A0,FF,C0,00,00,00,00,
1591070,00000157,false,Rx,0,8,D5,5B,09,C4,FF,E0,00,80,
1592654,000001A1,false,Rx,0,8,B0,C5,5C,11,A5,8C,80,20,
1596124,00000423,false,Rx,0,8,0B,1D,00,02,5D,80,B2,D8,
1596337,00000445,false,Rx,0,7,80,55,AA,65,04,82,00,00,
1597681,0000019F,false,Rx,0,8,E1,E1,7D,04,00,6A,50,FE,
1599593,00000155,false,Rx,0,8,48,87,C4,54,96,98,02,C3,
1599600,00000424,false,Rx,0,8,11,40,56,C8,33,5E,55,34,
1599828,00000425,false,Rx,0,8,2A,BA,44,9C,42,18,CD,0B,
1600088,000004F7,false,Rx,0,8,00,1A,08,00,90,30,06,F0,
1600268,000001C7,false,Rx,0,4,AA,A0,FF,C0,00,00,00,00,
1600587,00000428,false,Rx,0,8,00,00,00,7F,00,00,00,00,
1600719,0000042F,false,Rx,0,2,00,20,00,00,00,00,00,00,
1600939,00000157,false,Rx,0,8,D5,AB,09,C4,FF,E0,00,80,
1601252,00000426,false,Rx,0,8,00,60,01,00,53,18,00,40,
1602652,000001A1,false,Rx,0,8,B1,05,5C,11,A5,8C,80,20,
1607745,0000019F,false,Rx,0,8,E1,E1,7D,09,00,6A,50,FE,
1609361,00000155,false,Rx,0,8,48,87,C4,54,96,98,02,C3,
1609491,000001C7,false,Rx,0,4,AA,A0,FF,C0,00,00,00,00,
1611075,00000157,false,Rx,0,8,D5,FB,09,C4,FF,E0,00,80,
1612657,000001A1,false,Rx,0,8,B1,05,5C,11,A5,8C,80,20,
1615197,00000500,false,Rx,0,5,02,5D,82,52,8E,00,00,00,
1616169,00000435,false,Rx,0,8,FF,FF,1E,0B,2E,10,00,00,
1617629,0000019F,false,Rx,0,8,E1,E1,7D,0E,00,6A,50,FE,
1617887,00000419,false,Rx,0,6,5E,22,32,E6,40,00,00,00,
1619596,00000155,false,Rx,0,8,48,87,C5,54,96,98,02,C3,
1619606,000001C7,false,Rx,0,4,AA,A0,FF,C0,00,00,00,00,
1621174,00000157,false,Rx,0,8,D5,4B,09,C4,FF,E0,00,80,
1621192,00000436,false,Rx,0,6,86,16,64,3B,FF,DC,00,00,
1622654,000001A1,false,Rx,0,8,B1,05,5C,11,A5,8C,80,20,
1627745,0000019F,false,Rx,0,8,E1,E1,7D,03,00,6A,50,FE,
1629496,00000155,false,Rx,0,8,48,87,C5,54,96,98,02,C3,
1629503,000001C7,false,Rx,0,4,AA,A0,FF,C0,00,00,00,00,
1630948,00000157,false,Rx,0,8,D5,9B,09,C4,FF,E0,00,80,
1632767,000001A1,false,Rx,0,8,B1,05,5C,11,A5,8C,80,20,
1637658,0000019F,false,Rx,0,8,E1,E1,7D,08,00,6A,50,FE,
1639528,00000155,false,Rx,0,8,48,87,C6,54,96,98,02,C3,
1639612,000001C7,false,Rx,0,4,AA,A0,FF,C0,00,00,00,00,
1641195,00000157,false,Rx,0,8,D5,EB,09,C4,FF,E0,00,80,
1642747,000001A1,false,Rx,0,8,B0,C5,5C,11,A5,8C,80,20,
1647632,0000019F,false,Rx,0,8,E1,E1,7D,0D,00,6A,50,FE,
1649399,00000155,false,Rx,0,8,48,87,C6,54,96,98,02,C3,
1649589,000001C7,false,Rx,0,4,AA,A0,FF,C0,00,00,00,00,
1650929,00000157,false,Rx,0,8,D5,3B,09,C4,FF,E0,00,80,
1652587,000001A1,false,Rx,0,8,B1,05,5C,11,A5,8C,80,20,
1657592,0000019F,false,Rx,0,8,E1,E1,7D,02,00,6A,50,FE,
1659397,00000155,false,Rx,0,8,48,87,C5,54,96,98,02,C3,
1659589,000001C7,false,Rx,0,4,AA,A0,FF,C0,00,00,00,00,
1660922,00000157,false,Rx,0,8,D5,8B,09,C4,FF,E0,00,80,
1662591,000001A1,false,Rx,0,8,B0,C5,5C,11,A5,8C,80,20,
1667591,0000019F,false,Rx,0,8,E1,E1,7D,07,00,6A,50,FE,
1667844,00000511,false,Rx,0,7,00,0C,0F,5B,D5,C9,47,00,
1669421,00000155,false,Rx,0,8,48,87,C4,54,96,98,02,C3,
1669582,000001C7,false,Rx,0,4,AA,A0,FF,C0,00,00,00,00,
1671022,00000157,false,Rx,0,8,D5,DB,09,C4,FF,E0,00,80,
1672589,000001A1,false,Rx,0,8,B0,C5,5C,11,A5,8C,80,20,
1677603,0000019F,false,Rx,0,8,E1,E1,7D,0C,00,6A,50,FE,
1679380,00000155,false,Rx,0,8,48,87,C4,54,96,98,02,C3,
1679527,000001C7,false,Rx,0,4,AA,A0,FF,C0,00,00,00,00,
1681021,00000157,false,Rx,0,8,D5,2B,09,C4,FF,E0,00,80,
1682590,000001A1,false,Rx,0,8,B1,05,5C,11,A5,8C,80,20,
1687591,0000019F,false,Rx,0,8,E1,E1,7D,01,00,6A,50,FE,
1689347,00000155,false,Rx,0,8,48,87,C5,54,96,98,02,C3,
1689523,000001C7,false,Rx,0,4,AA,A0,FF,C0,00,00,00,00,
1690947,00000157,false,Rx,0,8,D5,7B,09,C4,FF,E0,00,80,
1692590,000001A1,false,Rx,0,8,B1,05,5C,11,A5,8C,80,20,
1695898,00000423,false,Rx,0,8,0B,1D,00,02,5D,80,B2,D8,
1696349,00000445,false,Rx,0,7,80,55,AA,65,04,82,00,00,
1697589,0000019F,false,Rx,0,8,E1,E1,7D,06,00,6A,50,FE,
1699345,00000155,false,Rx,0,8,48,87,C5,54,96,98,02,C3,
1699595,00000424,false,Rx,0,8,11,40,56,C8,33,5E,55,34,
1699794,00000425,false,Rx,0,8,2A,BA,44,9C,42,18,CD,0B,
1700021,000004F7,false,Rx,0,8,00,1A,08,00,90,30,06,F0,
1700199,000001C7,false,Rx,0,4,AA,A0,FF,C0,00,00,00,00,
1700482,00000428,false,Rx,0,8,00,00,00,7F,00,00,00,00,
1700619,0000042F,false,Rx,0,2,00,20,00,00,00,00,00,00,
1700994,00000157,false,Rx,0,8,D5,CB,09,C4,FF,E0,00,80,
1701214,00000426,false,Rx,0,8,00,60,01,00,53,18,00,40,
1702581,000001A1,false,Rx,0,8,B0,C5,5C,11,A5,8C,80,20,
1707595,0000019F,false,Rx,0,8,E1,E1,7D,0B,00,6A,50,FE,
1709387,00000155,false,Rx,0,8,48,87,C6,54,96,98,02,C3,
1709517,000001C7,false,Rx,0,4,AA,A0,FF,C0,00,00,00,00,
1710925,00000157,false,Rx,0,8,D5,1B,09,C4,FF,E0,00,80,
1712586,000001A1,false,Rx,0,8,B1,05,5C,11,A5,8C,80,20,
1714983,00000500,false,Rx,0,5,02,84,EF,75,33,00,00,00,
1715910,00000435,false,Rx,0,8,FF,FF,1E,0B,2E,10,00,00,
1717627,0000019F,false,Rx,0,8,E1,E1,7D,00,00,6A,50,FE,
1717883,00000419,false,Rx,0,6,5E,22,32,E6,40,00,00,00,
1719409,00000155,false,Rx,0,8,48,87,C6,54,96,98,02,C3,
1719563,000001C7,false,Rx,0,4,AA,A0,FF,C0,00,00,00,00,
1720992,00000157,false,Rx,0,8,D5,6B,09,C4,FF,E0,00,80,
1721212,00000436,false,Rx,0,6,86,16,64,3B,FF,DC,00,00,
1722594,000001A1,false,Rx,0,8,B1,05,5C,11,A5,8C,80,20,
1727585,0000019F,false,Rx,0,8,E1,E1,7D,05,00,6A,50,FE,
1729333,00000155,false,Rx,0,8,48,87,C5,54,96,98,02,C3,
1729574,000001C7,false,Rx,0,4,AA,A0,FF,C0,00,00,00,00,
1731012,00000157,false,Rx,0,8,D5,BB,09,C4,FF,E0,00,80,
1732580,000001A1,false,Rx,0,8,B0,C5,5C,11,A5,8C,80,20,
1737591,0000019F,false,Rx,0,8,E1,E1,7D,0A,00,6A,50,FE,
1739516,00000155,false,Rx,0,8,48,87,C5,54,96,98,02,C3,
1739660,000001C7,false,Rx,0,4,AA,A0,FF,C0,00,00,00,00,
1740980,00000157,false,Rx,0,8,D5,0B,09,C4,FF,E0,00,80,
1742584,000001A1,false,Rx,0,8,B1,05,5C,11,A5,8C,80,20,
1747589,0000019F,false,Rx,0,8,E1,E1,7D,0F,00,6A,50,FE,
1749346,00000155,false,Rx,0,8,48,87,C4,54,96,98,02,C3,
1749581,000001C7,false,Rx,0,4,AA,A0,FF,C0,00,00,00,00,
1750988,00000157,false,Rx,0,8,D5,5B,09,C4,FF,E0,00,80,
1752583,000001A1,false,Rx,0,8,B1,05,5C,11,A5,8C,80,20,
1757598,0000019F,false,Rx,0,8,E1,E1,7D,04,00,6A,50,FE,
1759377,00000155,false,Rx,0,8,48,87,C4,54,96,98,02,C3,
1759590,000001C7,false,Rx,0,4,AA,A0,FF,C0,00,00,00,00,
1761035,00000157,false,Rx,0,8,D5,AB,09,C4,FF,E0,00,80,
1762589,000001A1,false,Rx,0,8,B0,C5,5C,11,A5,8C,80,20,
1767597,0000019F,false,Rx,0,8,E1,E1,7D,09,00,6A,50,FE,
1767841,00000511,false,Rx,0,7,00,4B,D8,14,40,D6,2A,00,
1769461,00000155,false,Rx,0,8,48,87,C5,54,96,98,02,C3,
1769588,000001C7,false,Rx,0,4,AA,A0,FF,C0,00,00,00,00,
1770989,00000157,false,Rx,0,8,D5,FB,09,C4,FF,E0,00,80,
1772590,000001A1,false,Rx,0,8,B0,C5,5C,11,A5,8C,80,20,
1777590,0000019F,false,Rx,0,8,E1,E1,7D,0E,00,6A,50,FE,
1779390,00000155,false,Rx,0,8,48,87,C5,54,96,98,02,C2,
1779579,000001C7,false,Rx,0,4,AA,A0,FF,C0,00,00,00,00,
1780948,00000157,false,Rx,0,8,D5,4B,09,C4,FF,E0,00,80,
1782582,000001A1,false,Rx,0,8,B1,05,5C,11,A5,8C,80,20,
1787596,0000019F,false,Rx,0,8,E1,E1,7D,03,00,6A,50,FE,
1789325,00000155,false,Rx,0,8,48,87,C6,54,96,98,02,C2,
1789582,000001C7,false,Rx,0,4,AA,A0,FF,C0,00,00,00,00,
1790939,00000157,false,Rx,0,8,D5,9B,09,C4,FF,E0,00,80,
1792580,000001A1,false,Rx,0,8,B0,C5,5C,11,A5,8C,80,20,
1795841,00000423,false,Rx,0,8,0B,1D,00,02,5D,80,B2,D8,
1796334,00000445,false,Rx,0,7,80,55,AA,65,04,82,00,00,
1797586,0000019F,false,Rx,0,8,E1,E1,7D,08,00,6A,50,FE,
1799326,00000155,false,Rx,0,8,48,87,C6,54,96,98,02,C2,
1799583,00000424,false,Rx,0,8,11,40,56,C8,33,5E,55,34,
1799797,00000425,false,Rx,0,8,2A,BA,44,9C,42,18,CD,0B,
1800021,000004F7,false,Rx,0,8,00,1A,08,00,90,30,06,F0,
1800194,000001C7,false,Rx,0,4,AA,A0,FF,C0,00,00,00,00,
1800445,00000428,false,Rx,0,8,00,00,00,7F,00,00,00,00,
1800584,0000042F,false,Rx,0,2,00,20,00,00,00,00,00,00,
1800964,00000157,false,Rx,0,8,D5,EB,09,C4,FF,E0,00,80,
1801215,00000426,false,Rx,0,8,00,60,01,00,53,18,00,40,
1802591,000001A1,false,Rx,0,8,B0,C5,5C,11,A5,8C,80,20,
1807589,0000019F,false,Rx,0,8,E1,E1,7D,0D,00,6A,50,FE,
1809347,00000155,false,Rx,0,8,48,87,C5,54,96,98,02,C2,
1809578,000001C7,false,Rx,0,4,AA,A0,FF,C0,00,00,00,00,
1811012,00000157,false,Rx,0,8,D5,3B,09,C4,FF,E0,00,80,
1812582,000001A1,false,Rx,0,8,B1,05,5C,11,A5,8C,80,20,
1815251,00000500,false,Rx,0,5,02,A0,9A,62,4C,00,00,00,
1815956,00000435,false,Rx,0,8,FF,FF,1E,0B,2E,10,00,00,
1817593,0000019F,false,Rx,0,8,E1,E1,7D,02,00,6A,50,FE,
1817837,00000419,false,Rx,0,6,5E,22,32,E6,40,00,00,00,
1819340,00000155,false,Rx,0,8,48,87,C4,54,96,98,02,C2,
1819581,000001C7,false,Rx,0,4,AA,A0,FF,C0,00,00,00,00,
1821017,00000157,false,Rx,0,8,D5,8B,09,C4,FF,E0,00,80,
1821217,00000436,false,Rx,0,6,86,16,64,3B,FF,DC,00,00,
1822584,000001A1,false,Rx,0,8,B1,05,5C,11,A5,8C,80,20,
1827586,0000019F,false,Rx,0,8,E1,E1,7D,07,00,6A,50,FE,
1829338,00000155,false,Rx,0,8,48,87,C4,54,96,98,02,C2,
1829579,000001C7,false,Rx,0,4,AA,A0,FF,C0,00,00,00,00,
1830940,00000157,false,Rx,0,8,D5,DB,09,C4,FF,E0,00,80,
1832584,000001A1,false,Rx,0,8,B1,05,5C,11,A5,8C,80,20,
1837592,0000019F,false,Rx,0,8,E1,E1,7D,0C,00,6A,50,FE,
1839442,00000155,false,Rx,0,8,48,87,C5,54,96,98,02,C2,
1839613,000001C7,false,Rx,0,4,AA,A0,FF,C0,00,00,00,00,
1840915,00000157,false,Rx,0,8,D5,2B,09,C4,FF,E0,00,80,
1842584,000001A1,false,Rx,0,8,B0,C5,5C,11,A5,8C,80,20,
1847593,0000019F,false,Rx,0,8,E1,E1,7D,01,00,6A,50,FE,
1849394,00000155,false,Rx,0,8,48,87,C5,54,96,98,02,C2,
1849616,000001C7,false,Rx,0,4,AA,A0,FF,C0,00,00,00,00,
1850968,00000157,false,Rx,0,8,D5,7B,09,C4,FF,E0,00,80,
1852592,000001A1,false,Rx,0,8,B1,05,5C,11,A5,8C,80,20,
1857595,0000019F,false,Rx,0,8,E1,E1,7D,06,00,6A,50,FE,
1859399,00000155,false,Rx,0,8,48,87,C6,54,96,98,02,C2,
1859617,000001C7,false,Rx,0,4,AA,A0,FF,C0,00,00,00,00,
1860967,00000157,false,Rx,0,8,D5,CB,09,C4,FF,E0,00,80,
1862591,000001A1,false,Rx,0,8,B1,05,5C,11,A5,8C,80,20,
1867594,0000019F,false,Rx,0,8,E1,E1,7D,0B,00,6A,50,FE,
1867840,00000511,false,Rx,0,7,00,8A,A1,CD,AB,E3,0D,00,
1869422,00000155,false,Rx,0,8,48,87,C6,54,96,98,02,C2,
1869613,000001C7,false,Rx,0,4,AA,A0,FF,C0,00,00,00,00,
1870967,00000157,false,Rx,0,8,D5,1B,09,C4,FF,E0,00,80,
1872585,000001A1,false,Rx,0,8,B1,05,5C,11,A5,8C,80,20,
1877595,0000019F,false,Rx,0,8,E1,E1,7D,00,00,6A,50,FE,
1879375,00000155,false,Rx,0,8,48,87,C5,54,96,98,02,C2,
1879616,000001C7,false,Rx,0,4,AA,A0,FF,C0,00,00,00,00,
1880916,00000157,false,Rx,0,8,D5,6B,09,C4,FF,E0,00,80,
1882585,000001A1,false,Rx,0,8,B1,05,5C,11,A5,8C,80,20,
1887607,0000019F,false,Rx,0,8,E1,E1,7D,05,00,6A,50,FE,
1889318,00000155,false,Rx,0,8,48,87,C4,54,96,98,02,C2,
1889613,000001C7,false,Rx,0,4,AA,A0,FF,C0,00,00,00,00,
1890942,00000157,false,Rx,0,8,D5,BB,09,C4,FF,E0,00,80,
1892493,000001A1,false,Rx,0,8,B1,05,5C,11,A5,8C,80,20,
1895902,00000423,false,Rx,0,8,0B,1D,00,02,5D,80,B2,D8,
1896295,00000445,false,Rx,0,7,80,55,AA,65,04,82,00,00,
1897497,0000019F,false,Rx,0,8,E1,E1,7D,0A,00,6A,50,FE,
1899318,00000155,false,Rx,0,8,48,87,C4,54,96,98,02,C2,
1899589,00000424,false,Rx,0,8,11,40,56,C8,33,5E,55,34,
1899763,00000425,false,Rx,0,8,2A,BA,44,9C,42,1A,CD,0B,
1900023,000004F7,false,Rx,0,8,00,1A,08,00,90,30,06,F0,
1900226,000001C7,false,Rx,0,4,AA,A0,FF,C0,00,00,00,00,
1900503,00000428,false,Rx,0,8,00,00,00,7F,00,00,00,00,
1900639,0000042F,false,Rx,0,2,00,20,00,00,00,00,00,00,
1900976,00000157,false,Rx,0,8,D5,0B,09,C4,FF,E0,00,80,
1901220,00000426,false,Rx,0,8,00,60,01,00,53,18,00,40,
1902498,000001A1,false,Rx,0,8,B1,05,5C,11,A5,8C,80,20,
1907503,0000019F,false,Rx,0,8,E1,E1,7D,0F,00,6A,50,FE,
1909349,00000155,false,Rx,0,8,48,87,C5,54,96,98,02,C2,
1909645,000001C7,false,Rx,0,4,AA,A0,FF,C0,00,00,00,00,
1910992,00000157,false,Rx,0,8,D5,5B,09,C4,FF,E0,00,80,
1912507,000001A1,false,Rx,0,8,B0,C5,5C,11,A5,8C,80,20,
1915049,00000500,false,Rx,0,5,02,BF,DE,04,3F,00,00,00,
1915947,00000435,false,Rx,0,8,FF,FF,1E,0B,2E,10,00,00,
1917494,0000019F,false,Rx,0,8,E1,E1,7D,04,00,6A,50,FE,
1917740,00000419,false,Rx,0,6,5E,22,32,E6,40,00,00,00,
1919348,00000155,false,Rx,0,8,48,87,C5,54,96,98,02,C2,
1919641,000001C7,false,Rx,0,4,AA,A0,FF,C0,00,00,00,00,
1920925,00000157,false,Rx,0,8,D5,AB,09,C4,FF,E0,00,80,
1921118,00000436,false,Rx,0,6,86,16,64,3B,FF,DC,00,00,
1922496,000001A1,false,Rx,0,8,B1,05,5C,11,A5,8C,80,20,
1927516,0000019F,false,Rx,0,8,E1,E1,7D,09,00,6A,50,FE,
1929350,00000155,false,Rx,0,8,48,87,C6,54,96,98,02,C2,
1929650,000001C7,false,Rx,0,4,AA,A0,FF,C0,00,00,00,00,
1930967,00000157,false,Rx,0,8,D5,FB,09,C4,FF,E0,00,80,
1932494,000001A1,false,Rx,0,8,B1,05,5C,11,A5,8C,80,20,
1937500,0000019F,false,Rx,0,8,E1,E1,7D,0E,00,6A,50,FE,
1939443,00000155,false,Rx,0,8,48,87,C6,54,96,98,02,C2,
1939666,000001C7,false,Rx,0,4,AA,A0,FF,C0,00,00,00,00,
1940922,00000157,false,Rx,0,8,D5,4B,09,C4,FF,E0,00,80,
1942498,000001A1,false,Rx,0,8,B0,C5,5C,11,A5,8C,80,20,
1947500,0000019F,false,Rx,0,8,E1,E1,7D,03,00,6A,50,FE,
1949387,00000155,false,Rx,0,8,48,87,C6,54,96,98,02,C2,
1949666,000001C7,false,Rx,0,4,AA,A0,FF,C0,00,00,00,00,
1950991,00000157,false,Rx,0,8,D5,9B,09,C4,FF,E0,00,80,
1952489,000001A1,false,Rx,0,8,B1,05,5C,11,A5,8C,80,20,
1957501,0000019F,false,Rx,0,8,E1,E1,7D,08,00,6A,50,FE,
1959347,00000155,false,Rx,0,8,48,87,C5,54,96,98,02,C2,
1959665,000001C7,false,Rx,0,4,AA,A0,FF,C0,00,00,00,00,
1960940,00000157,false,Rx,0,8,D5,EB,09,C4,FF,E0,00,80,
1962503,000001A1,false,Rx,0,8,B1,05,5C,11,A5,8C,80,20,
1967499,0000019F,false,Rx,0,8,E1,E1,7D,0D,00,6A,50,FE,
1967761,00000511,false,Rx,0,7,00,C9,6A,86,16,F0,F0,00,
1969415,00000155,false,Rx,0,8,48,87,C4,54,96,98,02,C2,
1969663,000001C7,false,Rx,0,4,AA,A0,FF,C0,00,00,00,00,
1970945,00000157,false,Rx,0,8,D5,3B,09,C4,FF,E0,00,80,
1972491,000001A1,false,Rx,0,8,B0,C5,5C,11,A5,8C,80,20,
1977487,0000019F,false,Rx,0,8,E1,E1,7D,02,00,6A,50,FE,
1979384,00000155,false,Rx,0,8,48,87,C5,54,96,98,02,C2,
1979680,000001C7,false,Rx,0,4,AA,A0,FF,C0,00,00,00,00,
1980931,00000157,false,Rx,0,8,D5,8B,09,C4,FF,E0,00,80,
1982506,000001A1,false,Rx,0,8,B0,C5,5C,11,A5,8C,80,20,
1987498,0000019F,false,Rx,0,8,E1,E1,7D,07,00,6A,50,FE,
1989323,00000155,false,Rx,0,8,48,87,C5,54,96,98,02,C2,
1989690,000001C7,false,Rx,0,4,AA,A0,FF,C0,00,00,00,00,
1991015,00000157,false,Rx,0,8,D5,DB,09,C4,FF,E0,00,80,
1992489,000001A1,false,Rx,0,8,B1,05,5C,11,A5,8C,80,20,
1995948,00000423,false,Rx,0,8,0B,1D,00,02,B2,80,5D,D8,
1996366,00000445,false,Rx,0,7,80,55,55,65,04,82,00,00,
1997490,0000019F,false,Rx,0,8,E1,E1,7D,0C,00,6A,50,FE,
1999332,00000155,false,Rx,0,8,48,87,C5,54,96,98,02,C2,
1999575,00000424,false,Rx,0,8,11,40,56,C8,33,5E,AA,34,
1999772,00000425,false,Rx,0,8,2A,BA,44,9C,42,18,CD,0B,
1999997,000004F7,false,Rx,0,8,00,1A,08,00,90,30,06,F0,
2000172,000001C7,false,Rx,0,4,AA,A0,FF,C0,00,00,00,00,
2000448,00000428,false,Rx,0,8,00,00,00,7F,00,00,00,00,
2000605,0000042F,false,Rx,0,2,00,20,00,00,00,00,00,00,
2000931,00000157,false,Rx,0,8,D5,2B,09,C4,FF,E0,00,80,
2001184,00000426,false,Rx,0,8,00,60,01,00,53,18,00,40,
2002485,000001A1,false,Rx,0,8,B0,C5,5C,11,A5,8C,80,20,
2007498,0000019F,false,Rx,0,8,E1,E1,7D,01,00,6A,50,FE,
2009315,00000155,false,Rx,0,8,48,87,C6,54,96,98,02,C2,
2009690,000001C7,false,Rx,0,4,AA,A0,FF,C0,00,00,00,00,
2010985,00000157,false,Rx,0,8,D5,7B,09,C4,FF,E0,00,80,
2012485,000001A1,false,Rx,0,8,B0,C5,5C,11,A5,8C,80,20,
2015059,00000500,false,Rx,0,5,02,25,23,AC,59,00,00,00,
2015906,00000435,false,Rx,0,8,FF,FF,1E,0B,2E,10,00,00,
2017521,0000019F,false,Rx,0,8,E1,E1,7D,06,00,6A,50,FE,
2017739,00000419,false,Rx,0,6,5E,22,32,E6,40,00,00,00,
2019338,00000155,false,Rx,0,8,48,87,C6,54,96,98,02,C2,
2019711,000001C7,false,Rx,0,4,AA,A0,FF,C0,00,00,00,00,
2020961,00000157,false,Rx,0,8,D5,CB,09,C4,FF,E0,00,80,
2021164,00000436,false,Rx,0,6,86,16,64,3B,FF,DC,00,00,
2022485,000001A1,false,Rx,0,8,B1,05,5C,11,A5,8C,80,20,
2027497,0000019F,false,Rx,0,8,E1,E1,7D,0B,00,6A,50,FE,
2029340,00000155,false,Rx,0,8,48,87,C5,54,96,98,02,C2,
2029712,000001C7,false,Rx,0,4,AA,A0,FF,C0,00,00,00,00,
2030986,00000157,false,Rx,0,8,D5,1B,09,C4,FF,E0,00,80,
2032495,000001A1,false,Rx,0,8,B1,05,5C,11,A5,8C,80,20,
2037516,0000019F,false,Rx,0,8,E1,E1,7D,00,00,6A,50,FE,
2039381,00000155,false,Rx,0,8,48,87,C4,54,96,98,02,C2,
2039713,000001C7,false,Rx,0,4,AA,A0,FF,C0,00,00,00,00,
2040924,00000157,false,Rx,0,8,D5,6B,09,C4,FF,E0,00,80,
2042522,000001A1,false,Rx,0,8,B0,C5,5C,11,A5,8C,80,20,
2047523,0000019F,false,Rx,0,8,E1,E1,7D,05,00,6A,50,FE,
2049384,00000155,false,Rx,0,8,48,87,C4,54,96,98,02,C2,
2049708,000001C7,false,Rx,0,4,AA,A0,FF,C0,00,00,00,00,
2050907,00000157,false,Rx,0,8,D5,BB,09,C4,FF,E0,00,80,
2052483,000001A1,false,Rx,0,8,B0,C5,5C,11,A5,8C,80,20,
2057513,0000019F,false,Rx,0,8,E1,E1,7D,0A,00,6A,50,FE,
2059410,00000155,false,Rx,0,8,48,87,C5,54,96,98,02,C2,
2059761,000001C7,false,Rx,0,4,AA,A0,FF,C0,00,00,00,00,
2060961,00000157,false,Rx,0,8,D5,0B,09,C4,FF,E0,00,80,
2062509,000001A1,false,Rx,0,8,B0,C5,5C,11,A5,8C,80,20,
2067485,0000019F,false,Rx,0,8,E1,E1,7D,0F,00,6A,50,FE,
2067757,00000511,false,Rx,0,7,00,08,33,3F,81,FD,D3,00,
2069410,00000155,false,Rx,0,8,48,87,C5,54,96,98,02,C2,
2069733,000001C7,false,Rx,0,4,AA,A0,FF,C0,00,00,00,00,
2070959,00000157,false,Rx,0,8,D5,5B,09,C4,FF,E0,00,80,
2072483,000001A1,false,Rx,0,8,B1,05,5C,11,A5,8C,80,20,
2077487,0000019F,false,Rx,0,8,E1,E1,7D,04,00,6A,50,FE,
2079334,00000155,false,Rx,0,8,48,87,C5,54,96,98,02,C2,
2079731,000001C7,false,Rx,0,4,AA,A0,FF,C0,00,00,00,00,
2080981,00000157,false,Rx,0,8,D5,AB,09,C4,FF,E0,00,80,
2082483,000001A1,false,Rx,0,8,B0,C5,5C,11,A5,8C,80,20,
2087487,0000019F,false,Rx,0,8,E1,E1,7D,09,00,6A,50,FE,
2089308,00000155,false,Rx,0,8,48,87,C6,54,96,98,02,C2,
2089757,000001C7,false,Rx,0,4,AA,A0,FF,C0,00,00,00,00,
2090959,00000157,false,Rx,0,8,D5,FB,09,C4,FF,E0,00,80,
2092484,000001A1,false,Rx,0,8,B0,C5,5C,11,A5,8C,80,20,
2095939,00000423,false,Rx,0,8,0B,1D,00,02,B2,80,5D,D8,
2096282,00000445,false,Rx,0,7,80,55,55,65,04,82,00,00,
2097487,0000019F,false,Rx,0,8,E1,E1,7D,0E,00,6A,50,FE,
2099312,00000155,false,Rx,0,8,48,87,C5,54,96,98,02,C2,
2099575,00000424,false,Rx,0,8,11,40,56,C8,33,5E,AA,34,
2099748,00000425,false,Rx,0,8,2A,BA,44,9C,42,18,CD,0B,
2099999,000004F7,false,Rx,0,8,00,1A,08,00,90,30,06,F0,
2100174,000001C7,false,Rx,0,4,AA,A0,FF,C0,00,00,00,00,
2100424,00000428,false,Rx,0,8,00,00,00,7F,00,00,00,00,
2100575,0000042F,false,Rx,0,2,00,20,00,00,00,00,00,00,
2100934,00000157,false,Rx,0,8,D5,4B,09,C4,FF,E0,00,80,
2101149,00000426,false,Rx,0,8,00,60,01,00,53,18,00,40,
2102484,000001A1,false,Rx,0,8,B1,05,5C,11,A5,8C,80,20,
2107576,0000019F,false,Rx,0,8,E1,E1,7D,03,00,6A,50,FE,
2109441,00000155,false,Rx,0,8,48,87,C5,54,96,98,02,C2,
2109891,000001C7,false,Rx,0,4,AA,A0,FF,C0,00,00,00,00,
2111150,00000157,false,Rx,0,8,D5,9B,09,C4,FF,E0,00,80,
2112658,000001A1,false,Rx,0,8,B1,05,5C,11,A5,8C,80,20,
2115460,00000500,false,Rx,0,5,02,46,7A,01,B3,00,00,00,
2115988,00000435,false,Rx,0,8,FF,FF,1E,0B,2E,10,00,00,
2117569,0000019F,false,Rx,0,8,E1,E1,7D,08,00,6A,50,FE,
2117867,00000419,false,Rx,0,6,5E,22,32,E6,40,00,00,00,
2119553,00000155,false,Rx,0,8,48,87,C4,54,96,98,02,C2,
2119965,000001C7,false,Rx,0,4,AA,A0,FF,C0,00,00,00,00,
2121090,00000157,false,Rx,0,8,D5,EB,09,C4,FF,E0,00,80,
2121242,00000436,false,Rx,0,6,86,16,64,3B,FF,DC,00,00,
2122583,000001A1,false,Rx,0,8,B0,C5,5C,11,A5,8C,80,20,
2127556,0000019F,false,Rx,0,8,E1,E1,7D,0D,00,6A,50,FE,
2129442,00000155,false,Rx,0,8,48,87,C5,54,96,98,02,C2,
2129890,000001C7,false,Rx,0,4,AA,A0,FF,C0,00,00,00,00,
2131090,00000157,false,Rx,0,8,D5,3B,09,C4,FF,E0,00,80,
2132658,000001A1,false,Rx,0,8,B1,05,5C,11,A5,8C,80,20,
2137655,0000019F,false,Rx,0,8,E1,E1,7D,02,00,6A,50,FE,
2139574,00000155,false,Rx,0,8,48,87,C5,54,96,98,02,C2,
2139859,000001C7,false,Rx,0,4,AA,A0,FF,C0,00,00,00,00,
2141076,00000157,false,Rx,0,8,D5,8B,09,C4,FF,E0,00,80,
2142661,000001A1,false,Rx,0,8,B1,05,5C,11,A5,8C,80,20,
2147530,0000019F,false,Rx,0,8,E1,E1,7D,07,00,6A,50,FE,
2149378,00000155,false,Rx,0,8,48,87,C5,54,96,98,02,C2,
2149827,000001C7,false,Rx,0,4,AA,A0,FF,C0,00,00,00,00,
2150979,00000157,false,Rx,0,8,D5,DB,09,C4,FF,E0,00,80,
2152521,000001A1,false,Rx,0,8,B0,C5,5C,11,A5,8C,80,20,
2157522,0000019F,false,Rx,0,8,E1,E1,7D,0C,00,6A,50,FE,
2159427,00000155,false,Rx,0,8,48,87,C6,54,96,98,02,C2,
2159777,000001C7,false,Rx,0,4,AA,A0,FF,C0,00,00,00,00,
2160926,00000157,false,Rx,0,8,D5,2B,09,C4,FF,E0,00,80,
2162527,000001A1,false,Rx,0,8,B1,05,5C,11,A5,8C,80,20,
2167529,0000019F,false,Rx,0,8,E1,E1,7D,01,00,6A,50,FE,
2167802,00000511,false,Rx,0,7,00,47,FC,F8,EC,0A,B6,00,
2169427,00000155,false,Rx,0,8,48,87,C6,54,96,98,02,C2,
2169737,000001C7,false,Rx,0,4,AA,A0,FF,C0,00,00,00,00,
2170983,00000157,false,Rx,0,8,D5,7B,09,C4,FF,E0,00,80,
2172527,000001A1,false,Rx,0,8,B1,05,5C,11,A5,8C,80,20,
2177527,0000019F,false,Rx,0,8,E1,E1,7D,06,00,6A,50,FE,
2179377,00000155,false,Rx,0,8,48,87,C5,54,96,98,02,C2,
2179802,000001C7,false,Rx,0,4,AA,A0,FF,C0,00,00,00,00,
2180956,00000157,false,Rx,0,8,D5,CB,09,C4,FF,E0,00,80,
2182490,000001A1,false,Rx,0,8,B0,C5,5C,11,A5,8C,80,20,
2187528,0000019F,false,Rx,0,8,E1,E1,7D,0B,00,6A,50,FE,
2189352,00000155,false,Rx,0,8,48,87,C4,54,96,98,02,C2,
2189806,000001C7,false,Rx,0,4,AA,A0,FF,C0,00,00,00,00,
2190915,00000157,false,Rx,0,8,D5,1B,09,C4,FF,E0,00,80,
2192529,000001A1,false,Rx,0,8,B1,05,5C,11,A5,8C,80,20,
2195877,00000423,false,Rx,0,8,0B,1D,00,02,B2,80,5D,D8,
2196316,00000445,false,Rx,0,7,80,55,55,65,04,82,00,00,
2197489,0000019F,false,Rx,0,8,E1,E1,7D,00,00,6A,50,FE,
2199312,00000155,false,Rx,0,8,48,87,C4,54,96,98,02,C2,
2199578,00000424,false,Rx,0,8,11,40,56,C8,33,5E,AA,34,
2199750,00000425,false,Rx,0,8,2A,BA,44,9C,42,18,CD,0B,
2200000,000004F7,false,Rx,0,8,00,1A,08,00,90,30,06,F0,
2200154,000001C7,false,Rx,0,4,AA,A0,FF,C0,00,00,00,00,
2200425,00000428,false,Rx,0,8,00,00,00,7F,00,00,00,00,
2200577,0000042F,false,Rx,0,2,00,20,00,00,00,00,00,00,
2200950,00000157,false,Rx,0,8,D5,6B,09,C4,FF,E0,00,80,
2201176,00000426,false,Rx,0,8,00,60,01,00,53,18,00,40,
2202484,000001A1,false,Rx,0,8,B1,05,5C,11,A5,8C,80,20,
2207540,0000019F,false,Rx,0,8,E1,E1,7D,05,00,6A,50,FE,
2209355,00000155,false,Rx,0,8,48,87,C5,54,96,98,02,C2,
2209803,000001C7,false,Rx,0,4,AA,A0,FF,C0,00,00,00,00,
2210938,00000157,false,Rx,0,8,D5,BB,09,C4,FF,E0,00,80,
2212529,000001A1,false,Rx,0,8,B0,C5,5C,11,A5,8C,80,20,
2215177,00000500,false,Rx,0,5,02,9B,92,41,DD,00,00,00,
2215877,00000435,false,Rx,0,8,FF,FF,1E,0B,2E,10,00,00,
2217528,0000019F,false,Rx,0,8,E1,E1,7D,0A,00,6A,50,FE,
2217777,00000419,false,Rx,0,6,5E,22,32,E6,40,00,00,00,
2219352,00000155,false,Rx,0,8,48,87,C5,54,96,98,02,C2,
2219827,000001C7,false,Rx,0,4,AA,A0,FF,C0,00,00,00,00,
2221003,00000157,false,Rx,0,8,D5,0B,09,C4,FF,E0,00,80,
2221204,00000436,false,Rx,0,6,86,16,64,3B,FF,DC,00,00,
2222490,000001A1,false,Rx,0,8,B0,C5,5C,11,A5,8C,80,20,
2227529,0000019F,false,Rx,0,8,E1,E1,7D,0F,00,6A,50,FE,
2229355,00000155,false,Rx,0,8,48,87,C6,54,96,98,02,C2,
2229827,000001C7,false,Rx,0,4,AA,A0,FF,C0,00,00,00,00,
2230979,00000157,false,Rx,0,8,D5,5B,09,C4,FF,E0,00,80,
2232527,000001A1,false,Rx,0,8,B1,05,5C,11,A5,8C,80,20,
2237529,0000019F,false,Rx,0,8,E1,E1,7D,04,00,6A,50,FE,
2239527,00000155,false,Rx,0,8,48,87,C6,54,96,98,02,C2,
2239827,000001C7,false,Rx,0,4,AA,A0,FF,C0,00,00,00,00,
2240952,00000157,false,Rx,0,8,D5,AB,09,C4,FF,E0,00,80,
2242492,000001A1,false,Rx,0,8,B1,05,5C,11,A5,8C,80,20,
2247538,0000019F,false,Rx,0,8,E1,E1,7D,09,00,6A,50,FE,
2249407,00000155,false,Rx,0,8,48,87,C5,54,96,98,02,C2,
2249827,000001C7,false,Rx,0,4,AA,A0,FF,C0,00,00,00,00,
2251002,00000157,false,Rx,0,8,D5,FB,09,C4,FF,E0,00,80,
2252504,000001A1,false,Rx,0,8,B0,C5,5C,11,A5,8C,80,20,
2257495,0000019F,false,Rx,0,8,E1,E1,7D,0E,00,6A,50,FE,
2259384,00000155,false,Rx,0,8,48,87,C5,54,96,98,02,C2,
2259793,000001C7,false,Rx,0,4,AA,A0,FF,C0,00,00,00,00,
2260917,00000157,false,Rx,0,8,D5,4B,09,C4,FF,E0,00,80,
2262495,000001A1,false,Rx,0,8,B1,05,5C,11,A5,8C,80,20,
2267496,0000019F,false,Rx,0,8,E1,E1,7D,03,00,6A,50,FE,
2267765,00000511,false,Rx,0,7,00,86,C5,B1,57,17,99,00,
2269395,00000155,false,Rx,0,8,48,87,C4,54,96,98,02,C2,
2269841,000001C7,false,Rx,0,4,AA,A0,FF,C0,00,00,00,00,
2270947,00000157,false,Rx,0,8,D5,9B,09,C4,FF,E0,00,80,
2272506,000001A1,false,Rx,0,8,B0,C5,5C,11,A5,8C,80,20,
2277585,0000019F,false,Rx,0,8,E1,E1,7D,08,00,6A,50,FE,
2279434,00000155,false,Rx,0,8,48,87,C5,54,96,98,02,C2,
2279814,000001C7,false,Rx,0,4,AA,A0,FF,C0,00,00,00,00,
2280970,00000157,false,Rx,0,8,D5,EB,09,C4,FF,E0,00,80,
2282494,000001A1,false,Rx,0,8,B1,05,5C,11,A5,8C,80,20,
2287561,0000019F,false,Rx,0,8,E1,E1,7D,0D,00,6A,50,FE,
2289486,00000155,false,Rx,0,8,48,87,C5,54,96,98,02,C2,
2289880,000001C7,false,Rx,0,4,AA,A0,FF,C0,00,00,00,00,
2291051,00000157,false,Rx,0,8,D5,3B,09,C4,FF,E0,00,80,
2292645,000001A1,false,Rx,0,8,B1,05,5C,11,A5,8C,80,20,
2295886,00000423,false,Rx,0,8,0B,1D,00,02,B2,80,5D,D8,
2296413,00000445,false,Rx,0,7,80,55,55,65,04,82,00,00,
2297660,0000019F,false,Rx,0,8,E1,E1,7D,02,00,6A,50,FE,
2299539,00000155,false,Rx,0,8,48,87,C6,54,96,98,02,C2,
2299546,00000424,false,Rx,0,8,11,40,56,C8,33,5E,AA,34,
2299828,00000425,false,Rx,0,8,2A,BA,44,9C,42,18,CD,0B,
2300039,000004F7,false,Rx,0,8,00,1A,08,00,90,30,06,F0,
2300241,000001C7,false,Rx,0,4,AA,A0,FF,C0,00,00,00,00,
2300556,00000428,false,Rx,0,8,00,00,00,7F,00,00,00,00,
2300582,0000042F,false,Rx,0,2,00,20,00,00,00,00,00,00,
2301110,00000157,false,Rx,0,8,D5,8B,09,C4,FF,E0,00,80,
2301219,00000426,false,Rx,0,8,00,60,01,00,53,18,00,40,
2302546,000001A1,false,Rx,0,8,B0,C5,5C,11,A5,8C,80,20,
2307666,0000019F,false,Rx,0,8,E1,E1,7D,07,00,6A,50,FE,
2309531,00000155,false,Rx,0,8,48,87,C6,54,96,98,02,C2,
2310034,000001C7,false,Rx,0,4,AA,A0,FF,C0,00,00,00,00,
2311206,00000157,false,Rx,0,8,D5,DB,09,C4,FF,E0,00,80,
2312639,000001A1,false,Rx,0,8,B1,05,5C,11,A5,8C,80,20,
2315413,00000500,false,Rx,0,5,02,C6,02,ED,76,00,00,00,
2316105,00000435,false,Rx,0,8,FF,FF,1E,0B,2E,10,00,00,
2317538,0000019F,false,Rx,0,8,E1,E1,7D,0C,00,6A,50,FE,
2317807,00000419,false,Rx,0,6,5E,22,32,E6,40,00,00,00,
2319439,00000155,false,Rx,0,8,48,87,C5,54,96,98,02,C2,
2319966,000001C7,false,Rx,0,4,AA,A0,FF,C0,00,00,00,00,
2321090,00000157,false,Rx,0,8,D5,2B,09,C4,FF,E0,00,80,
2321168,00000436,false,Rx,0,6,86,16,64,3B,FF,DC,00,00,
2322553,000001A1,false,Rx,0,8,B0,C5,5C,11,A5,8C,80,20,
2327660,0000019F,false,Rx,0,8,E1,E1,7D,01,00,6A,50,FE,
2329582,00000155,false,Rx,0,8,48,87,C5,54,96,98,02,C2,
2329929,000001C7,false,Rx,0,4,AA,A0,FF,C0,00,00,00,00,
2331159,00000157,false,Rx,0,8,D5,7B,09,C4,FF,E0,00,80,
2332728,000001A1,false,Rx,0,8,B0,C5,5C,11,A5,8C,80,20,
2337685,0000019F,false,Rx,0,8,E1,E1,7D,06,00,6A,50,FE,
2339500,00000155,false,Rx,0,8,48,87,C4,54,96,98,02,C2,
2340033,000001C7,false,Rx,0,4,AA,A0,FF,C0,00,00,00,00,
2341106,00000157,false,Rx,0,8,D5,CB,09,C4,FF,E0,00,80,
2342565,000001A1,false,Rx,0,8,B1,05,5C,11,A5,8C,80,20,
2347701,0000019F,false,Rx,0,8,E1,E1,7D,0B,00,6A,50,FE,
2349609,00000155,false,Rx,0,8,48,87,C4,54,96,98,02,C2,
2349914,000001C7,false,Rx,0,4,AA,A0,FF,C0,00,00,00,00,
2351181,00000157,false,Rx,0,8,D5,1B,09,C4,FF,E0,00,80,
2352595,000001A1,false,Rx,0,8,B1,05,5C,11,A5,8C,80,20,
2357682,0000019F,false,Rx,0,8,E1,E1,7D,00,00,6A,50,FE,
2359614,00000155,false,Rx,0,8,48,87,C5,54,96,98,02,C2,
2359949,000001C7,false,Rx,0,4,AA,A0,FF,C0,00,00,00,00,
2360954,00000157,false,Rx,0,8,D5,6B,09,C4,FF,E0,00,80,
2362704,000001A1,false,Rx,0,8,B0,C5,5C,11,A5,8C,80,20,
2367704,0000019F,false,Rx,0,8,E1,E1,7D,05,00,6A,50,FE,
2367772,00000511,false,Rx,0,7,00,C5,8E,6A,C2,24,7C,00,
2369586,00000155,false,Rx,0,8,48,87,C5,54,96,98,02,C2,
2369921,000001C7,false,Rx,0,4,AA,A0,FF,C0,00,00,00,00,
2371163,00000157,false,Rx,0,8,D5,BB,09,C4,FF,E0,00,80,
2372651,000001A1,false,Rx,0,8,B1,05,5C,11,A5,8C,80,20,
2377677,0000019F,false,Rx,0,8,E1,E1,7D,0A,00,6A,50,FE,
2379641,00000155,false,Rx,0,8,48,87,C6,54,96,98,02,C2,
2379928,000001C7,false,Rx,0,4,AA,A0,FF,C0,00,00,00,00,
2381134,00000157,false,Rx,0,8,D5,0B,09,C4,FF,E0,00,80,
2382702,000001A1,false,Rx,0,8,B1,05,5C,11,A5,8C,80,20,
2387558,0000019F,false,Rx,0,8,E1,E1,7D,0F,00,6A,50,FE,
2389563,00000155,false,Rx,0,8,48,87,C6,54,96,98,02,C2,
2389961,000001C7,false,Rx,0,4,AA,A0,FF,C0,00,00,00,00,
2391164,00000157,false,Rx,0,8,D5,5B,09,C4,FF,E0,00,80,
2392603,000001A1,false,Rx,0,8,B0,C5,5C,11,A5,8C,80,20,
2395898,00000423,false,Rx,0,8,0B,1D,00,02,B2,80,5D,D8,
2396320,00000445,false,Rx,0,7,80,55,55,65,04,82,00,00,
2397542,0000019F,false,Rx,0,8,E1,E1,7D,04,00,6A,50,FE,
2399344,00000155,false,Rx,0,8,48,87,C5,54,96,98,02,C2,
2399535,00000424,false,Rx,0,8,11,40,56,C8,33,5E,AA,34,
2399820,00000425,false,Rx,0,8,2A,BA,44,9C,42,18,CD,0B,
2400046,000004F7,false,Rx,0,8,00,1A,08,00,90,30,06,F0,
2400189,000001C7,false,Rx,0,4,AA,A0,FF,C0,00,00,00,00,
2400477,00000428,false,Rx,0,8,00,00,00,7F,00,00,00,00,
2400587,0000042F,false,Rx,0,2,00,20,00,00,00,00,00,00,
2400893,00000157,false,Rx,0,8,D5,AB,09,C4,FF,E0,00,80,
2401194,00000426,false,Rx,0,8,00,60,01,00,53,18,00,40,
2402542,000001A1,false,Rx,0,8,B1,05,5C,11,A5,8C,80,20,
2407545,0000019F,false,Rx,0,8,E1,E1,7D,09,00,6A,50,FE,
2409369,00000155,false,Rx,0,8,48,87,C4,54,96,98,02,C2,
2409918,000001C7,false,Rx,0,4,AA,A0,FF,C0,00,00,00,00,
2411043,00000157,false,Rx,0,8,D5,FB,09,C4,FF,E0,00,80,
2412518,000001A1,false,Rx,0,8,B1,05,5C,11,A5,8C,80,20,
2415490,00000500,false,Rx,0,5,02,5B,98,4F,89,00,00,00,
2415889,00000435,false,Rx,0,8,FF,FF,1E,0B,2E,10,00,00,
2417541,0000019F,false,Rx,0,8,E1,E1,7D,0E,00,6A,50,FE,
2417789,00000419,false,Rx,0,6,5E,22,32,E6,40,00,00,00,
2419364,00000155,false,Rx,0,8,48,87,C4,54,96,98,02,C2,
2419939,000001C7,false,Rx,0,4,AA,A0,FF,C0,00,00,00,00,
2420989,00000157,false,Rx,0,8,D5,4B,09,C4,FF,E0,00,80,
2421175,00000436,false,Rx,0,6,86,16,64,3B,FF,DC,00,00,
2422518,000001A1,false,Rx,0,8,B0,C5,5C,11,A5,8C,80,20,
2427559,0000019F,false,Rx,0,8,E1,E1,7D,03,00,6A,50,FE,
2429365,00000155,false,Rx,0,8,48,87,C5,54,96,98,02,C2,
2429941,000001C7,false,Rx,0,4,AA,A0,FF,C0,00,00,00,00,
2431015,00000157,false,Rx,0,8,D5,9B,09,C4,FF,E0,00,80,
2432514,000001A1,false,Rx,0,8,B0,C5,5C,11,A5,8C,80,20,
2437540,0000019F,false,Rx,0,8,E1,E1,7D,08,00,6A,50,FE,
2439416,00000155,false,Rx,0,8,48,87,C5,54,96,98,02,C2,
2439942,000001C7,false,Rx,0,4,AA,A0,FF,C0,00,00,00,00,
2440965,00000157,false,Rx,0,8,D5,EB,09,C4,FF,E0,00,80,
2442514,000001A1,false,Rx,0,8,B1,05,5C,11,A5,8C,80,20,
2447515,0000019F,false,Rx,0,8,E1,E1,7D,0D,00,6A,50,FE,
2449415,00000155,false,Rx,0,8,48,87,C6,54,96,98,02,C2,
2449940,000001C7,false,Rx,0,4,AA,A0,FF,C0,00,00,00,00,
2450940,00000157,false,Rx,0,8,D5,3B,09,C4,FF,E0,00,80,
2452468,000001A1,false,Rx,0,8,B1,05,5C,11,A5,8C,80,20,
2457493,0000019F,false,Rx,0,8,E1,E1,7D,02,00,6A,50,FE,
2459411,00000155,false,Rx,0,8,48,87,C6,54,96,98,02,C2,
2459931,000001C7,false,Rx,0,4,AA,A0,FF,C0,00,00,00,00,
2460953,00000157,false,Rx,0,8,D5,8B,09,C4,FF,E0,00,80,
2462469,000001A1,false,Rx,0,8,B0,C5,5C,11,A5,8C,80,20,
2467536,0000019F,false,Rx,0,8,E1,E1,7D,07,00,6A,50,FE,
2467807,00000511,false,Rx,0,7,00,04,57,23,2D,31,5F,00,
2469431,00000155,false,Rx,0,8,48,87,C5,54,96,98,02,C2,
2469958,000001C7,false,Rx,0,4,AA,A0,FF,C0,00,00,00,00,
2471011,00000157,false,Rx,0,8,D5,DB,09,C4,FF,E0,00,80,
2472519,000001A1,false,Rx,0,8,B1,05,5C,11,A5,8C,80,20,
2477543,0000019F,false,Rx,0,8,E1,E1,7D,0C,00,6A,50,FE,
2479369,00000155,false,Rx,0,8,48,87,C5,54,96,98,02,C2,
2479965,000001C7,false,Rx,0,4,AA,A0,FF,C0,00,00,00,00,
2480942,00000157,false,Rx,0,8,D5,2B,09,C4,FF,E0,00,80,
2482515,000001A1,false,Rx,0,8,B0,C5,5C,11,A5,8C,80,20,
2487533,0000019F,false,Rx,0,8,E1,E1,7D,01,00,6A,50,FE,
2489341,00000155,false,Rx,0,8,48,87,C4,54,96,98,02,C2,
2489968,000001C7,false,Rx,0,4,AA,A0,FF,C0,00,00,00,00,
2491040,00000157,false,Rx,0,8,D5,7B,09,C4,FF,E0,00,80,
2492515,000001A1,false,Rx,0,8,B0,C5,5C,11,A5,8C,80,20,
2495916,00000423,false,Rx,0,8,0B,1D,00,02,5D,80,B2,D8,
2496343,00000445,false,Rx,0,7,80,55,AA,65,04,82,00,00,
2497540,0000019F,false,Rx,0,8,E1,E1,7D,06,00,6A,50,FE,
2499340,00000155,false,Rx,0,8,48,87,C5,54,96,98,02,C2,
2499568,00000424,false,Rx,0,8,11,40,56,C8,33,5E,55,34,
2499790,00000425,false,Rx,0,8,2A,BA,44,9C,42,1A,CD,0B,
2500043,000004F7,false,Rx,0,8,00,1A,08,00,90,30,06,F0,
2500184,000001C7,false,Rx,0,4,AA,A0,FF,C0,00,00,00,00,
2500474,00000428,false,Rx,0,8,00,00,00,7F,00,00,00,00,
2500594,0000042F,false,Rx,0,2,00,20,00,00,00,00,00,00,
2501039,00000157,false,Rx,0,8,D5,CB,09,C4,FF,E0,00,80,
2501267,00000426,false,Rx,0,8,00,60,01,00,53,18,00,40,
2502519,000001A1,false,Rx,0,8,B1,05,5C,11,A5,8C,80,20,
2507517,0000019F,false,Rx,0,8,E1,E1,7D,0B,00,6A,50,FE,
2509344,00000155,false,Rx,0,8,48,87,C5,54,96,98,02,C2,
2509990,000001C7,false,Rx,0,4,AA,A0,FF,C0,00,00,00,00,
2510992,00000157,false,Rx,0,8,D5,1B,09,C4,FF,E0,00,80,
2512515,000001A1,false,Rx,0,8,B1,05,5C,11,A5,8C,80,20,
2515291,00000500,false,Rx,0,5,02,4E,95,C4,49,00,00,00,
2515872,00000435,false,Rx,0,8,FF,FF,1E,0B,2E,10,00,00,
2517494,0000019F,false,Rx,0,8,E1,E1,7D,00,00,6A,50,FE,
2517742,00000419,false,Rx,0,6,5E,22,32,E6,40,00,00,00,
2519314,00000155,false,Rx,0,8,48,87,C5,54,96,98,02,C2,
2519939,000001C7,false,Rx,0,4,AA,A0,FF,C0,00,00,00,00,
2520890,00000157,false,Rx,0,8,D5,6B,09,C4,FF,E0,00,80,
2521089,00000436,false,Rx,0,6,86,16,64,3B,FF,DC,00,00,
2522464,000001A1,false,Rx,0,8,B0,C5,5C,11,A5,8C,80,20,
2527534,0000019F,false,Rx,0,8,E1,E1,7D,05,00,6A,50,FE,
2529360,00000155,false,Rx,0,8,48,87,C6,54,96,98,02,C2,
2529981,000001C7,false,Rx,0,4,AA,A0,FF,C0,00,00,00,00,
2530981,00000157,false,Rx,0,8,D5,BB,09,C4,FF,E0,00,80,
2532506,000001A1,false,Rx,0,8,B0,C5,5C,11,A5,8C,80,20,
2535278,0000069F,false,Rx,0,4,71,30,28,2F,00,00,00,00,
2537535,0000019F,false,Rx,0,8,E1,E1,7D,0A,00,6A,50,FE,
2539459,00000155,false,Rx,0,8,48,87,C6,54,96,98,02,C2,
2539982,000001C7,false,Rx,0,4,AA,A0,FF,C0,00,00,00,00,
2540981,00000157,false,Rx,0,8,D5,0B,09,C4,FF,E0,00,80,
2542506,000001A1,false,Rx,0,8,B0,C5,5C,11,A5,8C,80,20,
2547528,0000019F,false,Rx,0,8,E1,E1,7D,0F,00,6A,50,FE,
2549367,00000155,false,Rx,0,8,48,87,C5,54,96,98,02,C2,
2549967,000001C7,false,Rx,0,4,AA,A0,FF,C0,00,00,00,00,
2550941,00000157,false,Rx,0,8,D5,5B,09,C4,FF,E0,00,80,
2552517,000001A1,false,Rx,0,8,B1,05,5C,11,A5,8C,80,20,
2557490,0000019F,false,Rx,0,8,E1,E1,7D,04,00,6A,50,FE,
2559338,00000155,false,Rx,0,8,48,87,C4,54,96,98,02,C2,
2560125,000001C7,false,Rx,0,4,AA,A0,FF,C0,00,00,00,00,
2561199,00000157,false,Rx,0,8,D5,AB,09,C4,FF,E0,00,80,
2562635,000001A1,false,Rx,0,8,B1,05,5C,11,A5,8C,80,20,
2567662,0000019F,false,Rx,0,8,E1,E1,7D,09,00,6A,50,FE,
2567783,00000511,false,Rx,0,7,00,43,20,DC,98,3E,42,00,
2569563,00000155,false,Rx,0,8,48,87,C4,54,96,98,02,C2,
2570231,000001C7,false,Rx,0,4,AA,A0,FF,C0,00,00,00,00,
2571226,00000157,false,Rx,0,8,D5,FB,09,C4,FF,E0,00,80,
2572635,000001A1,false,Rx,0,8,B0,C5,5C,11,A5,8C,80,20,
2577532,0000019F,false,Rx,0,8,E1,E1,7D,0E,00,6A,50,FE,
2579604,00000155,false,Rx,0,8,48,87,C5,54,96,98,02,C2,
2580224,000001C7,false,Rx,0,4,AA,A0,FF,C0,00,00,00,00,
2581060,00000157,false,Rx,0,8,D5,4B,09,C4,FF,E0,00,80,
2582621,000001A1,false,Rx,0,8,B1,05,5C,11,A5,8C,80,20,
2587673,0000019F,false,Rx,0,8,E1,E1,7D,03,00,6A,50,FE,
2589551,00000155,false,Rx,0,8,48,87,C5,54,96,98,02,C2,
2590227,000001C7,false,Rx,0,4,AA,A0,FF,C0,00,00,00,00,
2591177,00000157,false,Rx,0,8,D5,9B,09,C4,FF,E0,00,80,
2592713,000001A1,false,Rx,0,8,B1,05,5C,11,A5,8C,80,20,
2596148,00000423,false,Rx,0,8,0B,1D,00,02,5D,80,B2,D8,
2596347,00000445,false,Rx,0,7,80,55,AA,65,04,82,00,00,
2597577,0000019F,false,Rx,0,8,E1,E1,7D,08,00,6A,50,FE,
2599549,00000155,false,Rx,0,8,48,87,C6,54,96,98,02,C2,
2599555,00000424,false,Rx,0,8,11,40,56,C8,33,5E,55,34,
2599818,00000425,false,Rx,0,8,2A,BA,44,9C,42,18,CD,0B,
2600204,000004F7,false,Rx,0,8,00,1A,08,00,90,30,06,F0,
2600207,000001C7,false,Rx,0,4,AA,A0,FF,C0,00,00,00,00,
2600537,00000428,false,Rx,0,8,00,00,00,7F,00,00,00,00,
2600643,0000042F,false,Rx,0,2,00,20,00,00,00,00,00,00,
2601145,00000157,false,Rx,0,8,D5,EB,09,C4,FF,E0,00,80,
2601150,00000426,false,Rx,0,8,00,60,01,00,53,18,00,40,
2602636,000001A1,false,Rx,0,8,B0,C5,5C,11,A5,8C,80,20,
2607541,0000019F,false,Rx,0,8,E1,E1,7D,0D,00,6A,50,FE,
2609561,00000155,false,Rx,0,8,48,87,C6,54,96,98,02,C2,
2610259,000001C7,false,Rx,0,4,AA,A0,FF,C0,00,00,00,00,
2611160,00000157,false,Rx,0,8,D5,3B,09,C4,FF,E0,00,80,
2612602,000001A1,false,Rx,0,8,B1,05,5C,11,A5,8C,80,20,
2615570,00000500,false,Rx,0,5,02,3E,28,70,DA,00,00,00,
2616071,00000435,false,Rx,0,8,FF,FF,1E,0B,2E,10,00,00,
2617698,0000019F,false,Rx,0,8,E1,E1,7D,02,00,6A,50,FE,
2617769,00000419,false,Rx,0,6,5E,22,32,E6,40,00,00,00,
2619590,00000155,false,Rx,0,8,48,87,C5,54,96,98,02,C2,
2620215,000001C7,false,Rx,0,4,AA,A0,FF,C0,00,00,00,00,
2621146,00000157,false,Rx,0,8,D5,8B,09,C4,FF,E0,00,80,
2621165,00000436,false,Rx,0,6,86,16,64,3B,FF,DC,00,00,
2622566,000001A1,false,Rx,0,8,B1,05,5C,11,A5,8C,80,20,
2627694,0000019F,false,Rx,0,8,E1,E1,7D,07,00,6A,50,FE,
2629344,00000155,false,Rx,0,8,48,87,C4,54,96,98,02,C2,
2630262,000001C7,false,Rx,0,4,AA,A0,FF,C0,00,00,00,00,
2631260,00000157,false,Rx,0,8,D5,DB,09,C4,FF,E0,00,80,
2632566,000001A1,false,Rx,0,8,B0,C5,5C,11,A5,8C,80,20,
2637599,0000019F,false,Rx,0,8,E1,E1,7D,0C,00,6A,50,FE,
2639616,00000155,false,Rx,0,8,48,87,C4,54,96,98,02,C2,
2640162,000001C7,false,Rx,0,4,AA,A0,FF,C0,00,00,00,00,
2641201,00000157,false,Rx,0,8,D5,2B,09,C4,FF,E0,00,80,
2642557,000001A1,false,Rx,0,8,B0,C5,5C,11,A5,8C,80,20,
2647556,0000019F,false,Rx,0,8,E1,E1,7D,01,00,6A,50,FE,
2649427,00000155,false,Rx,0,8,48,87,C5,54,96,98,02,C2,
2650071,000001C7,false,Rx,0,4,AA,A0,FF,C0,00,00,00,00,
2650947,00000157,false,Rx,0,8,D5,7B,09,C4,FF,E0,00,80,
2652545,000001A1,false,Rx,0,8,B1,05,5C,11,A5,8C,80,20,
2657547,0000019F,false,Rx,0,8,E1,E1,7D,06,00,6A,50,FE,
2659416,00000155,false,Rx,0,8,48,87,C5,54,96,98,02,C2,
2660069,000001C7,false,Rx,0,4,AA,A0,FF,C0,00,00,00,00,
2660916,00000157,false,Rx,0,8,D5,CB,09,C4,FF,E0,00,80,
2662519,000001A1,false,Rx,0,8,B0,C5,5C,11,A5,8C,80,20,
2667543,0000019F,false,Rx,0,8,E1,E1,7D,0B,00,6A,50,FE,
2667816,00000511,false,Rx,0,7,00,82,E9,95,03,4B,25,00,
2669392,00000155,false,Rx,0,8,48,87,C5,54,96,98,02,C2,
2670071,000001C7,false,Rx,0,4,AA,A0,FF,C0,00,00,00,00,
2671041,00000157,false,Rx,0,8,D5,1B,09,C4,FF,E0,00,80,
2672518,000001A1,false,Rx,0,8,B0,C5,5C,11,A5,8C,80,20,
2677506,0000019F,false,Rx,0,8,E1,E1,7D,00,00,6A,50,FE,
2679367,00000155,false,Rx,0,8,48,87,C6,54,96,98,02,C2,
2680066,000001C7,false,Rx,0,4,AA,A0,FF,C0,00,00,00,00,
2680967,00000157,false,Rx,0,8,D5,6B,09,C4,FF,E0,00,80,
2682541,000001A1,false,Rx,0,8,B1,05,5C,11,A5,8C,80,20,
2687548,0000019F,false,Rx,0,8,E1,E1,7D,05,00,6A,50,FE,
2689344,00000155,false,Rx,0,8,48,87,C5,54,96,98,02,C2,
2690067,000001C7,false,Rx,0,4,AA,A0,FF,C0,00,00,00,00,
2691042,00000157,false,Rx,0,8,D5,BB,09,C4,FF,E0,00,80,
2692542,000001A1,false,Rx,0,8,B1,05,5C,11,A5,8C,80,20,
2695892,00000423,false,Rx,0,8,0B,1D,00,02,5D,80,B2,D8,
2696346,00000445,false,Rx,0,7,80,55,AA,65,04,82,00,00,
2697544,0000019F,false,Rx,0,8,E1,E1,7D,0A,00,6A,50,FE,
2699300,00000155,false,Rx,0,8,48,87,C5,54,96,98,02,C2,
2699520,00000424,false,Rx,0,8,11,40,56,C8,33,5E,55,34,
2699743,00000425,false,Rx,0,8,2A,BA,44,9C,42,18,CD,0B,
2700119,000004F7,false,Rx,0,8,00,1A,08,00,90,30,06,F0,
2700292,000001C7,false,Rx,0,4,AA,A0,FF,C0,00,00,00,00,
2700587,00000428,false,Rx,0,8,00,00,00,7F,00,00,00,00,
2700711,0000042F,false,Rx,0,2,00,20,00,00,00,00,00,00,
2700941,00000157,false,Rx,0,8,D5,0B,09,C4,FF,E0,00,80,
2701191,00000426,false,Rx,0,8,00,60,01,00,53,18,00,40,
2702479,000001A1,false,Rx,0,8,B1,05,5C,11,A5,8C,80,20,
2707525,0000019F,false,Rx,0,8,E1,E1,7D,0F,00,6A,50,FE,
2709342,00000155,false,Rx,0,8,48,87,C4,54,96,98,02,C2,
2710094,000001C7,false,Rx,0,4,AA,A0,FF,C0,00,00,00,00,
2711042,00000157,false,Rx,0,8,D5,5B,09,C4,FF,E0,00,80,
2712541,000001A1,false,Rx,0,8,B1,05,5C,11,A5,8C,80,20,
2715645,00000500,false,Rx,0,5,02,59,21,A9,10,00,00,00,
2715941,00000435,false,Rx,0,8,FF,FF,1E,0B,2E,10,00,00,
2717543,0000019F,false,Rx,0,8,E1,E1,7D,04,00,6A,50,FE,
2717792,00000419,false,Rx,0,6,5E,22,32,E6,40,00,00,00,
2719367,00000155,false,Rx,0,8,48,87,C5,54,96,98,02,C2,
2720092,000001C7,false,Rx,0,4,AA,A0,FF,C0,00,00,00,00,
2720996,00000157,false,Rx,0,8,D5,AB,09,C4,FF,E0,00,80,
2721195,00000436,false,Rx,0,6,86,16,64,3B,FF,DC,00,00,
2722499,000001A1,false,Rx,0,8,B0,C5,5C,11,A5,8C,80,20,
2727509,0000019F,false,Rx,0,8,E1,E1,7D,09,00,6A,50,FE,
2729298,00000155,false,Rx,0,8,48,87,C5,54,96,98,02,C2,
2730070,000001C7,false,Rx,0,4,AA,A0,FF,C0,00,00,00,00,
2730920,00000157,false,Rx,0,8,D5,FB,09,C4,FF,E0,00,80,
2732471,000001A1,false,Rx,0,8,B1,05,5C,11,A5,8C,80,20,
2737499,0000019F,false,Rx,0,8,E1,E1,7D,0E,00,6A,50,FE,
2739445,00000155,false,Rx,0,8,48,87,C5,54,96,98,02,C2,
2740072,000001C7,false,Rx,0,4,AA,A0,FF,C0,00,00,00,00,
2740938,00000157,false,Rx,0,8,D5,4B,09,C4,FF,E0,00,80,
2742481,000001A1,false,Rx,0,8,B0,C5,5C,11,A5,8C,80,20,
2747512,0000019F,false,Rx,0,8,E1,E1,7D,03,00,6A,50,FE,
2749381,00000155,false,Rx,0,8,48,87,C6,54,96,98,02,C2,
2750119,000001C7,false,Rx,0,4,AA,A0,FF,C0,00,00,00,00,
2750968,00000157,false,Rx,0,8,D5,9B,09,C4,FF,E0,00,80,
2752482,000001A1,false,Rx,0,8,B0,C5,5C,11,A5,8C,80,20,
2757547,0000019F,false,Rx,0,8,E1,E1,7D,08,00,6A,50,FE,
2759393,00000155,false,Rx,0,8,48,87,C6,54,96,98,02,C2,
2760118,000001C7,false,Rx,0,4,AA,A0,FF,C0,00,00,00,00,
2760937,00000157,false,Rx,0,8,D5,EB,09,C4,FF,E0,00,80,
2762534,000001A1,false,Rx,0,8,B1,05,5C,11,A5,8C,80,20,
2767536,0000019F,false,Rx,0,8,E1,E1,7D,0D,00,6A,50,FE,
2767813,00000511,false,Rx,0,7,00,C1,B2,4E,6E,58,08,00,
2769438,00000155,false,Rx,0,8,48,87,C5,54,96,98,02,C2,
2770135,000001C7,false,Rx,0,4,AA,A0,FF,C0,00,00,00,00,
2770922,00000157,false,Rx,0,8,D5,3B,09,C4,FF,E0,00,80,
2772504,000001A1,false,Rx,0,8,B1,05,5C,11,A5,8C,80,20,
2777495,0000019F,false,Rx,0,8,E1,E1,7D,02,00,6A,50,FE,
2779344,00000155,false,Rx,0,8,48,87,C4,54,96,98,02,C2,
2780090,000001C7,false,Rx,0,4,AA,A0,FF,C0,00,00,00,00,
2780920,00000157,false,Rx,0,8,D5,8B,09,C4,FF,E0,00,80,
2782471,000001A1,false,Rx,0,8,B0,C5,5C,11,A5,8C,80,20,
2787501,0000019F,false,Rx,0,8,E1,E1,7D,07,00,6A,50,FE,
2789299,00000155,false,Rx,0,8,48,87,C4,54,96,98,02,C2,
2790095,000001C7,false,Rx,0,4,AA,A0,FF,C0,00,00,00,00,
2790895,00000157,false,Rx,0,8,D5,DB,09,C4,FF,E0,00,80,
2792498,000001A1,false,Rx,0,8,B1,05,5C,11,A5,8C,80,20,
2795926,00000423,false,Rx,0,8,0B,1D,00,02,5D,80,B2,D8,
2796323,00000445,false,Rx,0,7,80,55,AA,65,04,82,00,00,
2797500,0000019F,false,Rx,0,8,E1,E1,7D,0C,00,6A,50,FE,
2799296,00000155,false,Rx,0,8,48,87,C5,54,96,98,02,C2,
2799521,00000424,false,Rx,0,8,11,40,56,C8,33,5E,55,34,
2799743,00000425,false,Rx,0,8,2A,BA,44,9C,42,1A,CD,0B,
2800171,000004F7,false,Rx,0,8,00,1A,08,00,90,30,06,F0,
2800350,000001C7,false,Rx,0,4,AA,A0,FF,C0,00,00,00,00,
2800586,00000428,false,Rx,0,8,00,00,00,7F,00,00,00,00,
2800768,0000042F,false,Rx,0,2,00,20,00,00,00,00,00,00,
2800996,00000157,false,Rx,0,8,D5,2B,09,C4,FF,E0,00,80,
2801249,00000426,false,Rx,0,8,00,60,01,00,53,18,00,40,
2802491,000001A1,false,Rx,0,8,B1,05,5C,11,A5,8C,80,20,
2807499,0000019F,false,Rx,0,8,E1,E1,7D,01,00,6A,50,FE,
2809296,00000155,false,Rx,0,8,48,87,C5,54,96,98,02,C2,
2810120,000001C7,false,Rx,0,4,AA,A0,FF,C0,00,00,00,00,
2810945,00000157,false,Rx,0,8,D5,7B,09,C4,FF,E0,00,80,
2812471,000001A1,false,Rx,0,8,B0,C5,5C,11,A5,8C,80,20,
2815379,00000500,false,Rx,0,5,02,FC,C8,71,DE,00,00,00,
2815920,00000435,false,Rx,0,8,FF,FF,1E,0B,2E,10,00,00,
2817503,0000019F,false,Rx,0,8,E1,E1,7D,06,00,6A,50,FE,
2817765,00000419,false,Rx,0,6,5E,22,32,E6,40,00,00,00,
2819317,00000155,false,Rx,0,8,48,87,C6,54,96,98,02,C2,
2820114,000001C7,false,Rx,0,4,AA,A0,FF,C0,00,00,00,00,
2820888,00000157,false,Rx,0,8,D5,CB,09,C4,FF,E0,00,80,
2821090,00000436,false,Rx,0,6,86,16,64,3B,FF,DC,00,00,
2822471,000001A1,false,Rx,0,8,B1,05,5C,11,A5,8C,80,20,
2827499,0000019F,false,Rx,0,8,E1,E1,7D,0B,00,6A,50,FE,
2829293,00000155,false,Rx,0,8,48,87,C6,54,96,98,02,C2,
2830119,000001C7,false,Rx,0,4,AA,A0,FF,C0,00,00,00,00,
2830942,00000157,false,Rx,0,8,D5,1B,09,C4,FF,E0,00,80,
2832495,000001A1,false,Rx,0,8,B1,05,5C,11,A5,8C,80,20,
2837499,0000019F,false,Rx,0,8,E1,E1,7D,00,00,6A,50,FE,
2839374,00000155,false,Rx,0,8,48,87,C5,54,96,98,02,C2,
2840144,000001C7,false,Rx,0,4,AA,A0,FF,C0,00,00,00,00,
2840898,00000157,false,Rx,0,8,D5,6B,09,C4,FF,E0,00,80,
2842471,000001A1,false,Rx,0,8,B0,C5,5C,11,A5,8C,80,20,
2847499,0000019F,false,Rx,0,8,E1,E1,7D,05,00,6A,50,FE,
2849373,00000155,false,Rx,0,8,48,87,C4,54,96,98,02,C3,
2850146,000001C7,false,Rx,0,4,AA,A0,FF,C0,00,00,00,00,
2850920,00000157,false,Rx,0,8,D5,BB,09,C4,FF,E0,00,80,
2852470,000001A1,false,Rx,0,8,B0,C5,5C,11,A5,8C,80,20,
2857500,0000019F,false,Rx,0,8,E1,E1,7D,0A,00,6A,50,FE,
2859348,00000155,false,Rx,0,8,48,87,C4,54,96,98,02,C3,
2860148,000001C7,false,Rx,0,4,AA,A0,FF,C0,00,00,00,00,
2860948,00000157,false,Rx,0,8,D5,0B,09,C4,FF,E0,00,80,
2862499,000001A1,false,Rx,0,8,B1,05,5C,11,A5,8C,80,20,
2867498,0000019F,false,Rx,0,8,E1,E1,7D,0F,00,6A,50,FE,
2867771,00000511,false,Rx,0,7,00,00,7B,07,D9,65,EB,00,
2869370,00000155,false,Rx,0,8,48,87,C5,54,96,98,02,C3,
2870147,000001C7,false,Rx,0,4,AA,A0,FF,C0,00,00,00,00,
2870944,00000157,false,Rx,0,8,D5,5B,09,C4,FF,E0,00,80,
2872495,000001A1,false,Rx,0,8,B0,C5,5C,11,A5,8C,80,20,
2877503,0000019F,false,Rx,0,8,E1,E1,7D,04,00,6A,50,FE,
2879329,00000155,false,Rx,0,8,48,87,C5,54,96,98,02,C3,
2880170,000001C7,false,Rx,0,4,AA,A0,FF,C0,00,00,00,00,
2880944,00000157,false,Rx,0,8,D5,AB,09,C4,FF,E0,00,80,
2882531,000001A1,false,Rx,0,8,B0,C5,5C,11,A5,8C,80,20,
2887534,0000019F,false,Rx,0,8,E1,E1,7D,09,00,6A,50,FE,
2889295,00000155,false,Rx,0,8,48,87,C6,54,96,98,02,C3,
2890194,000001C7,false,Rx,0,4,AA,A0,FF,C0,00,00,00,00,
2890955,00000157,false,Rx,0,8,D5,FB,09,C4,FF,E0,00,80,
2892502,000001A1,false,Rx,0,8,B1,05,5C,11,A5,8C,80,20,
2895875,00000423,false,Rx,0,8,0B,1D,00,02,5D,80,B2,D8,
2896325,00000445,false,Rx,0,7,80,55,AA,65,04,82,00,00,
2897497,0000019F,false,Rx,0,8,E1,E1,7D,0E,00,6A,50,FE,
2899273,00000155,false,Rx,0,8,48,87,C6,54,96,98,02,C3,
2899497,00000424,false,Rx,0,8,11,40,56,C8,33,5E,55,34,
2899744,00000425,false,Rx,0,8,2A,BA,44,9C,42,18,CD,0B,
2900247,000004F7,false,Rx,0,8,00,1A,08,00,90,30,06,F0,
2900400,000001C7,false,Rx,0,4,AA,A0,FF,C0,00,00,00,00,
2900669,00000428,false,Rx,0,8,00,00,00,7F,00,00,00,00,
2900846,0000042F,false,Rx,0,2,00,20,00,00,00,00,00,00,
2901075,00000157,false,Rx,0,8,D5,4B,09,C4,FF,E0,00,80,
2901327,00000426,false,Rx,0,8,00,60,01,00,53,18,00,40,
2902495,000001A1,false,Rx,0,8,B1,05,5C,11,A5,8C,80,20,
2907500,0000019F,false,Rx,0,8,E1,E1,7D,03,00,6A,50,FE,
2909297,00000155,false,Rx,0,8,48,87,C5,54,96,98,02,C3,
2910169,000001C7,false,Rx,0,4,AA,A0,FF,C0,00,00,00,00,
2910944,00000157,false,Rx,0,8,D5,9B,09,C4,FF,E0,00,80,
2912497,000001A1,false,Rx,0,8,B0,C5,5C,11,A5,8C,80,20,
2915399,00000500,false,Rx,0,5,02,80,96,71,4B,00,00,00,
2915871,00000435,false,Rx,0,8,FF,FF,1E,0B,2E,10,00,00,
2917496,0000019F,false,Rx,0,8,E1,E1,7D,08,00,6A,50,FE,
2917769,00000419,false,Rx,0,6,5E,22,32,E6,40,00,00,00,
2919322,00000155,false,Rx,0,8,48,87,C5,54,96,98,02,C3,
2920173,000001C7,false,Rx,0,4,AA,A0,FF,C0,00,00,00,00,
2920970,00000157,false,Rx,0,8,D5,EB,09,C4,FF,E0,00,80,
2921178,00000436,false,Rx,0,6,86,16,64,3B,FF,DC,00,00,
2922495,000001A1,false,Rx,0,8,B1,05,5C,11,A5,8C,80,20,
2927495,0000019F,false,Rx,0,8,E1,E1,7D,0D,00,6A,50,FE,
2929306,00000155,false,Rx,0,8,48,87,C4,54,96,98,02,C3,
2930208,000001C7,false,Rx,0,4,AA,A0,FF,C0,00,00,00,00,
2930921,00000157,false,Rx,0,8,D5,3B,09,C4,FF,E0,00,80,
2932499,000001A1,false,Rx,0,8,B1,05,5C,11,A5,8C,80,20,
2937506,0000019F,false,Rx,0,8,E1,E1,7D,02,00,6A,50,FE,
2939405,00000155,false,Rx,0,8,48,87,C5,54,96,98,02,C3,
2940197,000001C7,false,Rx,0,4,AA,A0,FF,C0,00,00,00,00,
2940922,00000157,false,Rx,0,8,D5,8B,09,C4,FF,E0,00,80,
2942500,000001A1,false,Rx,0,8,B1,05,5C,11,A5,8C,80,20,
2947508,0000019F,false,Rx,0,8,E1,E1,7D,07,00,6A,50,FE,
2949329,00000155,false,Rx,0,8,48,87,C5,54,96,98,02,C3,
2950194,000001C7,false,Rx,0,4,AA,A0,FF,C0,00,00,00,00,
2950966,00000157,false,Rx,0,8,D5,DB,09,C4,FF,E0,00,80,
2952492,000001A1,false,Rx,0,8,B1,05,5C,11,A5,8C,80,20,
2957495,0000019F,false,Rx,0,8,E1,E1,7D,0C,00,6A,50,FE,
2959316,00000155,false,Rx,0,8,48,87,C5,54,96,98,02,C3,
2960215,000001C7,false,Rx,0,4,AA,A0,FF,C0,00,00,00,00,
2960862,00000157,false,Rx,0,8,D5,2B,09,C4,FF,E0,00,80,
2962503,000001A1,false,Rx,0,8,B0,C5,5C,11,A5,8C,80,20,
2967526,0000019F,false,Rx,0,8,E1,E1,7D,01,00,6A,50,FE,
2967794,00000511,false,Rx,0,7,00,3F,44,C0,44,72,CE,00,
2969399,00000155,false,Rx,0,8,48,87,C6,54,96,98,02,C3,
2970256,000001C7,false,Rx,0,4,AA,A0,FF,C0,00,00,00,00,
2970946,00000157,false,Rx,0,8,D5,7B,09,C4,FF,E0,00,80,
2972493,000001A1,false,Rx,0,8,B1,05,5C,11,A5,8C,80,20,
2977522,0000019F,false,Rx,0,8,E1,E1,7D,06,00,6A,50,FE,
2979345,00000155,false,Rx,0,8,48,87,C5,54,96,98,02,C3,
2980220,000001C7,false,Rx,0,4,AA,A0,FF,C0,00,00,00,00,
2980991,00000157,false,Rx,0,8,D5,CB,09,C4,FF,E0,00,80,
2982510,000001A1,false,Rx,0,8,B1,05,5C,11,A5,8C,80,20,
2987532,0000019F,false,Rx,0,8,E1,E1,7D,0B,00,6A,50,FE,
2989306,00000155,false,Rx,0,8,48,87,C5,54,96,98,02,C3,
2990255,000001C7,false,Rx,0,4,AA,A0,FF,C0,00,00,00,00,
2990921,00000157,false,Rx,0,8,D5,1B,09,C4,FF,E0,00,80,
2992495,000001A1,false,Rx,0,8,B0,C5,5C,11,A5,8C,80,20,
2995897,00000423,false,Rx,0,8,0B,1D,00,02,B2,80,5D,D8,
2996299,00000445,false,Rx,0,7,80,55,55,65,04,82,00,00,
2997529,0000019F,false,Rx,0,8,E1,E1,7D,00,00,6A,50,FE,
2999306,00000155,false,Rx,0,8,48,87,C4,54,96,98,02,C3,
2999533,00000424,false,Rx,0,8,11,40,56,C8,33,5E,AA,34,
2999780,00000425,false,Rx,0,8,2A,BA,44,9C,42,18,CD,0B,
3000323,000004F7,false,Rx,0,8,00,1A,08,00,90,30,06,F0,
3000501,000001C7,false,Rx,0,4,AA,A0,FF,C0,00,00,00,00,
3000719,00000428,false,Rx,0,8,00,00,00,7F,00,00,00,00,
3001033,00000157,false,Rx,0,8,D5,6B,09,C4,FF,E0,00,80,
3001260,00000426,false,Rx,0,8,00,60,01,00,53,18,00,40,
3001388,0000042F,false,Rx,0,2,00,20,00,00,00,00,00,00,
3002528,000001A1,false,Rx,0,8,B1,05,5C,11,A5,8C,80,20,
3007531,0000019F,false,Rx,0,8,E1,E1,7D,05,00,6A,50,FE,
3009330,00000155,false,Rx,0,8,48,87,C5,54,96,98,02,C3,
3010283,000001C7,false,Rx,0,4,AA,A0,FF,C0,00,00,00,00,
3011007,00000157,false,Rx,0,8,D5,BB,09,C4,FF,E0,00,80,
3012529,000001A1,false,Rx,0,8,B1,05,5C,11,A5,8C,80,20,
3015696,00000500,false,Rx,0,5,02,28,38,25,52,00,00,00,
3016084,00000435,false,Rx,0,8,FF,FF,1E,0B,2E,10,00,00,
3017676,0000019F,false,Rx,0,8,E1,E1,7D,0A,00,6A,50,FE,
3017807,00000419,false,Rx,0,6,5E,22,32,E6,40,00,00,00,
3019557,00000155,false,Rx,0,8,48,87,C5,54,96,98,02,C3,
3020366,000001C7,false,Rx,0,4,AA,A0,FF,C0,00,00,00,00,
3021257,00000157,false,Rx,0,8,D5,0B,09,C4,FF,E0,00,80,
3021261,00000436,false,Rx,0,6,86,16,64,3B,FF,DC,00,00,
3022661,000001A1,false,Rx,0,8,B0,C5,5C,11,A5,8C,80,20,
3027673,0000019F,false,Rx,0,8,E1,E1,7D,0F,00,6A,50,FE,
3029547,00000155,false,Rx,0,8,48,87,C5,54,96,98,02,C3,
3030468,000001C7,false,Rx,0,4,AA,A0,FF,C0,00,00,00,00,
3031204,00000157,false,Rx,0,8,D5,5B,09,C4,FF,E0,00,80,
3032654,000001A1,false,Rx,0,8,B1,05,5C,11,A5,8C,80,20,
3037670,0000019F,false,Rx,0,8,E1,E1,7D,04,00,6A,50,FE,
3039606,00000155,false,Rx,0,8,48,87,C7,54,96,98,02,C3,
3040478,000001C7,false,Rx,0,4,AA,A0,FF,C0,00,00,00,00,
3041082,00000157,false,Rx,0,8,D5,AB,09,C4,FF,E0,00,80,
3042597,000001A1,false,Rx,0,8,B1,05,5C,11,A5,8C,80,20,
3047703,0000019F,false,Rx,0,8,E1,E1,7D,09,00,6A,50,FE,
3049473,00000155,false,Rx,0,8,48,87,C6,54,96,98,02,C3,
3050332,000001C7,false,Rx,0,4,AA,A0,FF,C0,00,00,00,00,
3051120,00000157,false,Rx,0,8,D5,FB,09,C4,FF,E0,00,80,
3052716,000001A1,false,Rx,0,8,B0,C5,5C,11,A5,8C,80,20,
3057680,0000019F,false,Rx,0,8,E1,E1,7D,0E,00,6A,50,FE,
3059611,00000155,false,Rx,0,8,48,87,C5,54,96,98,02,C3,
3060379,000001C7,false,Rx,0,4,AA,A0,FF,C0,00,00,00,00,
3061257,00000157,false,Rx,0,8,D5,4B,09,C4,FF,E0,00,80,
3062642,000001A1,false,Rx,0,8,B1,05,5C,11,A5,8C,80,20,
3067729,0000019F,false,Rx,0,8,E1,E1,7D,03,00,6A,50,FE,
3067772,00000511,false,Rx,0,7,00,7E,0D,79,AF,7F,B1,00,
3069641,00000155,false,Rx,0,8,48,87,C4,54,96,98,02,C3,
3070487,000001C7,false,Rx,0,4,AA,A0,FF,C0,00,00,00,00,
3071199,00000157,false,Rx,0,8,D5,9B,09,C4,FF,E0,00,80,
3072586,000001A1,false,Rx,0,8,B1,05,5C,11,A5,8C,80,20,
3077667,0000019F,false,Rx,0,8,E1,E1,7D,08,00,6A,50,FE,
3079590,00000155,false,Rx,0,8,48,87,C4,54,96,98,02,C3,
3080273,000001C7,false,Rx,0,4,AA,A0,FF,C0,00,00,00,00,
3081066,00000157,false,Rx,0,8,D5,EB,09,C4,FF,E0,00,80,
3082666,000001A1,false,Rx,0,8,B0,C5,5C,11,A5,8C,80,20,
3087699,0000019F,false,Rx,0,8,E1,E1,7D,0D,00,6A,50,FE,
3089294,00000155,false,Rx,0,8,48,87,C5,54,96,98,02,C3,
3090515,000001C7,false,Rx,0,4,AA,A0,FF,C0,00,00,00,00,
3091061,00000157,false,Rx,0,8,D5,3B,09,C4,FF,E0,00,80,
3092596,000001A1,false,Rx,0,8,B1,05,5C,11,A5,8C,80,20,
3096093,00000423,false,Rx,0,8,0B,1D,00,02,B2,80,5D,D8,
3096293,00000445,false,Rx,0,7,80,55,55,65,04,82,00,00,
3097597,0000019F,false,Rx,0,8,E1,E1,7D,02,00,6A,50,FE,
3099544,00000155,false,Rx,0,8,48,87,C6,54,96,98,02,C3,
3099553,00000424,false,Rx,0,8,11,40,56,C8,33,5E,AA,34,
3099800,00000425,false,Rx,0,8,2A,BA,44,9C,42,18,CD,0B,
3100490,000004F7,false,Rx,0,8,00,1A,08,00,90,30,06,F0,
3100508,000001C7,false,Rx,0,4,AA,A0,FF,C0,00,00,00,00,
3100881,00000428,false,Rx,0,8,00,00,00,7F,00,00,00,00,
3101079,00000157,false,Rx,0,8,D5,8B,09,C4,FF,E0,00,80,
3101244,0000042F,false,Rx,0,2,00,20,00,00,00,00,00,00,
3101454,00000426,false,Rx,0,8,00,60,01,00,53,18,00,40,
3102508,000001A1,false,Rx,0,8,B1,05,5C,11,A5,8C,80,20,
3107691,0000019F,false,Rx,0,8,E1,E1,7D,07,00,6A,50,FE,
3109569,00000155,false,Rx,0,8,48,87,C6,54,96,98,02,C3,
3110515,000001C7,false,Rx,0,4,AA,A0,FF,C0,00,00,00,00,
3110966,00000157,false,Rx,0,8,D5,DB,09,C4,FF,E0,00,80,
3112726,000001A1,false,Rx,0,8,B1,05,5C,11,A5,8C,80,20,
3115556,00000500,false,Rx,0,5,02,B4,C8,F4,56,00,00,00,
3115950,00000435,false,Rx,0,8,FF,FF,1E,0B,2E,10,00,00,
3117689,0000019F,false,Rx,0,8,E1,E1,7D,0C,00,6A,50,FE,
3117856,00000419,false,Rx,0,6,5E,22,32,E6,40,00,00,00,
3119564,00000155,false,Rx,0,8,48,87,C6,54,96,98,02,C3,
3120422,000001C7,false,Rx,0,4,AA,A0,FF,C0,00,00,00,00,
3121059,00000157,false,Rx,0,8,D5,2B,09,C4,FF,E0,00,80,
3121077,00000436,false,Rx,0,6,86,16,64,3B,FF,DC,00,00,
3122703,000001A1,false,Rx,0,8,B0,C5,5C,11,A5,8C,80,20,
3127700,0000019F,false,Rx,0,8,E1,E1,7D,01,00,6A,50,FE,
3129564,00000155,false,Rx,0,8,48,87,C5,54,96,98,02,C3,
3130549,000001C7,false,Rx,0,4,AA,A0,FF,C0,00,00,00,00,
3131016,00000157,false,Rx,0,8,D5,7B,09,C4,FF,E0,00,80,
3132735,000001A1,false,Rx,0,8,B1,05,5C,11,A5,8C,80,20,
3137595,0000019F,false,Rx,0,8,E1,E1,7D,06,00,6A,50,FE,
3139624,00000155,false,Rx,0,8,48,87,C5,54,96,98,02,C3,
3140444,000001C7,false,Rx,0,4,AA,A0,FF,C0,00,00,00,00,
3141097,00000157,false,Rx,0,8,D5,CB,09,C4,FF,E0,00,80,
3142695,000001A1,false,Rx,0,8,B1,05,5C,11,A5,8C,80,20,
3147554,0000019F,false,Rx,0,8,E1,E1,7D,0B,00,6A,50,FE,
3149377,00000155,false,Rx,0,8,48,87,C4,54,96,98,02,C3,
3150290,000001C7,false,Rx,0,4,AA,A0,FF,C0,00,00,00,00,
3150975,00000157,false,Rx,0,8,D5,1B,09,C4,FF,E0,00,80,
3152553,000001A1,false,Rx,0,8,B1,05,5C,11,A5,8C,80,20,
3157546,0000019F,false,Rx,0,8,E1,E1,7D,00,00,6A,50,FE,
3159372,00000155,false,Rx,0,8,48,87,C5,54,96,98,02,C3,
3160320,000001C7,false,Rx,0,4,AA,A0,FF,C0,00,00,00,00,
3160971,00000157,false,Rx,0,8,D5,6B,09,C4,FF,E0,00,80,
3162545,000001A1,false,Rx,0,8,B1,05,5C,11,A5,8C,80,20,
3167501,0000019F,false,Rx,0,8,E1,E1,7D,05,00,6A,50,FE,
3167812,00000511,false,Rx,0,7,00,BD,D6,32,1A,8C,94,00,
3169410,00000155,false,Rx,0,8,48,87,C5,54,96,98,02,C3,
3170311,000001C7,false,Rx,0,4,AA,A0,FF,C0,00,00,00,00,
3170962,00000157,false,Rx,0,8,D5,BB,09,C4,FF,E0,00,80,
3172497,000001A1,false,Rx,0,8,B0,C5,5C,11,A5,8C,80,20,
3177537,0000019F,false,Rx,0,8,E1,E1,7D,0A,00,6A,50,FE,
3179386,00000155,false,Rx,0,8,48,87,C6,54,96,98,02,C3,
3180335,000001C7,false,Rx,0,4,AA,A0,FF,C0,00,00,00,00,
3181010,00000157,false,Rx,0,8,D5,0B,09,C4,FF,E0,00,80,
3182540,000001A1,false,Rx,0,8,B1,05,5C,11,A5,8C,80,20,
3187536,0000019F,false,Rx,0,8,E1,E1,7D,0F,00,6A,50,FE,
3189310,00000155,false,Rx,0,8,48,87,C6,54,96,98,02,C3,
3190335,000001C7,false,Rx,0,4,AA,A0,FF,C0,00,00,00,00,
3190987,00000157,false,Rx,0,8,D5,5B,09,C4,FF,E0,00,80,
3192502,000001A1,false,Rx,0,8,B0,C5,5C,11,A5,8C,80,20,
3195860,00000423,false,Rx,0,8,0B,1D,00,02,B2,80,5D,D8,
3196285,00000445,false,Rx,0,7,80,55,55,65,04,82,00,00,
3197504,0000019F,false,Rx,0,8,E1,E1,7D,04,00,6A,50,FE,
3199275,00000155,false,Rx,0,8,48,87,C5,54,96,98,02,C3,
3199501,00000424,false,Rx,0,8,11,40,56,C8,33,5E,AA,34,
3199719,00000425,false,Rx,0,8,2A,BA,44,9C,42,18,CD,0B,
3200374,000004F7,false,Rx,0,8,00,1A,08,00,90,30,06,F0,
3200585,000001C7,false,Rx,0,4,AA,A0,FF,C0,00,00,00,00,
3200859,00000428,false,Rx,0,8,00,00,00,7F,00,00,00,00,
3201088,00000157,false,Rx,0,8,D5,AB,09,C4,FF,E0,00,80,
3201208,0000042F,false,Rx,0,2,00,20,00,00,00,00,00,00,
3201461,00000426,false,Rx,0,8,00,60,01,00,53,18,00,40,
3202492,000001A1,false,Rx,0,8,B0,C5,5C,11,A5,8C,80,20,
3207499,0000019F,false,Rx,0,8,E1,E1,7D,09,00,6A,50,FE,
3209321,00000155,false,Rx,0,8,48,87,C5,54,96,98,02,C3,
3210338,000001C7,false,Rx,0,4,AA,A0,FF,C0,00,00,00,00,
3210912,00000157,false,Rx,0,8,D5,FB,09,C4,FF,E0,00,80,
3212537,000001A1,false,Rx,0,8,B1,05,5C,11,A5,8C,80,20,
3215537,00000500,false,Rx,0,5,02,53,19,77,F1,00,00,00,
3215885,00000435,false,Rx,0,8,FF,FF,1E,0B,2E,10,00,00,
3217536,0000019F,false,Rx,0,8,E1,E1,7D,0E,00,6A,50,FE,
3217791,00000419,false,Rx,0,6,5E,22,32,E6,40,00,00,00,
3219344,00000155,false,Rx,0,8,48,87,C4,54,96,98,02,C3,
3220299,000001C7,false,Rx,0,4,AA,A0,FF,C0,00,00,00,00,
3220917,00000157,false,Rx,0,8,D5,4B,09,C4,FF,E0,00,80,
3221119,00000436,false,Rx,0,6,86,16,64,3B,FF,DC,00,00,
3222537,000001A1,false,Rx,0,8,B1,05,5C,11,A5,8C,80,20,
3227539,0000019F,false,Rx,0,8,E1,E1,7D,03,00,6A,50,FE,
3229297,00000155,false,Rx,0,8,48,87,C5,54,96,98,02,C3,
3230364,000001C7,false,Rx,0,4,AA,A0,FF,C0,00,00,00,00,
3231011,00000157,false,Rx,0,8,D5,9B,09,C4,FF,E0,00,80,
3232538,000001A1,false,Rx,0,8,B0,C5,5C,11,A5,8C,80,20,
3237538,0000019F,false,Rx,0,8,E1,E1,7D,08,00,6A,50,FE,
3239652,00000155,false,Rx,0,8,48,87,C5,54,96,98,02,C3,
3240362,000001C7,false,Rx,0,4,AA,A0,FF,C0,00,00,00,00,
3240988,00000157,false,Rx,0,8,D5,EB,09,C4,FF,E0,00,80,
3242536,000001A1,false,Rx,0,8,B1,05,5C,11,A5,8C,80,20,
3247536,0000019F,false,Rx,0,8,E1,E1,7D,0D,00,6A,50,FE,
3249358,00000155,false,Rx,0,8,48,87,C6,54,96,98,02,C3,
3250329,000001C7,false,Rx,0,4,AA,A0,FF,C0,00,00,00,00,
3250971,00000157,false,Rx,0,8,D5,3B,09,C4,FF,E0,00,80,
3252506,000001A1,false,Rx,0,8,B1,05,5C,11,A5,8C,80,20,
3257532,0000019F,false,Rx,0,8,E1,E1,7D,02,00,6A,50,FE,
3259358,00000155,false,Rx,0,8,48,87,C6,54,96,98,02,C3,
3260328,000001C7,false,Rx,0,4,AA,A0,FF,C0,00,00,00,00,
3260901,00000157,false,Rx,0,8,D5,8B,09,C4,FF,E0,00,80,
3262503,000001A1,false,Rx,0,8,B0,C5,5C,11,A5,8C,80,20,
3267510,0000019F,false,Rx,0,8,E1,E1,7D,07,00,6A,50,FE,
3267803,00000511,false,Rx,0,7,00,FC,9F,EB,85,99,77,00,
3269378,00000155,false,Rx,0,8,48,87,C5,54,96,98,02,C3,
3270327,000001C7,false,Rx,0,4,AA,A0,FF,C0,00,00,00,00,
3270925,00000157,false,Rx,0,8,D5,DB,09,C4,FF,E0,00,80,
3272500,000001A1,false,Rx,0,8,B1,05,5C,11,A5,8C,80,20,
3277522,0000019F,false,Rx,0,8,E1,E1,7D,0C,00,6A,50,FE,
3279306,00000155,false,Rx,0,8,48,87,C5,54,96,98,02,C3,
3280469,000001C7,false,Rx,0,4,AA,A0,FF,C0,00,00,00,00,
3280993,00000157,false,Rx,0,8,D5,2B,09,C4,FF,E0,00,80,
3282571,000001A1,false,Rx,0,8,B1,05,5C,11,A5,8C,80,20,
3287537,0000019F,false,Rx,0,8,E1,E1,7D,01,00,6A,50,FE,
3289338,00000155,false,Rx,0,8,48,87,C4,54,96,98,02,C3,
3290578,000001C7,false,Rx,0,4,AA,A0,FF,C0,00,00,00,00,
3290989,00000157,false,Rx,0,8,D5,7B,09,C4,FF,E0,00,80,
3292508,000001A1,false,Rx,0,8,B0,C5,5C,11,A5,8C,80,20,
3295911,00000423,false,Rx,0,8,0B,1D,00,02,B2,80,5D,D8,
3296262,00000445,false,Rx,0,7,80,55,55,65,04,82,00,00,
3297560,0000019F,false,Rx,0,8,E1,E1,7D,06,00,6A,50,FE,
3299500,00000155,false,Rx,0,8,48,87,C4,54,96,98,02,C3,
3299508,00000424,false,Rx,0,8,11,40,56,C8,33,5E,AA,34,
3299785,00000425,false,Rx,0,8,2A,BA,44,9C,42,18,CD,0B,
3300438,000004F7,false,Rx,0,8,00,1A,08,00,90,30,06,F0,
3300655,000001C7,false,Rx,0,4,AA,A0,FF,C0,00,00,00,00,
3301080,00000428,false,Rx,0,8,00,00,00,7F,00,00,00,00,
3301144,00000157,false,Rx,0,8,D5,CB,09,C4,FF,E0,00,80,
3301593,00000426,false,Rx,0,8,00,60,01,00,53,18,00,40,
3301600,0000042F,false,Rx,0,2,00,20,00,00,00,00,00,00,
3302671,000001A1,false,Rx,0,8,B0,C5,5C,11,A5,8C,80,20,
3307550,0000019F,false,Rx,0,8,E1,E1,7D,0B,00,6A,50,FE,
3309286,00000155,false,Rx,0,8,48,87,C5,54,96,98,02,C3,
3310528,000001C7,false,Rx,0,4,AA,A0,FF,C0,00,00,00,00,
3311101,00000157,false,Rx,0,8,D5,1B,09,C4,FF,E0,00,80,
3312667,000001A1,false,Rx,0,8,B1,45,5C,11,A5,8C,80,20,
3315998,00000500,false,Rx,0,5,02,BC,EA,31,6F,00,00,00,
3316006,00000435,false,Rx,0,8,FF,FF,1E,0B,2E,10,00,00,
3317601,0000019F,false,Rx,0,8,E1,E1,7D,00,00,6A,50,FE,
3317792,00000419,false,Rx,0,6,5E,22,32,E6,40,00,00,00,
3319530,00000155,false,Rx,0,8,48,87,C5,54,96,98,02,C3,
3320594,000001C7,false,Rx,0,4,AA,A0,FF,C0,00,00,00,00,
3321048,00000157,false,Rx,0,8,D5,6B,09,C4,FF,E0,00,80,
3321126,00000436,false,Rx,0,6,86,16,64,3B,FF,DC,00,00,
3322676,000001A1,false,Rx,0,8,B1,05,5C,11,A5,8C,80,20,
3327505,0000019F,false,Rx,0,8,E1,E1,7D,05,00,6A,50,FE,
3329404,00000155,false,Rx,0,8,48,87,C6,54,96,98,02,C3,
3330499,000001C7,false,Rx,0,4,AA,A0,FF,C0,00,00,00,00,
3330910,00000157,false,Rx,0,8,D5,BB,09,C4,FF,E0,00,80,
3332695,000001A1,false,Rx,0,8,B0,C5,5C,11,A5,8C,80,20,
3337674,0000019F,false,Rx,0,8,E1,E1,7D,0A,00,6A,50,FE,
3339561,00000155,false,Rx,0,8,48,87,C6,54,96,98,02,C3,
3340482,000001C7,false,Rx,0,4,AA,A0,FF,C0,00,00,00,00,
3341112,00000157,false,Rx,0,8,D5,0B,09,C4,FF,E0,00,80,
3342676,000001A1,false,Rx,0,8,B1,05,5C,11,A5,8C,80,20,
3347507,0000019F,false,Rx,0,8,E1,E1,7D,0F,00,6A,50,FE,
3349568,00000155,false,Rx,0,8,48,87,C5,54,96,98,02,C3,
3350452,000001C7,false,Rx,0,4,AA,A0,FF,C0,00,00,00,00,
3351165,00000157,false,Rx,0,8,D5,5B,09,C4,FF,E0,00,80,
3352594,000001A1,false,Rx,0,8,B1,05,5C,11,A5,8C,80,20,
3357684,0000019F,false,Rx,0,8,E1,E1,7D,04,00,6A,50,FE,
3359528,00000155,false,Rx,0,8,48,87,C4,54,96,98,02,C3,
3360640,000001C7,false,Rx,0,4,AA,A0,FF,C0,00,00,00,00,
3360963,00000157,false,Rx,0,8,D5,AB,09,C4,FF,E0,00,80,
3362682,000001A1,false,Rx,0,8,B1,05,5C,11,A5,8C,80,20,
3367682,0000019F,false,Rx,0,8,E1,E1,7D,09,00,6A,50,FE,
3367847,00000511,false,Rx,0,7,00,3B,68,A4,F0,A6,5A,00,
3369466,00000155,false,Rx,0,8,48,87,C4,54,96,98,02,C3,
3370610,000001C7,false,Rx,0,4,AA,A0,FF,C0,00,00,00,00,
3370917,00000157,false,Rx,0,8,D5,FB,09,C4,FF,E0,00,80,
3372692,000001A1,false,Rx,0,8,B0,C5,5C,11,A5,8C,80,20,
3377680,0000019F,false,Rx,0,8,E1,E1,7D,0E,00,6A,50,FE,
3379568,00000155,false,Rx,0,8,48,87,C5,54,96,98,02,C3,
3380622,000001C7,false,Rx,0,4,AA,A0,FF,C0,00,00,00,00,
3380996,00000157,false,Rx,0,8,D5,4B,09,C4,FF,E0,00,80,
3382700,000001A1,false,Rx,0,8,B0,C5,5C,11,A5,8C,80,20,
3387578,0000019F,false,Rx,0,8,E1,E1,7D,03,00,6A,50,FE,
3389285,00000155,false,Rx,0,8,48,87,C5,54,96,98,02,C3,
3390618,000001C7,false,Rx,0,4,AA,A0,FF,C0,00,00,00,00,
3390968,00000157,false,Rx,0,8,D5,9B,09,C4,FF,E0,00,80,
3392585,000001A1,false,Rx,0,8,B1,05,5C,11,A5,8C,80,20,
3395849,00000423,false,Rx,0,8,0B,1D,00,02,B2,80,5D,D8,
3396292,00000445,false,Rx,0,7,80,55,55,65,04,82,00,00,
3397543,0000019F,false,Rx,0,8,E1,E1,7D,08,00,6A,50,FE,
3399318,00000155,false,Rx,0,8,48,87,C6,54,96,98,02,C3,
3399544,00000424,false,Rx,0,8,11,40,56,C8,33,5E,AA,34,
3399767,00000425,false,Rx,0,8,2A,BA,44,9C,42,18,CD,0B,
3400517,000004F7,false,Rx,0,8,00,1A,08,00,90,30,06,F0,
3400649,000001C7,false,Rx,0,4,AA,A0,FF,C0,00,00,00,00,
3400940,00000428,false,Rx,0,8,00,00,00,7F,00,00,00,00,
3401171,00000157,false,Rx,0,8,D5,EB,09,C4,FF,E0,00,80,
3401316,0000042F,false,Rx,0,2,00,20,00,00,00,00,00,00,
3401565,00000426,false,Rx,0,8,00,60,01,00,53,18,00,40,
3402540,000001A1,false,Rx,0,8,B1,05,5C,11,A5,8C,80,20,
3407539,0000019F,false,Rx,0,8,E1,E1,7D,0D,00,6A,50,FE,
3409281,00000155,false,Rx,0,8,48,87,C6,54,96,98,02,C3,
3410463,000001C7,false,Rx,0,4,AA,A0,FF,C0,00,00,00,00,
3411015,00000157,false,Rx,0,8,D5,3B,09,C4,FF,E0,00,80,
3412538,000001A1,false,Rx,0,8,B0,C5,5C,11,A5,8C,80,20,
3415631,00000500,false,Rx,0,5,02,1A,55,C3,DF,00,00,00,
3415904,00000435,false,Rx,0,8,FF,FF,1E,0B,2E,10,00,00,
3417538,0000019F,false,Rx,0,8,E1,E1,7D,02,00,6A,50,FE,
3417816,00000419,false,Rx,0,6,5E,22,32,E6,40,00,00,00,
3419337,00000155,false,Rx,0,8,48,87,C5,54,96,98,02,C3,
3420463,000001C7,false,Rx,0,4,AA,A0,FF,C0,00,00,00,00,
3420938,00000157,false,Rx,0,8,D5,8B,09,C4,FF,E0,00,80,
3421138,00000436,false,Rx,0,6,86,16,64,3B,FF,DC,00,00,
3422542,000001A1,false,Rx,0,8,B1,05,5C,11,A5,8C,80,20,
3427538,0000019F,false,Rx,0,8,E1,E1,7D,07,00,6A,50,FE,
3429312,00000155,false,Rx,0,8,48,87,C5,54,96,98,02,C3,
3430464,000001C7,false,Rx,0,4,AA,A0,FF,C0,00,00,00,00,
3430990,00000157,false,Rx,0,8,D5,DB,09,C4,FF,E0,00,80,
3432538,000001A1,false,Rx,0,8,B1,05,5C,11,A5,8C,80,20,
3437539,0000019F,false,Rx,0,8,E1,E1,7D,0C,00,6A,50,FE,
3439390,00000155,false,Rx,0,8,48,87,C4,54,96,98,02,C3,
3440464,000001C7,false,Rx,0,4,AA,A0,FF,C0,00,00,00,00,
3440962,00000157,false,Rx,0,8,D5,2B,09,C4,FF,E0,00,80,
3442538,000001A1,false,Rx,0,8,B0,C5,5C,11,A5,8C,80,20,
3447540,0000019F,false,Rx,0,8,E1,E1,7D,01,00,6A,50,FE,
3449356,00000155,false,Rx,0,8,48,87,C5,54,96,98,02,C3,
3450453,000001C7,false,Rx,0,4,AA,A0,FF,C0,00,00,00,00,
3450925,00000157,false,Rx,0,8,D5,7B,09,C4,FF,E0,00,80,
3452505,000001A1,false,Rx,0,8,B1,05,5C,11,A5,8C,80,20,
3457540,0000019F,false,Rx,0,8,E1,E1,7D,06,00,6A,50,FE,
3459372,00000155,false,Rx,0,8,48,87,C5,54,96,98,02,C3,
3460496,000001C7,false,Rx,0,4,AA,A0,FF,C0,00,00,00,00,
3460989,00000157,false,Rx,0,8,D5,CB,09,C4,FF,E0,00,80,
3462540,000001A1,false,Rx,0,8,B1,05,5C,11,A5,8C,80,20,
3467553,0000019F,false,Rx,0,8,E1,E1,7D,0B,00,6A,50,FE,
3467823,00000511,false,Rx,0,7,00,7A,31,5D,5B,B3,3D,00,
3469374,00000155,false,Rx,0,8,48,87,C5,54,96,98,02,C3,
3470499,000001C7,false,Rx,0,4,AA,A0,FF,C0,00,00,00,00,
3470926,00000157,false,Rx,0,8,D5,1B,09,C4,FF,E0,00,80,
3472554,000001A1,false,Rx,0,8,B0,C5,5C,11,A5,8C,80,20,
3477515,0000019F,false,Rx,0,8,E1,E1,7D,00,00,6A,50,FE,
3479349,00000155,false,Rx,0,8,48,87,C6,54,96,98,02,C3,
3480500,000001C7,false,Rx,0,4,AA,A0,FF,C0,00,00,00,00,
3480982,00000157,false,Rx,0,8,D5,6B,09,C4,FF,E0,00,80,
3482548,000001A1,false,Rx,0,8,B1,05,5C,11,A5,8C,80,20,
3487560,0000019F,false,Rx,0,8,E1,E1,7D,05,00,6A,50,FE,
3489326,00000155,false,Rx,0,8,48,87,C6,54,96,98,02,C3,
3490499,000001C7,false,Rx,0,4,AA,A0,FF,C0,00,00,00,00,
3490952,00000157,false,Rx,0,8,D5,BB,09,C4,FF,E0,00,80,
3492548,000001A1,false,Rx,0,8,B1,05,5C,11,A5,8C,80,20,
3495924,00000423,false,Rx,0,8,0B,1D,00,02,5D,80,B2,D8,
3496228,00000445,false,Rx,0,7,80,55,55,65,04,82,00,00,
3497551,0000019F,false,Rx,0,8,E1,E1,7D,0A,00,6A,50,FE,
3499324,00000155,false,Rx,0,8,48,87,C5,54,96,98,02,C3,
3499554,00000424,false,Rx,0,8,11,40,56,C8,33,5E,55,34,
3499775,00000425,false,Rx,0,8,2A,BA,44,9C,42,18,CD,0B,
3500580,000004F7,false,Rx,0,8,00,1A,08,00,90,30,06,F0,
3500751,000001C7,false,Rx,0,4,AA,A0,FF,C0,00,00,00,00,
3501006,00000428,false,Rx,0,8,00,00,00,7F,00,00,00,00,
3501232,00000157,false,Rx,0,8,D5,0B,09,C4,FF,E0,00,80,
3501485,00000426,false,Rx,0,8,00,60,01,00,53,18,00,40,
3501646,0000042F,false,Rx,0,2,00,20,00,00,00,00,00,00,
3502548,000001A1,false,Rx,0,8,B0,C5,5C,11,A5,8C,80,20,
3507549,0000019F,false,Rx,0,8,E1,E1,7D,0F,00,6A,50,FE,
3509326,00000155,false,Rx,0,8,48,87,C4,54,96,98,02,C3,
3510526,000001C7,false,Rx,0,4,AA,A0,FF,C0,00,00,00,00,
3510948,00000157,false,Rx,0,8,D5,5B,09,C4,FF,E0,00,80,
3512509,000001A1,false,Rx,0,8,B0,C5,5C,11,A5,8C,80,20,
3515643,00000500,false,Rx,0,5,02,F0,F8,AF,90,00,00,00,
3515851,00000435,false,Rx,0,8,FF,FF,1E,0B,2E,10,00,00,
3517503,0000019F,false,Rx,0,8,E1,E1,7D,04,00,6A,50,FE,
3517776,00000419,false,Rx,0,6,5E,22,32,E6,40,00,00,00,
3519277,00000155,false,Rx,0,8,48,87,C4,54,96,98,02,C3,
3520524,000001C7,false,Rx,0,4,AA,A0,FF,C0,00,00,00,00,
3520921,00000157,false,Rx,0,8,D5,AB,09,C4,FF,E0,00,80,
3521145,00000436,false,Rx,0,6,86,16,64,3B,FF,DC,00,00,
3522515,000001A1,false,Rx,0,8,B1,05,5C,11,A5,8C,80,20,
3527582,0000019F,false,Rx,0,8,E1,E1,7D,09,00,6A,50,FE,
3529540,00000155,false,Rx,0,8,48,87,C5,54,96,98,02,C3,
3530668,000001C7,false,Rx,0,4,AA,A0,FF,C0,00,00,00,00,
3531016,00000157,false,Rx,0,8,D5,FB,09,C4,FF,E0,00,80,
3532578,000001A1,false,Rx,0,8,B0,C5,5C,11,A5,8C,80,20,
3535646,0000069F,false,Rx,0,4,71,30,28,2F,00,00,00,00,
3537563,0000019F,false,Rx,0,8,E1,E1,7D,0E,00,6A,50,FE,
3539531,00000155,false,Rx,0,8,48,87,C5,54,96,98,02,C3,
3540577,000001C7,false,Rx,0,4,AA,A0,FF,C0,00,00,00,00,
3540968,00000157,false,Rx,0,8,D5,4B,09,C4,FF,E0,00,80,
3542583,000001A1,false,Rx,0,8,B1,05,5C,11,A5,8C,80,20,
3547703,0000019F,false,Rx,0,8,E1,E1,7D,03,00,6A,50,FE,
3549357,00000155,false,Rx,0,8,48,87,C6,54,96,98,02,C3,
3550701,000001C7,false,Rx,0,4,AA,A0,FF,C0,00,00,00,00,
3551012,00000157,false,Rx,0,8,D5,9B,09,C4,FF,E0,00,80,
3552574,000001A1,false,Rx,0,8,B1,05,5C,11,A5,8C,80,20,
3557568,0000019F,false,Rx,0,8,E1,E1,7D,08,00,6A,50,FE,
3559573,00000155,false,Rx,0,8,48,87,C6,54,96,98,02,C3,
3560671,000001C7,false,Rx,0,4,AA,A0,FF,C0,00,00,00,00,
