Time Stamp,ID,Extended,Dir,Bus,LEN,D1,D2,D3,D4,D5,D6,D7,D8
2261205,000001A1,false,Rx,0,8,B0,85,48,13,15,8C,80,20,
2262350,000001C7,false,Rx,0,4,AA,A0,FF,C0,00,00,00,00,
2264478,00000423,false,Rx,0,8,0B,1D,00,02,5D,80,B2,D8,
2266201,0000019F,false,Rx,0,8,E1,E1,7D,0E,00,6A,50,FE,
2269042,00000155,false,Rx,0,8,49,87,B3,54,96,D8,02,C2,
2269218,00000424,false,Rx,0,8,11,40,56,C8,33,5E,55,34,
2269445,00000425,false,Rx,0,8,2A,BB,44,9C,42,18,CD,0A,
2269669,00000157,false,Rx,0,8,D5,4B,09,C4,FF,E0,00,80,
2269893,00000445,false,Rx,0,7,80,55,AA,65,04,82,00,00,
2270126,00000426,false,Rx,0,8,00,60,01,00,53,18,00,40,
2271198,000001A1,false,Rx,0,8,B0,85,5C,13,15,8C,80,20,
2272348,000001C7,false,Rx,0,4,AA,A0,FF,C0,00,00,00,00,
2276205,0000019F,false,Rx,0,8,E1,E1,7D,03,00,6A,50,FE,
2279023,00000155,false,Rx,0,8,49,87,B2,54,96,D8,02,C2,
2279547,00000157,false,Rx,0,8,D5,9B,09,C4,FF,E0,00,80,
2281199,000001A1,false,Rx,0,8,B1,05,5C,13,15,8C,80,20,
2282350,000001C7,false,Rx,0,4,AA,A0,FF,C0,00,00,00,00,
2284425,00000435,false,Rx,0,8,FF,FF,1E,0B,2E,30,00,00,
2286199,0000019F,false,Rx,0,8,E1,E1,7D,08,00,6A,50,FE,
2286446,00000419,false,Rx,0,6,5E,74,4A,E6,3E,00,00,00,
2288977,00000155,false,Rx,0,8,49,87,B2,54,96,D8,02,C2,
2289522,00000157,false,Rx,0,8,D5,EB,09,C4,FF,E0,00,80,
2289719,00000436,false,Rx,0,6,86,16,64,3A,FF,DC,00,00,
2291197,000001A1,false,Rx,0,8,B0,C5,5C,13,15,8C,80,20,
2292371,000001C7,false,Rx,0,4,AA,A0,FF,C0,00,00,00,00,
2296205,0000019F,false,Rx,0,8,E1,E1,7D,0D,00,6A,50,FE,
2299002,00000155,false,Rx,0,8,49,87,B3,54,96,D8,02,C2,
2299549,00000157,false,Rx,0,8,D5,3B,09,C4,FF,E0,00,80,
2301197,000001A1,false,Rx,0,8,B0,85,5C,13,15,8C,80,20,
2302375,000001C7,false,Rx,0,4,AA,A0,FF,C0,00,00,00,00,
2306202,0000019F,false,Rx,0,8,E1,E1,7D,02,00,6A,50,FE,
2309105,00000155,false,Rx,0,8,49,87,B2,54,96,D8,02,C2,
2309524,00000157,false,Rx,0,8,D5,8B,09,C4,FF,E0,00,80,
2311197,000001A1,false,Rx,0,8,B0,C5,48,13,15,8C,80,20,
2312385,000001C7,false,Rx,0,4,AA,A0,FF,C0,00,00,00,00,
2316202,0000019F,false,Rx,0,8,E1,E1,7D,07,00,6A,50,FE,
2319032,00000155,false,Rx,0,8,49,87,B2,54,96,D8,02,C2,
2319573,00000157,false,Rx,0,8,D5,DB,09,C4,FF,E0,00,80,
2321201,000001A1,false,Rx,0,8,B0,C5,48,13,15,8C,80,20,
2322450,000004F7,false,Rx,0,8,00,1A,08,00,90,30,06,F0,
2322623,000001C7,false,Rx,0,4,AA,A0,FF,C0,00,00,00,00,
2322866,00000428,false,Rx,0,8,00,00,00,7F,00,00,00,00,
2323035,0000042F,false,Rx,0,2,00,20,00,00,00,00,00,00,
2326203,0000019F,false,Rx,0,8,E1,E1,7D,0C,00,6A,50,FE,
2329028,00000155,false,Rx,0,8,49,87,B3,54,96,D8,02,C2,
2329521,00000157,false,Rx,0,8,D5,2B,09,C4,FF,E0,00,80,
2331199,000001A1,false,Rx,0,8,B0,85,48,13,15,8C,80,20,
2332398,000001C7,false,Rx,0,4,AA,A0,FF,C0,00,00,00,00,
2336203,0000019F,false,Rx,0,8,E1,E1,7D,01,00,6A,50,FE,
2336469,00000511,false,Rx,0,7,00,87,BC,B8,2C,CA,F6,00,
2339050,00000155,false,Rx,0,8,49,87,B2,54,96,D8,02,C2,
2339551,00000157,false,Rx,0,8,D5,7B,09,C4,FF,E0,00,80,
2341196,000001A1,false,Rx,0,8,B0,C5,48,13,15,8C,80,20,
2342399,000001C7,false,Rx,0,4,AA,A0,FF,C0,00,00,00,00,
2346208,0000019F,false,Rx,0,8,E1,E1,7D,06,00,6A,50,FE,
2349050,00000155,false,Rx,0,8,49,87,B3,54,96,D8,02,C2,
2349493,00000157,false,Rx,0,8,D5,CB,09,C4,FF,E0,00,80,
2351197,000001A1,false,Rx,0,8,B0,C5,5C,13,15,8C,80,20,
2352394,000001C7,false,Rx,0,4,AA,A0,FF,C0,00,00,00,00,
2352860,00000500,false,Rx,0,5,02,05,BE,14,EF,00,00,00,
2356196,0000019F,false,Rx,0,8,E1,E1,7D,0B,00,6A,50,FE,
2358970,00000155,false,Rx,0,8,49,87,B2,54,96,D8,02,C2,
2359567,00000157,false,Rx,0,8,D5,1B,09,C4,FF,E0,00,80,
2361192,000001A1,false,Rx,0,8,B0,85,48,13,15,8C,80,20,
2362418,000001C7,false,Rx,0,4,AA,A0,FF,C0,00,00,00,00,
2364475,00000423,false,Rx,0,8,0B,1D,00,02,B2,80,5D,D7,
2366194,0000019F,false,Rx,0,8,E1,E1,7D,00,00,6A,50,FE,
2368971,00000155,false,Rx,0,8,49,87,B2,54,96,D8,02,C2,
2369191,00000424,false,Rx,0,8,11,40,56,C8,33,5E,AA,34,
2369416,00000425,false,Rx,0,8,2A,BB,44,9C,42,18,CD,0A,
2369667,00000157,false,Rx,0,8,D5,6B,09,C4,FF,E0,00,80,
2369865,00000445,false,Rx,0,7,80,55,55,65,04,82,00,00,
2370115,00000426,false,Rx,0,8,00,60,01,00,53,18,00,40,
2371192,000001A1,false,Rx,0,8,B0,C5,48,13,15,8C,80,20,
2372424,000001C7,false,Rx,0,4,AA,A0,FF,C0,00,00,00,00,
2376203,0000019F,false,Rx,0,8,E1,E1,7D,05,00,6A,50,FE,
2379001,00000155,false,Rx,0,8,49,87,B3,54,96,D8,02,C2,
2379528,00000157,false,Rx,0,8,D5,BB,09,C4,FF,E0,00,80,
2381202,000001A1,false,Rx,0,8,B0,C5,5C,13,15,8C,80,20,
2382425,000001C7,false,Rx,0,4,AA,A0,FF,C0,00,00,00,00,
2384455,00000435,false,Rx,0,8,FF,FF,1E,0B,2E,30,00,00,
2386201,0000019F,false,Rx,0,8,E1,E1,7D,0A,00,6A,50,FE,
2386449,00000419,false,Rx,0,6,5E,74,4A,E6,3E,00,00,00,
2388972,00000155,false,Rx,0,8,49,87,B2,54,96,D8,02,C2,
2389492,00000157,false,Rx,0,8,D5,0B,09,C4,FF,E0,00,80,
2389666,00000436,false,Rx,0,6,86,16,64,3A,FF,DC,00,00,
2391192,000001A1,false,Rx,0,8,B0,C5,48,13,15,8C,80,20,
2392418,000001C7,false,Rx,0,4,AA,A0,FF,C0,00,00,00,00,
2396199,0000019F,false,Rx,0,8,E1,E1,7D,0F,00,6A,50,FE,
2399003,00000155,false,Rx,0,8,49,87,B3,54,96,D8,02,C2,
2399478,00000157,false,Rx,0,8,D5,5B,09,C4,FF,E0,00,80,
2401202,000001A1,false,Rx,0,8,B0,85,5C,13,15,8C,80,20,
2402426,000001C7,false,Rx,0,4,AA,A0,FF,C0,00,00,00,00,
2406197,0000019F,false,Rx,0,8,E1,E1,7D,04,00,6A,50,FE,
2409048,00000155,false,Rx,0,8,49,87,B2,54,96,D8,02,C2,
2409520,00000157,false,Rx,0,8,D5,AB,09,C4,FF,E0,00,80,
2411196,000001A1,false,Rx,0,8,B0,C5,48,13,15,8C,80,20,
2412444,000001C7,false,Rx,0,4,AA,A0,FF,C0,00,00,00,00,
2416203,0000019F,false,Rx,0,8,E1,E1,7D,09,00,6A,50,FE,
2419053,00000155,false,Rx,0,8,49,87,B2,54,96,D8,02,C2,
2419553,00000157,false,Rx,0,8,D5,FB,09,C4,FF,E0,00,80,
2421201,000001A1,false,Rx,0,8,B0,C5,5C,13,15,8C,80,20,
2422526,000004F7,false,Rx,0,8,00,1A,08,00,90,30,06,F0,
2422702,000001C7,false,Rx,0,4,AA,A0,FF,C0,00,00,00,00,
2422951,00000428,false,Rx,0,8,00,00,00,7F,00,00,00,00,
2423105,0000042F,false,Rx,0,2,00,20,00,00,00,00,00,00,
2426203,0000019F,false,Rx,0,8,E1,E1,7D,0E,00,6A,50,FE,
2429052,00000155,false,Rx,0,8,49,87,B3,54,96,D8,02,C2,
2429553,00000157,false,Rx,0,8,D5,4B,09,C4,FF,E0,00,80,
2431176,000001A1,false,Rx,0,8,B0,C5,5C,13,15,8C,80,20,
2432451,000001C7,false,Rx,0,4,AA,A0,FF,C0,00,00,00,00,
2436202,0000019F,false,Rx,0,8,E1,E1,7D,03,00,6A,50,FE,
2436477,00000511,false,Rx,0,7,00,C6,85,71,97,D7,D9,00,
2439053,00000155,false,Rx,0,8,49,87,B2,54,96,D8,02,C2,
2439579,00000157,false,Rx,0,8,D5,9B,09,C4,FF,E0,00,80,
2441201,000001A1,false,Rx,0,8,B0,85,48,13,15,8C,80,20,
2442477,000001C7,false,Rx,0,4,AA,A0,FF,C0,00,00,00,00,
2446202,0000019F,false,Rx,0,8,E1,E1,7D,08,00,6A,50,FE,
2449002,00000155,false,Rx,0,8,49,87,B3,54,96,D8,02,C2,
2449578,00000157,false,Rx,0,8,D5,EB,09,C4,FF,E0,00,80,
2451207,000001A1,false,Rx,0,8,B0,C5,48,13,15,8C,80,20,
2452476,000001C7,false,Rx,0,4,AA,A0,FF,C0,00,00,00,00,
2452654,00000500,false,Rx,0,5,02,F3,AB,DD,A9,00,00,00,
2456234,0000019F,false,Rx,0,8,E1,E1,7D,0D,00,6A,50,FE,
2459010,00000155,false,Rx,0,8,49,87,B3,54,96,D8,02,C2,
2459488,00000157,false,Rx,0,8,D5,3B,09,C4,FF,E0,00,80,
2461233,000001A1,false,Rx,0,8,B0,C5,5C,13,15,8C,80,20,
2462510,000001C7,false,Rx,0,4,AA,A0,FF,C0,00,00,00,00,
2464432,00000423,false,Rx,0,8,0B,1D,00,02,B2,80,5D,D8,
2466233,0000019F,false,Rx,0,8,E1,E1,7D,02,00,6A,50,FE,
2469008,00000155,false,Rx,0,8,49,87,B2,54,96,D8,02,C2,
2469235,00000424,false,Rx,0,8,11,40,56,C8,33,5E,AA,34,
2469464,00000425,false,Rx,0,8,2A,BB,44,9C,42,18,CD,0B,
2469697,00000157,false,Rx,0,8,D5,8B,09,C4,FF,E0,00,80,
2469907,00000445,false,Rx,0,7,80,55,55,65,04,82,00,00,
2470136,00000426,false,Rx,0,8,00,60,01,00,53,18,00,40,
2471231,000001A1,false,Rx,0,8,B0,C5,5C,13,15,8C,80,20,
2472508,000001C7,false,Rx,0,4,AA,A0,FF,C0,00,00,00,00,
2476232,0000019F,false,Rx,0,8,E1,E1,7D,07,00,6A,50,FE,
2479008,00000155,false,Rx,0,8,49,87,B3,54,96,D8,02,C2,
2479560,00000157,false,Rx,0,8,D5,DB,09,C4,FF,E0,00,80,
2481279,000001A1,false,Rx,0,8,B0,85,5C,13,15,8C,80,20,
2482555,000001C7,false,Rx,0,4,AA,A0,FF,C0,00,00,00,00,
2484758,00000435,false,Rx,0,8,FF,FF,1E,0B,2E,30,00,00,
2486371,0000019F,false,Rx,0,8,E1,E1,7D,0C,00,6A,50,FE,
2486445,00000419,false,Rx,0,6,5E,72,4A,E6,3E,00,00,00,
2489234,00000155,false,Rx,0,8,49,87,B2,54,96,D8,02,C2,
2489771,00000157,false,Rx,0,8,D5,2B,09,C4,FF,E0,00,80,
2489777,00000436,false,Rx,0,6,86,16,64,3A,FF,DC,00,00,
2491466,000001A1,false,Rx,0,8,B0,C5,5C,13,15,8C,80,20,
2492769,000001C7,false,Rx,0,4,AA,A0,FF,C0,00,00,00,00,
2496368,0000019F,false,Rx,0,8,E1,E1,7D,01,00,6A,50,FE,
2499062,00000155,false,Rx,0,8,49,87,B2,54,96,D8,02,C2,
2499705,00000157,false,Rx,0,8,D5,7B,09,C4,FF,E0,00,80,
2501268,000001A1,false,Rx,0,8,B0,C5,48,13,15,8C,80,20,
2502659,000001C7,false,Rx,0,4,AA,A0,FF,C0,00,00,00,00,
2506464,0000019F,false,Rx,0,8,E1,E1,7D,06,00,6A,50,FE,
2509366,00000155,false,Rx,0,8,49,87,B3,54,96,D8,02,C2,
2509519,00000157,false,Rx,0,8,D5,CB,09,C4,FF,E0,00,80,
2511367,000001A1,false,Rx,0,8,B0,85,48,13,15,8C,80,20,
2512546,000001C7,false,Rx,0,4,AA,A0,FF,C0,00,00,00,00,
2516252,0000019F,false,Rx,0,8,E1,E1,7D,0B,00,6A,50,FE,
2519046,00000155,false,Rx,0,8,49,87,B3,54,96,D8,02,C2,
2519571,00000157,false,Rx,0,8,D5,1B,09,C4,FF,E0,00,80,
2521242,000001A1,false,Rx,0,8,B0,C5,5C,13,15,8C,80,20,
2522594,000004F7,false,Rx,0,8,00,1A,08,00,90,30,06,F0,
2522712,000001C7,false,Rx,0,4,AA,A0,FF,C0,00,00,00,00,
2523042,00000428,false,Rx,0,8,00,00,00,7F,00,00,00,00,
2523228,0000042F,false,Rx,0,2,00,20,00,00,00,00,00,00,
2526252,0000019F,false,Rx,0,8,E1,E1,7D,00,00,6A,50,FE,
2529042,00000155,false,Rx,0,8,49,87,B3,54,96,D8,02,C2,
2529595,00000157,false,Rx,0,8,D5,6B,09,C4,FF,E0,00,80,
2531252,000001A1,false,Rx,0,8,B0,C5,48,13,15,8C,80,20,
2532521,000001C7,false,Rx,0,4,AA,A0,FF,C0,00,00,00,00,
2536243,0000019F,false,Rx,0,8,E1,E1,7D,05,00,6A,50,FE,
2536522,00000511,false,Rx,0,7,00,05,4E,2A,02,E4,BC,00,
2539095,00000155,false,Rx,0,8,49,87,B3,54,96,D8,02,C2,
2539623,00000157,false,Rx,0,8,D5,BB,09,C4,FF,E0,00,80,
2541242,000001A1,false,Rx,0,8,B0,85,5C,13,15,8C,80,20,
2542494,000001C7,false,Rx,0,4,AA,A0,FF,C0,00,00,00,00,
2546249,0000019F,false,Rx,0,8,E1,E1,7D,0A,00,6A,50,FE,
2549099,00000155,false,Rx,0,8,49,87,B2,54,96,D8,02,C2,
2549577,00000157,false,Rx,0,8,D5,0B,09,C4,FF,E0,00,80,
2551243,000001A1,false,Rx,0,8,B0,85,48,13,15,8C,80,20,
2552518,000001C7,false,Rx,0,4,AA,A0,FF,C0,00,00,00,00,
2552727,00000500,false,Rx,0,5,02,07,16,A4,F9,00,00,00,
2556249,0000019F,false,Rx,0,8,E1,E1,7D,0F,00,6A,50,FE,
2559024,00000155,false,Rx,0,8,49,87,B3,54,96,D8,02,C2,
2559538,00000157,false,Rx,0,8,D5,5B,09,C4,FF,E0,00,80,
2561249,000001A1,false,Rx,0,8,B1,05,48,13,15,8C,80,20,
2562549,000001C7,false,Rx,0,4,AA,A0,FF,C0,00,00,00,00,
2564549,00000423,false,Rx,0,8,0B,1D,00,02,B2,80,5D,D7,
2566250,0000019F,false,Rx,0,8,E1,E1,7D,04,00,6A,50,FE,
2569024,00000155,false,Rx,0,8,49,87,B3,54,96,D8,02,C2,
2569254,00000424,false,Rx,0,8,11,40,56,C8,33,5E,AA,34,
2569480,00000425,false,Rx,0,8,2A,BB,44,9C,42,18,CD,0B,
2569709,00000157,false,Rx,0,8,D5,AB,09,C4,FF,E0,00,80,
2569918,00000445,false,Rx,0,7,80,55,55,65,04,82,00,00,
2570121,00000426,false,Rx,0,8,00,60,01,00,53,18,00,40,
2571200,000001A1,false,Rx,0,8,B0,C5,48,13,15,8C,80,20,
2572499,000001C7,false,Rx,0,4,AA,A0,FF,C0,00,00,00,00,
2576196,0000019F,false,Rx,0,8,E1,E1,7D,09,00,6A,50,FE,
2578998,00000155,false,Rx,0,8,49,87,B3,54,96,D8,02,C2,
2579471,00000157,false,Rx,0,8,D5,FB,09,C4,FF,E0,00,80,
2581198,000001A1,false,Rx,0,8,B0,85,5C,13,15,8C,80,20,
2582497,000001C7,false,Rx,0,4,AA,A0,FF,C0,00,00,00,00,
2584513,00000435,false,Rx,0,8,FF,FF,1E,0B,2E,30,00,00,
2586204,0000019F,false,Rx,0,8,E1,E1,7D,0E,00,6A,50,FE,
2586458,00000419,false,Rx,0,6,5E,71,4A,E6,3E,00,00,00,
2588981,00000155,false,Rx,0,8,49,87,B3,54,96,D8,02,C2,
2589585,00000157,false,Rx,0,8,D5,4B,09,C4,FF,E0,00,80,
2589777,00000436,false,Rx,0,6,86,16,64,3A,FF,DC,00,00,
2591206,000001A1,false,Rx,0,8,B0,C5,48,13,15,8C,80,20,
2592511,000001C7,false,Rx,0,4,AA,A0,FF,C0,00,00,00,00,
2596210,0000019F,false,Rx,0,8,E1,E1,7D,03,00,6A,50,FE,
2599045,00000155,false,Rx,0,8,49,87,B3,54,96,D8,02,C2,
2599567,00000157,false,Rx,0,8,D5,9B,09,C4,FF,E0,00,80,
2601250,000001A1,false,Rx,0,8,B0,85,48,13,15,8C,80,20,
2602545,000001C7,false,Rx,0,4,AA,A0,FF,C0,00,00,00,00,
2606243,0000019F,false,Rx,0,8,E1,E1,7D,08,00,6A,50,FE,
2609385,00000155,false,Rx,0,8,49,87,B3,54,96,D8,02,C2,
2609608,00000157,false,Rx,0,8,D5,EB,09,C4,FF,E0,00,80,
2611240,000001A1,false,Rx,0,8,B0,C5,48,13,15,8C,80,20,
2612528,000001C7,false,Rx,0,4,AA,A0,FF,C0,00,00,00,00,
2616216,0000019F,false,Rx,0,8,E1,E1,7D,0D,00,6A,50,FE,
2619057,00000155,false,Rx,0,8,49,87,B3,54,96,D8,02,C2,
2619530,00000157,false,Rx,0,8,D5,3B,09,C4,FF,E0,00,80,
2621204,000001A1,false,Rx,0,8,B0,85,48,13,15,8C,80,20,
2622606,000004F7,false,Rx,0,8,00,1A,08,00,90,30,06,F0,
2622775,000001C7,false,Rx,0,4,AA,A0,FF,C0,00,00,00,00,
2623075,00000428,false,Rx,0,8,00,00,00,7F,00,00,00,00,
2623247,0000042F,false,Rx,0,2,00,20,00,00,00,00,00,00,
2626207,0000019F,false,Rx,0,8,E1,E1,7D,02,00,6A,50,FE,
2629097,00000155,false,Rx,0,8,49,87,B2,54,96,D8,02,C2,
2629527,00000157,false,Rx,0,8,D5,8B,09,C4,FF,E0,00,80,
2631244,000001A1,false,Rx,0,8,B0,C5,48,13,15,8C,80,20,
2632578,000001C7,false,Rx,0,4,AA,A0,FF,C0,00,00,00,00,
2636243,0000019F,false,Rx,0,8,E1,E1,7D,07,00,6A,50,FE,
2636521,00000511,false,Rx,0,7,00,44,17,E3,6D,F1,9F,00,
2639066,00000155,false,Rx,0,8,49,87,B3,54,96,D8,02,C2,
2639552,00000157,false,Rx,0,8,D5,DB,09,C4,FF,E0,00,80,
2641250,000001A1,false,Rx,0,8,B0,C5,48,13,15,8C,80,20,
2642579,000001C7,false,Rx,0,4,AA,A0,FF,C0,00,00,00,00,
2646250,0000019F,false,Rx,0,8,E1,E1,7D,0C,00,6A,50,FE,
2649049,00000155,false,Rx,0,8,49,87,B3,54,96,D8,02,C2,
2649527,00000157,false,Rx,0,8,D5,2B,09,C4,FF,E0,00,80,
2651249,000001A1,false,Rx,0,8,B0,85,5C,13,15,8C,80,20,
2652575,000001C7,false,Rx,0,4,AA,A0,FF,C0,00,00,00,00,
2652949,00000500,false,Rx,0,5,02,28,11,E6,8B,00,00,00,
2656204,0000019F,false,Rx,0,8,E1,E1,7D,01,00,6A,50,FE,
2658972,00000155,false,Rx,0,8,49,87,B3,54,96,D8,02,C2,
2659496,00000157,false,Rx,0,8,D5,7B,09,C4,FF,E0,00,80,
2661199,000001A1,false,Rx,0,8,B0,85,48,13,15,8C,80,20,
2662550,000001C7,false,Rx,0,4,AA,A0,FF,C0,00,00,00,00,
2664425,00000423,false,Rx,0,8,0B,1D,00,02,B2,80,5D,D7,
2666199,0000019F,false,Rx,0,8,E1,E1,7D,06,00,6A,50,FE,
2668979,00000155,false,Rx,0,8,49,87,B3,54,96,D8,02,C2,
2669216,00000424,false,Rx,0,8,11,40,56,C8,33,5E,AA,34,
2669445,00000425,false,Rx,0,8,2A,BB,44,9C,42,18,CD,0B,
2669669,00000157,false,Rx,0,8,D5,CB,09,C4,FF,E0,00,80,
2669880,00000445,false,Rx,0,7,80,55,55,65,04,82,00,00,
2670112,00000426,false,Rx,0,8,00,60,01,00,53,18,00,40,
2671211,000001A1,false,Rx,0,8,B0,C5,5C,13,15,8C,80,20,
2672560,000001C7,false,Rx,0,4,AA,A0,FF,C0,00,00,00,00,
2676246,0000019F,false,Rx,0,8,E1,E1,7D,0B,00,6A,50,FE,
2679027,00000155,false,Rx,0,8,49,87,B3,54,96,D8,02,C2,
2679528,00000157,false,Rx,0,8,D5,1B,09,C4,FF,E0,00,80,
2681251,000001A1,false,Rx,0,8,B0,C5,48,13,15,8C,80,20,
2682600,000001C7,false,Rx,0,4,AA,A0,FF,C0,00,00,00,00,
2684440,00000435,false,Rx,0,8,FF,FF,1E,0B,2E,30,00,00,
2686208,0000019F,false,Rx,0,8,E1,E1,7D,00,00,6A,50,FE,
2686476,00000419,false,Rx,0,6,5E,71,4A,E6,3E,00,00,00,
2688977,00000155,false,Rx,0,8,49,87,B3,54,96,D8,02,C2,
2689474,00000157,false,Rx,0,8,D5,6B,09,C4,FF,E0,00,80,
2689650,00000436,false,Rx,0,6,86,16,64,3A,FF,DC,00,00,
2691200,000001A1,false,Rx,0,8,B0,85,48,13,15,8C,80,20,
2692558,000001C7,false,Rx,0,4,AA,A0,FF,C0,00,00,00,00,
2696235,0000019F,false,Rx,0,8,E1,E1,7D,05,00,6A,50,FE,
2699027,00000155,false,Rx,0,8,49,87,B3,54,96,D8,02,C2,
2699543,00000157,false,Rx,0,8,D5,BB,09,C4,FF,E0,00,80,
2701250,000001A1,false,Rx,0,8,B0,C5,48,13,15,8C,80,20,
2702627,000001C7,false,Rx,0,4,AA,A0,FF,C0,00,00,00,00,
2706240,0000019F,false,Rx,0,8,E1,E1,7D,0A,00,6A,50,FE,
2709117,00000155,false,Rx,0,8,49,87,B2,54,96,D8,02,C2,
2709514,00000157,false,Rx,0,8,D5,0B,09,C4,FF,E0,00,80,
2711244,000001A1,false,Rx,0,8,B0,C5,48,13,15,8C,80,20,
2712615,000001C7,false,Rx,0,4,AA,A0,FF,C0,00,00,00,00,
2716251,0000019F,false,Rx,0,8,E1,E1,7D,0F,00,6A,50,FE,
2719050,00000155,false,Rx,0,8,4A,87,B3,54,96,D8,02,C2,
2719554,00000157,false,Rx,0,8,D5,5B,09,C4,FF,E0,00,80,
2721207,000001A1,false,Rx,0,8,B0,85,48,13,15,8C,80,20,
2722700,000004F7,false,Rx,0,8,00,1A,08,00,90,30,06,F0,
2722918,000001C7,false,Rx,0,4,AA,A0,FF,C0,00,00,00,00,
2723174,00000428,false,Rx,0,8,00,00,00,7F,00,00,00,00,
2723365,0000042F,false,Rx,0,2,00,20,00,00,00,00,00,00,
2726241,0000019F,false,Rx,0,8,E1,E1,7D,04,00,6A,50,FE,
2729019,00000155,false,Rx,0,8,4A,87,B3,54,96,D8,02,C2,
2729584,00000157,false,Rx,0,8,D5,AB,09,C4,FF,E0,00,80,
2731216,000001A1,false,Rx,0,8,B0,C5,5C,13,15,8C,80,20,
2732593,000001C7,false,Rx,0,4,AA,A0,FF,C0,00,00,00,00,
2736231,0000019F,false,Rx,0,8,E1,E1,7D,09,00,6A,50,FE,
2736506,00000511,false,Rx,0,7,00,83,E0,9C,D8,FE,82,00,
2739062,00000155,false,Rx,0,8,4A,87,B3,54,96,D8,02,C2,
2739587,00000157,false,Rx,0,8,D5,FB,09,C4,FF,E0,00,80,
2741204,000001A1,false,Rx,0,8,B1,05,5C,13,15,8C,80,20,
2742603,000001C7,false,Rx,0,4,AA,A0,FF,C0,00,00,00,00,
2746213,0000019F,false,Rx,0,8,E1,E1,7D,0E,00,6A,50,FE,
2749055,00000155,false,Rx,0,8,4A,87,B3,54,96,D8,02,C2,
2749555,00000157,false,Rx,0,8,D5,4B,09,C4,FF,E0,00,80,
2751237,000001A1,false,Rx,0,8,B0,85,5C,13,15,8C,80,20,
2752762,000001C7,false,Rx,0,4,AA,A0,FF,C0,00,00,00,00,
2752768,00000500,false,Rx,0,5,02,88,16,0C,D9,00,00,00,
2756370,0000019F,false,Rx,0,8,E1,E1,7D,03,00,6A,50,FE,
2759010,00000155,false,Rx,0,8,4A,87,B2,54,96,D8,02,C2,
2759622,00000157,false,Rx,0,8,D5,9B,09,C4,FF,E0,00,80,
2761261,000001A1,false,Rx,0,8,B0,C5,48,13,15,8C,80,20,
2762632,000001C7,false,Rx,0,4,AA,A0,FF,C0,00,00,00,00,
2764540,00000423,false,Rx,0,8,0B,1D,00,02,B2,80,5D,D8,
2766234,0000019F,false,Rx,0,8,E1,E1,7D,08,00,6A,50,FE,
2769019,00000155,false,Rx,0,8,4A,87,B3,54,96,D8,02,C2,
2769244,00000424,false,Rx,0,8,11,40,56,C8,33,5E,AA,34,
2769472,00000425,false,Rx,0,8,2A,BB,44,9C,42,18,CD,0A,
2769657,00000157,false,Rx,0,8,D5,EB,09,C4,FF,E0,00,80,
2769914,00000445,false,Rx,0,7,80,55,55,65,04,82,00,00,
2770113,00000426,false,Rx,0,8,00,60,01,00,53,18,00,40,
2771244,000001A1,false,Rx,0,8,B0,C5,48,13,15,8C,80,20,
2772641,000001C7,false,Rx,0,4,AA,A0,FF,C0,00,00,00,00,
2776242,0000019F,false,Rx,0,8,E1,E1,7D,0D,00,6A,50,FE,
2779017,00000155,false,Rx,0,8,4A,87,B3,54,96,D8,02,C2,
2779521,00000157,false,Rx,0,8,D5,3B,09,C4,FF,E0,00,80,
2781243,000001A1,false,Rx,0,8,B0,C5,48,13,15,8C,80,20,
2782637,000001C7,false,Rx,0,4,AA,A0,FF,C0,00,00,00,00,
2784491,00000435,false,Rx,0,8,FF,FF,1E,0B,2E,30,00,00,
2786242,0000019F,false,Rx,0,8,E1,E1,7D,02,00,6A,50,FE,
2786458,00000419,false,Rx,0,6,5E,70,4A,E6,3E,00,00,00,
2789018,00000155,false,Rx,0,8,4A,87,B3,54,96,D8,02,C2,
2789621,00000157,false,Rx,0,8,D5,8B,09,C4,FF,E0,00,80,
2789797,00000436,false,Rx,0,6,86,16,64,3A,FF,DC,00,00,
2791242,000001A1,false,Rx,0,8,B0,C5,48,13,15,8C,80,20,
2792641,000001C7,false,Rx,0,4,AA,A0,FF,C0,00,00,00,00,
2796242,0000019F,false,Rx,0,8,E1,E1,7D,07,00,6A,50,FE,
2799010,00000155,false,Rx,0,8,4A,87,B4,54,96,D8,02,C2,
2799537,00000157,false,Rx,0,8,D5,DB,09,C4,FF,E0,00,80,
2801231,000001A1,false,Rx,0,8,B0,C5,5C,13,15,8C,80,20,
2802646,000001C7,false,Rx,0,4,AA,A0,FF,C0,00,00,00,00,
2806245,0000019F,false,Rx,0,8,E1,E1,7D,0C,00,6A,50,FE,
2809070,00000155,false,Rx,0,8,4A,87,B3,54,96,D8,02,C2,
2809493,00000157,false,Rx,0,8,D5,2B,09,C4,FF,E0,00,80,
2811233,000001A1,false,Rx,0,8,B0,C5,5C,13,15,8C,80,20,
2812633,000001C7,false,Rx,0,4,AA,A0,FF,C0,00,00,00,00,
2816203,0000019F,false,Rx,0,8,E1,E1,7D,01,00,6A,50,FE,
2819094,00000155,false,Rx,0,8,4A,87,B3,54,96,D8,02,C2,
2819541,00000157,false,Rx,0,8,D5,7B,09,C4,FF,E0,00,80,
2821214,000001A1,false,Rx,0,8,B0,C5,5C,13,15,8C,80,20,
2822704,000004F7,false,Rx,0,8,00,1A,08,00,90,30,06,F0,
2822898,000001C7,false,Rx,0,4,AA,A0,FF,C0,00,00,00,00,
2823203,00000428,false,Rx,0,8,00,00,00,7F,00,00,00,00,
2823384,0000042F,false,Rx,0,2,00,20,00,00,00,00,00,00,
2826272,0000019F,false,Rx,0,8,E1,E1,7D,06,00,6A,50,FE,
2829068,00000155,false,Rx,0,8,4A,87,B3,54,96,D8,02,C2,
2829570,00000157,false,Rx,0,8,D5,CB,09,C4,FF,E0,00,80,
2831226,000001A1,false,Rx,0,8,B0,85,48,13,15,8C,80,20,
2832652,000001C7,false,Rx,0,4,AA,A0,FF,C0,00,00,00,00,
2836227,0000019F,false,Rx,0,8,E1,E1,7D,0B,00,6A,50,FE,
2836502,00000511,false,Rx,0,7,00,C2,A9,55,43,0B,65,00,
2839076,00000155,false,Rx,0,8,4A,87,B3,54,96,D8,02,C2,
2839475,00000157,false,Rx,0,8,D5,1B,09,C4,FF,E0,00,80,
2841240,000001A1,false,Rx,0,8,B0,85,5C,13,15,8C,80,20,
2842656,000001C7,false,Rx,0,4,AA,A0,FF,C0,00,00,00,00,
2846203,0000019F,false,Rx,0,8,E1,E1,7D,00,00,6A,50,FE,
2848998,00000155,false,Rx,0,8,4A,87,B3,54,96,D8,02,C2,
2849547,00000157,false,Rx,0,8,D5,6B,09,C4,FF,E0,00,80,
2851197,000001A1,false,Rx,0,8,B0,C5,48,13,15,8C,80,20,
2852648,000001C7,false,Rx,0,4,AA,A0,FF,C0,00,00,00,00,
2852865,00000500,false,Rx,0,5,02,84,BC,5B,E1,00,00,00,
2856198,0000019F,false,Rx,0,8,E1,E1,7D,05,00,6A,50,FE,
2858973,00000155,false,Rx,0,8,4A,87,B3,54,96,D8,02,C2,
2859523,00000157,false,Rx,0,8,D5,BB,09,C4,FF,E0,00,80,
2861237,000001A1,false,Rx,0,8,B0,85,5C,13,15,8C,80,20,
2862682,000001C7,false,Rx,0,4,AA,A0,FF,C0,00,00,00,00,
2864486,00000423,false,Rx,0,8,0B,1D,00,02,5D,80,B2,D8,
2866237,0000019F,false,Rx,0,8,E1,E1,7D,0A,00,6A,50,FE,
2869210,00000155,false,Rx,0,8,4A,87,B3,54,96,D8,02,C2,
2869215,00000424,false,Rx,0,8,11,40,56,C8,33,5E,55,34,
2869497,00000425,false,Rx,0,8,2A,BB,44,9C,42,18,CD,0A,
2869761,00000157,false,Rx,0,8,D5,0B,09,C4,FF,E0,00,80,
2869946,00000445,false,Rx,0,7,80,55,AA,65,04,82,00,00,
2870165,00000426,false,Rx,0,8,00,60,01,00,53,18,00,40,
2871375,000001A1,false,Rx,0,8,B0,85,5C,13,15,8C,80,20,
2872910,000001C7,false,Rx,0,4,AA,A0,FF,C0,00,00,00,00,
2872916,0000069F,false,Rx,0,4,71,30,28,2F,00,00,00,00,
2876377,0000019F,false,Rx,0,8,E1,E1,7D,0F,00,6A,50,FE,
2879237,00000155,false,Rx,0,8,4A,87,B3,54,96,D8,02,C2,
2879661,00000157,false,Rx,0,8,D5,5B,09,C4,FF,E0,00,80,
2881355,000001A1,false,Rx,0,8,B0,C5,5C,13,15,8C,80,20,
2882810,000001C7,false,Rx,0,4,AA,A0,FF,C0,00,00,00,00,
2884596,00000435,false,Rx,0,8,FF,FF,1E,0B,2E,30,00,00,
2886267,0000019F,false,Rx,0,8,E1,E1,7D,04,00,6A,50,FE,
2886512,00000419,false,Rx,0,6,5E,70,4A,E6,3E,00,00,00,
2889148,00000155,false,Rx,0,8,4A,87,B3,54,96,D8,02,C2,
2889628,00000157,false,Rx,0,8,D5,AB,09,C4,FF,E0,00,80,
2889672,00000436,false,Rx,0,6,86,16,64,3A,FF,DC,00,00,
2891296,000001A1,false,Rx,0,8,B0,C5,5C,13,15,8C,80,20,
2892936,000001C7,false,Rx,0,4,AA,A0,FF,C0,00,00,00,00,
2896459,0000019F,false,Rx,0,8,E1,E1,7D,09,00,6A,50,FE,
2899240,00000155,false,Rx,0,8,4A,87,B3,54,96,D8,02,C2,
2899699,00000157,false,Rx,0,8,D5,FB,09,C4,FF,E0,00,80,
2901414,000001A1,false,Rx,0,8,B0,85,5C,13,15,8C,80,20,
2902944,000001C7,false,Rx,0,4,AA,A0,FF,C0,00,00,00,00,
2906471,0000019F,false,Rx,0,8,E1,E1,7D,0E,00,6A,50,FE,
2909335,00000155,false,Rx,0,8,4A,87,B3,54,96,D8,02,C2,
2909627,00000157,false,Rx,0,8,D5,4B,09,C4,FF,E0,00,80,
2911465,000001A1,false,Rx,0,8,B0,C5,5C,13,15,8C,80,20,
2912728,000001C7,false,Rx,0,4,AA,A0,FF,C0,00,00,00,00,
2916369,0000019F,false,Rx,0,8,E1,E1,7D,03,00,6A,50,FE,
2919167,00000155,false,Rx,0,8,4A,87,B3,54,96,D8,02,C2,
2919706,00000157,false,Rx,0,8,D5,9B,09,C4,FF,E0,00,80,
2921296,000001A1,false,Rx,0,8,B0,C5,48,13,15,8C,80,20,
2922939,000004F7,false,Rx,0,8,00,1A,08,00,90,30,06,F0,
2922948,000001C7,false,Rx,0,4,AA,A0,FF,C0,00,00,00,00,
2923292,00000428,false,Rx,0,8,00,00,00,7F,00,00,00,00,
2923352,0000042F,false,Rx,0,2,00,20,00,00,00,00,00,00,
2926471,0000019F,false,Rx,0,8,E1,E1,7D,08,00,6A,50,FE,
2929168,00000155,false,Rx,0,8,4A,87,B3,54,96,D8,02,C2,
2929659,00000157,false,Rx,0,8,D5,EB,09,C4,FF,E0,00,80,
2931467,000001A1,false,Rx,0,8,B0,85,5C,13,15,8C,80,20,
2932800,000001C7,false,Rx,0,4,AA,A0,FF,C0,00,00,00,00,
2936464,0000019F,false,Rx,0,8,E1,E1,7D,0D,00,6A,50,FE,
2936472,00000511,false,Rx,0,7,00,01,72,0E,AE,18,48,00,
2939115,00000155,false,Rx,0,8,4A,87,B3,54,96,D8,02,C2,
2939673,00000157,false,Rx,0,8,D5,3B,09,C4,FF,E0,00,80,
2941468,000001A1,false,Rx,0,8,B0,85,5C,13,15,8C,80,20,
2942788,000001C7,false,Rx,0,4,AA,A0,FF,C0,00,00,00,00,
2946484,0000019F,false,Rx,0,8,E1,E1,7D,02,00,6A,50,FE,
2949305,00000155,false,Rx,0,8,4A,87,B3,54,96,D8,02,C2,
2949560,00000157,false,Rx,0,8,D5,8B,09,C4,FF,E0,00,80,
2951368,000001A1,false,Rx,0,8,B0,C5,48,13,15,8C,80,20,
2952719,000001C7,false,Rx,0,4,AA,A0,FF,C0,00,00,00,00,
2953032,00000500,false,Rx,0,5,02,6A,22,A0,0C,00,00,00,
2956372,0000019F,false,Rx,0,8,E1,E1,7D,07,00,6A,50,FE,
2959252,00000155,false,Rx,0,8,4A,87,B3,54,96,D8,02,C2,
2959629,00000157,false,Rx,0,8,D5,DB,09,C4,FF,E0,00,80,
2961472,000001A1,false,Rx,0,8,B0,C5,48,13,15,8C,80,20,
2962950,000001C7,false,Rx,0,4,AA,A0,FF,C0,00,00,00,00,
2964513,00000423,false,Rx,0,8,0B,1D,00,02,5D,80,B2,D8,
2966434,0000019F,false,Rx,0,8,E1,E1,7D,0C,00,6A,50,FE,
2968979,00000155,false,Rx,0,8,4A,87,B3,54,96,D8,02,C2,
2969309,00000424,false,Rx,0,8,11,40,56,C8,33,5E,55,34,
2969468,00000425,false,Rx,0,8,2A,BB,44,9C,42,18,CD,0B,
2969763,00000157,false,Rx,0,8,D5,2B,09,C4,FF,E0,00,80,
2969930,00000445,false,Rx,0,7,80,55,AA,65,04,82,00,00,
2970184,00000426,false,Rx,0,8,00,60,01,00,53,18,00,40,
2971476,000001A1,false,Rx,0,8,B0,C5,5C,13,15,8C,80,20,
2972788,000001C7,false,Rx,0,4,AA,A0,FF,C0,00,00,00,00,
2976471,0000019F,false,Rx,0,8,E1,E1,7D,01,00,6A,50,FE,
2979074,00000155,false,Rx,0,8,4A,87,B3,54,96,D8,02,C2,
2979646,00000157,false,Rx,0,8,D5,7B,09,C4,FF,E0,00,80,
2981475,000001A1,false,Rx,0,8,B0,C5,5C,13,15,8C,80,20,
2982877,000001C7,false,Rx,0,4,AA,A0,FF,C0,00,00,00,00,
2984565,00000435,false,Rx,0,8,FF,FF,1E,0B,2E,30,00,00,
2986489,0000019F,false,Rx,0,8,E1,E1,7D,06,00,6A,50,FE,
2986502,00000419,false,Rx,0,6,5E,6F,4A,E6,3E,00,00,00,
2989055,00000155,false,Rx,0,8,4A,87,B3,54,96,D8,02,C2,
2989726,00000157,false,Rx,0,8,D5,CB,09,C4,FF,E0,00,80,
2989736,00000436,false,Rx,0,6,86,16,64,3A,FF,DC,00,00,
2991290,000001A1,false,Rx,0,8,B0,C5,48,13,15,8C,80,20,
2992820,000001C7,false,Rx,0,4,AA,A0,FF,C0,00,00,00,00,
2996472,0000019F,false,Rx,0,8,E1,E1,7D,0B,00,6A,50,FE,
2999250,00000155,false,Rx,0,8,4A,87,B3,54,96,D8,02,C2,
2999577,00000157,false,Rx,0,8,D5,1B,09,C4,FF,E0,00,80,
3001450,000001A1,false,Rx,0,8,B0,C5,48,13,15,8C,80,20,
3002962,000001C7,false,Rx,0,4,AA,A0,FF,C0,00,00,00,00,
3006471,0000019F,false,Rx,0,8,E1,E1,7D,00,00,6A,50,FE,
3009321,00000155,false,Rx,0,8,4A,87,B3,54,96,D8,02,C2,
3009585,00000157,false,Rx,0,8,D5,6B,09,C4,FF,E0,00,80,
3011472,000001A1,false,Rx,0,8,B0,C5,5C,13,15,8C,80,20,
3012754,000001C7,false,Rx,0,4,AA,A0,FF,C0,00,00,00,00,
3016221,0000019F,false,Rx,0,8,E1,E1,7D,05,00,6A,50,FE,
3019045,00000155,false,Rx,0,8,4A,87,B3,54,96,D8,02,C2,
3019470,00000157,false,Rx,0,8,D5,BB,09,C4,FF,E0,00,80,
3021216,000001A1,false,Rx,0,8,B0,85,48,13,15,8C,80,20,
3022816,000004F7,false,Rx,0,8,00,1A,08,00,90,30,06,F0,
3022988,000001C7,false,Rx,0,4,AA,A0,FF,C0,00,00,00,00,
3023243,00000428,false,Rx,0,8,00,00,00,7F,00,00,00,00,
3023420,0000042F,false,Rx,0,2,00,20,00,00,00,00,00,00,
3026217,0000019F,false,Rx,0,8,E1,E1,7D,0A,00,6A,50,FE,
3029041,00000155,false,Rx,0,8,4A,87,B3,54,96,D8,02,C2,
3029493,00000157,false,Rx,0,8,D5,0B,09,C4,FF,E0,00,80,
3031215,000001A1,false,Rx,0,8,B0,C5,5C,13,15,8C,80,20,
3032766,000001C7,false,Rx,0,4,AA,A0,FF,C0,00,00,00,00,
3036217,0000019F,false,Rx,0,8,E1,E1,7D,0F,00,6A,50,FE,
3036493,00000511,false,Rx,0,7,00,40,3B,C7,19,25,2B,00,
3039042,00000155,false,Rx,0,8,4A,87,B3,54,96,D8,02,C2,
3039519,00000157,false,Rx,0,8,D5,5B,09,C4,FF,E0,00,80,
3041217,000001A1,false,Rx,0,8,B0,C5,5C,13,15,8C,80,20,
3042767,000001C7,false,Rx,0,4,AA,A0,FF,C0,00,00,00,00,
3046242,0000019F,false,Rx,0,8,E1,E1,7D,04,00,6A,50,FE,
3049018,00000155,false,Rx,0,8,4A,87,B3,54,96,D8,02,C2,
3049519,00000157,false,Rx,0,8,D5,AB,09,C4,FF,E0,00,80,
3051215,000001A1,false,Rx,0,8,B0,85,48,13,15,8C,80,20,
3052766,000001C7,false,Rx,0,4,AA,A0,FF,C0,00,00,00,00,
3052965,00000500,false,Rx,0,5,02,78,4B,E5,80,00,00,00,
3056215,0000019F,false,Rx,0,8,E1,E1,7D,09,00,6A,50,FE,
3058967,00000155,false,Rx,0,8,4A,87,B3,54,96,D8,02,C2,
3059544,00000157,false,Rx,0,8,D5,FB,09,C4,FF,E0,00,80,
3061217,000001A1,false,Rx,0,8,B0,C5,48,13,15,8C,80,20,
3062792,000001C7,false,Rx,0,4,AA,A0,FF,C0,00,00,00,00,
3064492,00000423,false,Rx,0,8,0B,1D,00,02,5D,80,B2,D8,
3066241,0000019F,false,Rx,0,8,E1,E1,7D,0E,00,6A,50,FE,
3068966,00000155,false,Rx,0,8,4A,87,B3,54,96,D8,02,C2,
3069192,00000424,false,Rx,0,8,11,40,56,C8,33,5E,55,34,
3069420,00000425,false,Rx,0,8,2A,BB,44,9C,42,18,CD,0B,
3069649,00000157,false,Rx,0,8,D5,4B,09,C4,FF,E0,00,80,
3069884,00000445,false,Rx,0,7,80,55,AA,65,04,82,00,00,
3070107,00000426,false,Rx,0,8,00,60,01,00,53,18,00,40,
3071207,000001A1,false,Rx,0,8,B0,C5,48,13,15,8C,80,20,
3072761,000001C7,false,Rx,0,4,AA,A0,FF,C0,00,00,00,00,
3076227,0000019F,false,Rx,0,8,E1,E1,7D,03,00,6A,50,FE,
3079016,00000155,false,Rx,0,8,4A,87,B3,54,96,D8,02,C2,
3079561,00000157,false,Rx,0,8,D5,9B,09,C4,FF,E0,00,80,
3081236,000001A1,false,Rx,0,8,B0,85,48,13,15,8C,80,20,
3082793,000001C7,false,Rx,0,4,AA,A0,FF,C0,00,00,00,00,
3084485,00000435,false,Rx,0,8,FF,FF,1E,0B,2E,30,00,00,
3086219,0000019F,false,Rx,0,8,E1,E1,7D,08,00,6A,50,FE,
3086494,00000419,false,Rx,0,6,5E,6E,4A,E6,3E,00,00,00,
3088965,00000155,false,Rx,0,8,4A,87,B4,54,96,D8,02,C2,
3089516,00000157,false,Rx,0,8,D5,EB,09,C4,FF,E0,00,80,
3089711,00000436,false,Rx,0,6,86,16,64,3A,FF,DC,00,00,
3091209,000001A1,false,Rx,0,8,B0,C5,48,13,15,8C,80,20,
3092793,000001C7,false,Rx,0,4,AA,A0,FF,C0,00,00,00,00,
3096211,0000019F,false,Rx,0,8,E1,E1,7D,0D,00,6A,50,FE,
3098985,00000155,false,Rx,0,8,4A,87,B3,54,96,D8,02,C2,
3099509,00000157,false,Rx,0,8,D5,3B,09,C4,FF,E0,00,80,
3101209,000001A1,false,Rx,0,8,B0,C5,5C,13,15,8C,80,20,
3102804,000001C7,false,Rx,0,4,AA,A0,FF,C0,00,00,00,00,
3106207,0000019F,false,Rx,0,8,E1,E1,7D,02,00,6A,50,FE,
3109156,00000155,false,Rx,0,8,4A,87,B3,54,96,D8,02,C2,
3109503,00000157,false,Rx,0,8,D5,8B,09,C4,FF,E0,00,80,
3111203,000001A1,false,Rx,0,8,B0,85,48,13,15,8C,80,20,
3112803,000001C7,false,Rx,0,4,AA,A0,FF,C0,00,00,00,00,
3116243,0000019F,false,Rx,0,8,E1,E1,7D,07,00,6A,50,FE,
3119005,00000155,false,Rx,0,8,4A,87,B3,54,96,D8,02,C2,
3119553,00000157,false,Rx,0,8,D5,DB,09,C4,FF,E0,00,80,
3121204,000001A1,false,Rx,0,8,B0,C5,5C,13,15,8C,80,20,
3122889,000004F7,false,Rx,0,8,00,1A,08,00,90,30,06,F0,
3123046,000001C7,false,Rx,0,4,AA,A0,FF,C0,00,00,00,00,
3123296,00000428,false,Rx,0,8,00,00,00,7F,00,00,00,00,
3123475,0000042F,false,Rx,0,2,00,20,00,00,00,00,00,00,
3126233,0000019F,false,Rx,0,8,E1,E1,7D,0C,00,6A,50,FE,
3129020,00000155,false,Rx,0,8,4A,87,B3,54,96,D8,02,C2,
3129470,00000157,false,Rx,0,8,D5,2B,09,C4,FF,E0,00,80,
3131223,000001A1,false,Rx,0,8,B0,C5,5C,13,15,8C,80,20,
3132819,000001C7,false,Rx,0,4,AA,A0,FF,C0,00,00,00,00,
3136223,0000019F,false,Rx,0,8,E1,E1,7D,01,00,6A,50,FE,
3136496,00000511,false,Rx,0,7,00,7F,04,80,84,32,0E,00,
3139046,00000155,false,Rx,0,8,4A,87,B3,54,96,D8,02,C2,
3139514,00000157,false,Rx,0,8,D5,7B,09,C4,FF,E0,00,80,
3141216,000001A1,false,Rx,0,8,B0,C5,48,13,15,8C,80,20,
3142810,000001C7,false,Rx,0,4,AA,A0,FF,C0,00,00,00,00,
3146243,0000019F,false,Rx,0,8,E1,E1,7D,06,00,6A,50,FE,
3149044,00000155,false,Rx,0,8,4A,87,B3,54,96,D8,02,C1,
3149562,00000157,false,Rx,0,8,D5,CB,09,C4,FF,E0,00,80,
3151219,000001A1,false,Rx,0,8,B0,85,48,13,15,8C,80,20,
3152766,00000500,false,Rx,0,5,02,35,90,59,07,00,00,00,
3152935,000001C7,false,Rx,0,4,AA,A0,FF,C0,00,00,00,00,
3156225,0000019F,false,Rx,0,8,E1,E1,7D,0B,00,6A,50,FE,
3158963,00000155,false,Rx,0,8,4A,87,B3,54,96,D8,02,C1,
3159519,00000157,false,Rx,0,8,D5,1B,09,C4,FF,E0,00,80,
3161217,000001A1,false,Rx,0,8,B0,C5,5C,13,15,8C,80,20,
3162880,000001C7,false,Rx,0,4,AA,A0,FF,C0,00,00,00,00,
3164436,00000423,false,Rx,0,8,0B,1D,00,02,5D,80,B2,D8,
3166242,0000019F,false,Rx,0,8,E1,E1,7D,00,00,6A,50,FE,
3168960,00000155,false,Rx,0,8,4A,87,B3,54,96,D8,02,C1,
3169187,00000424,false,Rx,0,8,11,40,56,C8,33,5E,55,34,
3169414,00000425,false,Rx,0,8,2A,BB,44,9C,42,18,CD,0B,
3169644,00000157,false,Rx,0,8,D5,6B,09,C4,FF,E0,00,80,
3169876,00000445,false,Rx,0,7,80,55,AA,65,04,82,00,00,
3170108,00000426,false,Rx,0,8,00,60,01,00,53,18,00,40,
3171240,000001A1,false,Rx,0,8,B0,C5,48,13,15,8C,80,20,
3172902,000001C7,false,Rx,0,4,AA,A0,FF,C0,00,00,00,00,
3176219,0000019F,false,Rx,0,8,E1,E1,7D,05,00,6A,50,FE,
3178971,00000155,false,Rx,0,8,4A,87,B3,54,96,D8,02,C1,
3179538,00000157,false,Rx,0,8,D5,BB,09,C4,FF,E0,00,80,
3181218,000001A1,false,Rx,0,8,B0,85,5C,13,15,8C,80,20,
3182874,000001C7,false,Rx,0,4,AA,A0,FF,C0,00,00,00,00,
3184443,00000435,false,Rx,0,8,FF,FF,1E,0B,2E,30,00,00,
3186234,0000019F,false,Rx,0,8,E1,E1,7D,0A,00,6A,50,FE,
3186476,00000419,false,Rx,0,6,5E,6E,4A,E6,3E,00,00,00,
3188954,00000155,false,Rx,0,8,4A,87,B3,54,96,D8,02,C1,
3189503,00000157,false,Rx,0,8,D5,0B,09,C4,FF,E0,00,80,
3189705,00000436,false,Rx,0,6,86,16,64,3A,FF,DC,00,00,
3191207,000001A1,false,Rx,0,8,B0,C5,48,13,15,8C,80,20,
3192882,000001C7,false,Rx,0,4,AA,A0,FF,C0,00,00,00,00,
3196237,0000019F,false,Rx,0,8,E1,E1,7D,0F,00,6A,50,FE,
3198984,00000155,false,Rx,0,8,4A,87,B3,54,96,D8,02,C1,
3199478,00000157,false,Rx,0,8,D5,5B,09,C4,FF,E0,00,80,
3201218,000001A1,false,Rx,0,8,B0,85,5C,13,15,8C,80,20,
3202890,000001C7,false,Rx,0,4,AA,A0,FF,C0,00,00,00,00,
3206250,0000019F,false,Rx,0,8,E1,E1,7D,04,00,6A,50,FE,
3209038,00000155,false,Rx,0,8,4A,87,B3,54,96,D8,02,C1,
3209509,00000157,false,Rx,0,8,D5,AB,09,C4,FF,E0,00,80,
3211218,000001A1,false,Rx,0,8,B0,C5,5C,13,15,8C,80,20,
3212893,000001C7,false,Rx,0,4,AA,A0,FF,C0,00,00,00,00,
3216215,0000019F,false,Rx,0,8,E1,E1,7D,09,00,6A,50,FE,
3219047,00000155,false,Rx,0,8,4A,87,B3,54,96,D8,02,C1,
3219545,00000157,false,Rx,0,8,D5,FB,09,C4,FF,E0,00,80,
3221214,000001A1,false,Rx,0,8,B0,C5,48,13,15,8C,80,20,
3222936,000004F7,false,Rx,0,8,00,1A,08,00,90,30,06,F0,
3223110,000001C7,false,Rx,0,4,AA,A0,FF,C0,00,00,00,00,
3223362,00000428,false,Rx,0,8,00,00,00,7F,00,00,00,00,
3223540,0000042F,false,Rx,0,2,00,20,00,00,00,00,00,00,
3226210,0000019F,false,Rx,0,8,E1,E1,7D,0E,00,6A,50,FE,
3229043,00000155,false,Rx,0,8,4A,87,B3,54,96,D8,02,C1,
3229460,00000157,false,Rx,0,8,D5,4B,09,C4,FF,E0,00,80,
3231209,000001A1,false,Rx,0,8,B0,C5,48,13,15,8C,80,20,
3232875,000001C7,false,Rx,0,4,AA,A0,FF,C0,00,00,00,00,
3236206,0000019F,false,Rx,0,8,E1,E1,7D,03,00,6A,50,FE,
3236476,00000511,false,Rx,0,7,00,BE,CD,39,EF,3F,F1,00,
3239032,00000155,false,Rx,0,8,4A,87,B3,54,96,D8,02,C1,
3239453,00000157,false,Rx,0,8,D5,9B,09,C4,FF,E0,00,80,
3241211,000001A1,false,Rx,0,8,B0,C5,5C,13,15,8C,80,20,
3242894,000001C7,false,Rx,0,4,AA,A0,FF,C0,00,00,00,00,
3246209,0000019F,false,Rx,0,8,E1,E1,7D,08,00,6A,50,FE,
3248962,00000155,false,Rx,0,8,4A,87,B3,54,96,D8,02,C1,
3249555,00000157,false,Rx,0,8,D5,EB,09,C4,FF,E0,00,80,
3251209,000001A1,false,Rx,0,8,B0,C5,48,13,15,8C,80,20,
3252908,000001C7,false,Rx,0,4,AA,A0,FF,C0,00,00,00,00,
3253078,00000500,false,Rx,0,5,02,52,33,9F,A3,00,00,00,
3256227,0000019F,false,Rx,0,8,E1,E1,7D,0D,00,6A,50,FE,
3258968,00000155,false,Rx,0,8,4A,87,B3,54,96,D8,02,C1,
3259490,00000157,false,Rx,0,8,D5,3B,09,C4,FF,E0,00,80,
3261212,000001A1,false,Rx,0,8,B0,85,48,13,15,8C,80,20,
3262919,000001C7,false,Rx,0,4,AA,A0,FF,C0,00,00,00,00,
3264392,00000423,false,Rx,0,8,0B,1D,00,02,5D,80,B2,D8,
3266242,0000019F,false,Rx,0,8,E1,E1,7D,02,00,6A,50,FE,
3268969,00000155,false,Rx,0,8,4A,87,B3,54,96,D8,02,C1,
3269187,00000424,false,Rx,0,8,11,40,56,C8,33,5E,55,34,
3269414,00000425,false,Rx,0,8,2A,BB,44,9C,42,18,CD,0B,
3269643,00000157,false,Rx,0,8,D5,8B,09,C4,FF,E0,00,80,
3269883,00000445,false,Rx,0,7,80,55,AA,65,04,82,00,00,
3270108,00000426,false,Rx,0,8,00,60,01,00,53,18,00,40,
3271217,000001A1,false,Rx,0,8,B0,C5,48,13,15,8C,80,20,
3272924,000001C7,false,Rx,0,4,AA,A0,FF,C0,00,00,00,00,
3276220,0000019F,false,Rx,0,8,E1,E1,7D,07,00,6A,50,FE,
3278971,00000155,false,Rx,0,8,4A,87,B3,54,96,D8,02,C1,
3279541,00000157,false,Rx,0,8,D5,DB,09,C4,FF,E0,00,80,
3281211,000001A1,false,Rx,0,8,B0,C5,5C,13,15,8C,80,20,
3282912,000001C7,false,Rx,0,4,AA,A0,FF,C0,00,00,00,00,
3284460,00000435,false,Rx,0,8,FF,FF,1E,0B,2E,30,00,00,
3286234,0000019F,false,Rx,0,8,E1,E1,7D,0C,00,6A,50,FE,
3286484,00000419,false,Rx,0,6,5E,6D,4A,E6,3E,00,00,00,
3288959,00000155,false,Rx,0,8,4A,87,B3,54,96,D8,02,C1,
3289485,00000157,false,Rx,0,8,D5,2B,09,C4,FF,E0,00,80,
3289662,00000436,false,Rx,0,6,86,16,64,3A,FF,DC,00,00,
3291209,000001A1,false,Rx,0,8,B0,85,48,13,15,8C,80,20,
3292937,000001C7,false,Rx,0,4,AA,A0,FF,C0,00,00,00,00,
3296236,0000019F,false,Rx,0,8,E1,E1,7D,01,00,6A,50,FE,
3298984,00000155,false,Rx,0,8,4A,87,B4,54,96,D8,02,C1,
3299551,00000157,false,Rx,0,8,D5,7B,09,C4,FF,E0,00,80,
3301217,000001A1,false,Rx,0,8,B0,C5,48,13,15,8C,80,20,
3302934,000001C7,false,Rx,0,4,AA,A0,FF,C0,00,00,00,00,
3306237,0000019F,false,Rx,0,8,E1,E1,7D,06,00,6A,50,FE,
3309068,00000155,false,Rx,0,8,4A,87,B3,54,96,D8,02,C1,
3309485,00000157,false,Rx,0,8,D5,CB,09,C4,FF,E0,00,80,
3311210,000001A1,false,Rx,0,8,B0,C5,48,13,15,8C,80,20,
3312934,000001C7,false,Rx,0,4,AA,A0,FF,C0,00,00,00,00,
3316236,0000019F,false,Rx,0,8,E1,E1,7D,0B,00,6A,50,FE,
3318985,00000155,false,Rx,0,8,4A,87,B3,54,96,D8,02,C1,
3319459,00000157,false,Rx,0,8,D5,1B,09,C4,FF,E0,00,80,
3321207,000001A1,false,Rx,0,8,B0,85,5C,13,15,8C,80,20,
3323011,000004F7,false,Rx,0,8,00,1A,08,00,90,30,06,F0,
3323183,000001C7,false,Rx,0,4,AA,A0,FF,C0,00,00,00,00,
3323437,00000428,false,Rx,0,8,00,00,00,7F,00,00,00,00,
3323615,0000042F,false,Rx,0,2,00,20,00,00,00,00,00,00,
3326234,0000019F,false,Rx,0,8,E1,E1,7D,00,00,6A,50,FE,
3328980,00000155,false,Rx,0,8,4A,87,B4,54,96,D8,02,C1,
3329500,00000157,false,Rx,0,8,D5,6B,09,C4,FF,E0,00,80,
3331208,000001A1,false,Rx,0,8,B0,C5,5C,13,15,8C,80,20,
3332927,000001C7,false,Rx,0,4,AA,A0,FF,C0,00,00,00,00,
3336234,0000019F,false,Rx,0,8,E1,E1,7D,05,00,6A,50,FE,
3336475,00000511,false,Rx,0,7,00,FD,96,F2,5A,4C,D4,00,
3339046,00000155,false,Rx,0,8,4A,87,B3,54,96,D8,02,C1,
3339521,00000157,false,Rx,0,8,D5,BB,09,C4,FF,E0,00,80,
3341210,000001A1,false,Rx,0,8,B0,C5,5C,13,15,8C,80,20,
3342959,000001C7,false,Rx,0,4,AA,A0,FF,C0,00,00,00,00,
3346231,0000019F,false,Rx,0,8,E1,E1,7D,0A,00,6A,50,FE,
3349037,00000155,false,Rx,0,8,4A,87,B3,54,96,D8,02,C1,
3349484,00000157,false,Rx,0,8,D5,0B,09,C4,FF,E0,00,80,
3351209,000001A1,false,Rx,0,8,B0,C5,48,13,15,8C,80,20,
3352961,000001C7,false,Rx,0,4,AA,A0,FF,C0,00,00,00,00,
3353134,00000500,false,Rx,0,5,02,2D,24,CA,CD,00,00,00,
3356236,0000019F,false,Rx,0,8,E1,E1,7D,0F,00,6A,50,FE,
3358961,00000155,false,Rx,0,8,4A,87,B3,54,96,D8,02,C1,
3359554,00000157,false,Rx,0,8,D5,5B,09,C4,FF,E0,00,80,
3361203,000001A1,false,Rx,0,8,B0,85,5C,13,15,8C,80,20,
3362955,000001C7,false,Rx,0,4,AA,A0,FF,C0,00,00,00,00,
3364446,00000423,false,Rx,0,8,0B,1D,00,02,B2,80,5D,D8,
3366229,0000019F,false,Rx,0,8,E1,E1,7D,04,00,6A,50,FE,
3368956,00000155,false,Rx,0,8,4A,87,B3,54,96,D8,02,C1,
3369181,00000424,false,Rx,0,8,11,40,56,C8,33,5E,AA,34,
3369405,00000425,false,Rx,0,8,2A,BB,44,9C,42,18,CD,0B,
3369632,00000157,false,Rx,0,8,D5,AB,09,C4,FF,E0,00,80,
3369872,00000445,false,Rx,0,7,80,55,55,65,04,82,00,00,
3370078,00000426,false,Rx,0,8,00,60,01,00,53,18,00,40,
3371206,000001A1,false,Rx,0,8,B0,C5,48,13,15,8C,80,20,
3372959,000001C7,false,Rx,0,4,AA,A0,FF,C0,00,00,00,00,
3376234,0000019F,false,Rx,0,8,E1,E1,7D,09,00,6A,50,FE,
3378979,00000155,false,Rx,0,8,4A,87,B4,54,96,D8,02,C1,
3379510,00000157,false,Rx,0,8,D5,FB,09,C4,FF,E0,00,80,
3381208,000001A1,false,Rx,0,8,B0,C5,5C,13,15,8C,80,20,
3382933,000001C7,false,Rx,0,4,AA,A0,FF,C0,00,00,00,00,
3384478,00000435,false,Rx,0,8,FF,FF,1E,0B,2E,30,00,00,
3386203,0000019F,false,Rx,0,8,E1,E1,7D,0E,00,6A,50,FE,
3386478,00000419,false,Rx,0,6,5E,6D,4A,E6,3E,00,00,00,
3388954,00000155,false,Rx,0,8,4A,87,B3,54,96,D8,02,C1,
3389453,00000157,false,Rx,0,8,D5,4B,09,C4,FF,E0,00,80,
3389677,00000436,false,Rx,0,6,86,16,64,3A,FF,DC,00,00,
3391203,000001A1,false,Rx,0,8,B0,C5,5C,13,15,8C,80,20,
3392928,000001C7,false,Rx,0,4,AA,A0,FF,C0,00,00,00,00,
3396236,0000019F,false,Rx,0,8,E1,E1,7D,03,00,6A,50,FE,
3398962,00000155,false,Rx,0,8,4A,87,B3,54,96,D8,02,C1,
3399460,00000157,false,Rx,0,8,D5,9B,09,C4,FF,E0,00,80,
3401210,000001A1,false,Rx,0,8,B0,C5,48,13,15,8C,80,20,
3402934,000001C7,false,Rx,0,4,AA,A0,FF,C0,00,00,00,00,
3406238,0000019F,false,Rx,0,8,E1,E1,7D,08,00,6A,50,FE,
3409034,00000155,false,Rx,0,8,4A,87,B4,54,96,D8,02,C1,
3409535,00000157,false,Rx,0,8,D5,EB,09,C4,FF,E0,00,80,
3411205,000001A1,false,Rx,0,8,B0,C5,5C,13,15,8C,80,20,
3412933,000001C7,false,Rx,0,4,AA,A0,FF,C0,00,00,00,00,
3416251,0000019F,false,Rx,0,8,E1,E1,7D,0D,00,6A,50,FE,
3419005,00000155,false,Rx,0,8,4A,87,B3,54,96,D8,02,C1,
3419502,00000157,false,Rx,0,8,D5,3B,09,C4,FF,E0,00,80,
3421203,000001A1,false,Rx,0,8,B0,C5,48,13,15,8C,80,20,
3423003,000004F7,false,Rx,0,8,00,1A,08,00,90,30,06,F0,
3423205,000001C7,false,Rx,0,4,AA,A0,FF,C0,00,00,00,00,
3423477,00000428,false,Rx,0,8,00,00,00,7F,00,00,00,00,
3423676,0000042F,false,Rx,0,2,00,20,00,00,00,00,00,00,
3426234,0000019F,false,Rx,0,8,E1,E1,7D,02,00,6A,50,FE,
3429016,00000155,false,Rx,0,8,4A,87,B4,54,96,D8,02,C1,
3429436,00000157,false,Rx,0,8,D5,8B,09,C4,FF,E0,00,80,
3431204,000001A1,false,Rx,0,8,B0,C5,48,13,15,8C,80,20,
3432954,000001C7,false,Rx,0,4,AA,A0,FF,C0,00,00,00,00,
3436231,0000019F,false,Rx,0,8,E1,E1,7D,07,00,6A,50,FE,
3436477,00000511,false,Rx,0,7,00,3C,5F,AB,C5,59,B7,00,
3439005,00000155,false,Rx,0,8,4A,87,B4,54,96,D8,02,C1,
3439528,00000157,false,Rx,0,8,D5,DB,09,C4,FF,E0,00,80,
3441202,000001A1,false,Rx,0,8,B0,85,48,13,15,8C,80,20,
3442958,000001C7,false,Rx,0,4,AA,A0,FF,C0,00,00,00,00,
3446234,0000019F,false,Rx,0,8,E1,E1,7D,0C,00,6A,50,FE,
3448959,00000155,false,Rx,0,8,4A,87,B3,54,96,D8,02,C1,
3449537,00000157,false,Rx,0,8,D5,2B,09,C4,FF,E0,00,80,
3451208,000001A1,false,Rx,0,8,B0,C5,48,13,15,8C,80,20,
3452783,00000500,false,Rx,0,5,02,E5,26,D4,03,00,00,00,
3452958,000001C7,false,Rx,0,4,AA,A0,FF,C0,00,00,00,00,
3456235,0000019F,false,Rx,0,8,E1,E1,7D,01,00,6A,50,FE,
3458959,00000155,false,Rx,0,8,4A,87,B4,54,96,D8,02,C1,
3459536,00000157,false,Rx,0,8,D5,7B,09,C4,FF,E0,00,80,
3461209,000001A1,false,Rx,0,8,B0,C5,5C,13,15,8C,80,20,
3462959,000001C7,false,Rx,0,4,AA,A0,FF,C0,00,00,00,00,
3464742,00000423,false,Rx,0,8,0B,1D,00,02,B2,80,5D,D8,
3466494,0000019F,false,Rx,0,8,E1,E1,7D,06,00,6A,50,FE,
3469165,00000155,false,Rx,0,8,4A,87,B3,54,96,D8,02,C1,
3469170,00000424,false,Rx,0,8,11,40,56,C8,33,5E,AA,34,
3469605,00000425,false,Rx,0,8,2A,BB,44,9C,42,18,CD,0B,
3469621,00000157,false,Rx,0,8,D5,CB,09,C4,FF,E0,00,80,
3470052,00000445,false,Rx,0,7,80,55,55,65,04,82,00,00,
3470079,00000426,false,Rx,0,8,00,60,01,00,53,18,00,40,
3471373,000001A1,false,Rx,0,8,B0,85,48,13,15,8C,80,20,
3473237,000001C7,false,Rx,0,4,AA,A0,FF,C0,00,00,00,00,
3476404,0000019F,false,Rx,0,8,E1,E1,7D,0B,00,6A,50,FE,
3479218,00000155,false,Rx,0,8,4A,87,B3,54,96,D8,02,C1,
3479701,00000157,false,Rx,0,8,D5,1B,09,C4,FF,E0,00,80,
3481467,000001A1,false,Rx,0,8,B0,C5,5C,13,15,8C,80,20,
3483248,000001C7,false,Rx,0,4,AA,A0,FF,C0,00,00,00,00,
3484601,00000435,false,Rx,0,8,FF,FF,1E,0B,2E,30,00,00,
3486486,0000019F,false,Rx,0,8,E1,E1,7D,00,00,6A,50,FE,
3486492,00000419,false,Rx,0,6,5E,6C,4A,E6,3E,00,00,00,
3489023,00000155,false,Rx,0,8,4A,87,B4,54,96,D8,02,C1,
3489730,00000157,false,Rx,0,8,D5,6B,09,C4,FF,E0,00,80,
3489737,00000436,false,Rx,0,6,86,16,64,3A,FF,DC,00,00,
3491468,000001A1,false,Rx,0,8,B0,C5,48,13,15,8C,80,20,
3493151,000001C7,false,Rx,0,4,AA,A0,FF,C0,00,00,00,00,
3496497,0000019F,false,Rx,0,8,E1,E1,7D,05,00,6A,50,FE,
3499224,00000155,false,Rx,0,8,4A,87,B3,54,96,D8,02,C1,
3499647,00000157,false,Rx,0,8,D5,BB,09,C4,FF,E0,00,80,
3501377,000001A1,false,Rx,0,8,B0,85,48,13,15,8C,80,20,
3503248,000001C7,false,Rx,0,4,AA,A0,FF,C0,00,00,00,00,
3506403,0000019F,false,Rx,0,8,E1,E1,7D,0A,00,6A,50,FE,
3509226,00000155,false,Rx,0,8,4A,87,B4,54,96,D8,02,C1,
3509537,00000157,false,Rx,0,8,D5,0B,09,C4,FF,E0,00,80,
3511239,000001A1,false,Rx,0,8,B0,C5,48,13,15,8C,80,20,
3513006,000001C7,false,Rx,0,4,AA,A0,FF,C0,00,00,00,00,
3516249,0000019F,false,Rx,0,8,E1,E1,7D,0F,00,6A,50,FE,
3518996,00000155,false,Rx,0,8,4A,87,B4,54,96,D8,02,C1,
3519521,00000157,false,Rx,0,8,D5,5B,09,C4,FF,E0,00,80,
3521222,000001A1,false,Rx,0,8,B0,C5,5C,13,15,8C,80,20,
3523096,000004F7,false,Rx,0,8,00,1A,08,00,90,30,06,F0,
3523271,000001C7,false,Rx,0,4,AA,A0,FF,C0,00,00,00,00,
3523550,00000428,false,Rx,0,8,00,00,00,7F,00,00,00,00,
3523721,0000042F,false,Rx,0,2,00,20,00,00,00,00,00,00,
3526247,0000019F,false,Rx,0,8,E1,E1,7D,04,00,6A,50,FE,
3528996,00000155,false,Rx,0,8,4A,87,B3,54,96,D8,02,C1,
3529498,00000157,false,Rx,0,8,D5,AB,09,C4,FF,E0,00,80,
3531249,000001A1,false,Rx,0,8,B0,C5,48,13,15,8C,80,20,
3533024,000001C7,false,Rx,0,4,AA,A0,FF,C0,00,00,00,00,
3536247,0000019F,false,Rx,0,8,E1,E1,7D,09,00,6A,50,FE,
3536496,00000511,false,Rx,0,7,00,7B,28,64,30,66,9A,00,
3539021,00000155,false,Rx,0,8,4A,87,B4,54,96,D8,02,C1,
3539497,00000157,false,Rx,0,8,D5,FB,09,C4,FF,E0,00,80,
3541221,000001A1,false,Rx,0,8,B0,85,5C,13,15,8C,80,20,
3543021,000001C7,false,Rx,0,4,AA,A0,FF,C0,00,00,00,00,
3546247,0000019F,false,Rx,0,8,E1,E1,7D,0E,00,6A,50,FE,
3549013,00000155,false,Rx,0,8,4A,87,B3,54,96,D8,02,C1,
3549499,00000157,false,Rx,0,8,D5,4B,09,C4,FF,E0,00,80,
3551221,000001A1,false,Rx,0,8,B0,C5,5C,13,15,8C,80,20,
3553021,000001C7,false,Rx,0,4,AA,A0,FF,C0,00,00,00,00,
3553194,00000500,false,Rx,0,5,02,42,59,5A,54,00,00,00,
3556247,0000019F,false,Rx,0,8,E1,E1,7D,03,00,6A,50,FE,
3558971,00000155,false,Rx,0,8,4A,87,B3,54,96,D8,02,C1,
3559498,00000157,false,Rx,0,8,D5,9B,09,C4,FF,E0,00,80,
3561221,000001A1,false,Rx,0,8,B0,C5,48,13,15,8C,80,20,
3563046,000001C7,false,Rx,0,4,AA,A0,FF,C0,00,00,00,00,
3564395,00000423,false,Rx,0,8,0B,1D,00,02,B2,80,5D,D8,
3566245,0000019F,false,Rx,0,8,E1,E1,7D,08,00,6A,50,FE,
3568938,00000155,false,Rx,0,8,4A,87,B4,54,96,D8,02,C1,
3569184,00000424,false,Rx,0,8,11,40,56,C8,33,5E,AA,34,
3569407,00000425,false,Rx,0,8,2A,BB,44,9C,42,18,CD,0B,
3569636,00000157,false,Rx,0,8,D5,EB,09,C4,FF,E0,00,80,
3569874,00000445,false,Rx,0,7,80,55,55,65,04,82,00,00,
3570100,00000426,false,Rx,0,8,00,60,01,00,53,18,00,40,
3571212,000001A1,false,Rx,0,8,B0,C5,5C,13,15,8C,80,20,
3573036,000001C7,false,Rx,0,4,AA,A0,FF,C0,00,00,00,00,
3576266,0000019F,false,Rx,0,8,E1,E1,7D,0D,00,6A,50,FE,
3578997,00000155,false,Rx,0,8,4A,87,B3,54,96,D8,02,C1,
3579525,00000157,false,Rx,0,8,D5,3B,09,C4,FF,E0,00,80,
3581214,000001A1,false,Rx,0,8,B0,C5,5C,13,15,8C,80,20,
3583049,000001C7,false,Rx,0,4,AA,A0,FF,C0,00,00,00,00,
3584447,00000435,false,Rx,0,8,FF,FF,1E,0B,2E,30,00,00,
3586246,0000019F,false,Rx,0,8,E1,E1,7D,02,00,6A,50,FE,
3586501,00000419,false,Rx,0,6,5F,6B,4A,E6,3E,00,00,00,
3588949,00000155,false,Rx,0,8,4A,87,B4,54,96,D8,02,C1,
3589476,00000157,false,Rx,0,8,D5,8B,09,C4,FF,E0,00,80,
3589670,00000436,false,Rx,0,6,86,16,64,3A,FF,DC,00,00,
3591223,000001A1,false,Rx,0,8,B0,C5,5C,13,15,8C,80,20,
3593047,000001C7,false,Rx,0,4,AA,A0,FF,C0,00,00,00,00,
3596250,0000019F,false,Rx,0,8,E1,E1,7D,07,00,6A,50,FE,
3598972,00000155,false,Rx,0,8,4A,87,B3,54,96,D8,02,C1,
3599473,00000157,false,Rx,0,8,D5,DB,09,C4,FF,E0,00,80,
3601235,000001A1,false,Rx,0,8,B0,C5,48,13,15,8C,80,20,
3603037,000001C7,false,Rx,0,4,AA,A0,FF,C0,00,00,00,00,
3606237,0000019F,false,Rx,0,8,E1,E1,7D,0C,00,6A,50,FE,
3609138,00000155,false,Rx,0,8,4A,87,B3,54,96,D8,02,C1,
3609511,00000157,false,Rx,0,8,D5,2B,09,C4,FF,E0,00,80,
3611221,000001A1,false,Rx,0,8,B0,85,5C,13,15,8C,80,20,
3613060,000001C7,false,Rx,0,4,AA,A0,FF,C0,00,00,00,00,
3616247,0000019F,false,Rx,0,8,E1,E1,7D,01,00,6A,50,FE,
3619012,00000155,false,Rx,0,8,4A,87,B4,54,96,D8,02,C1,
3619486,00000157,false,Rx,0,8,D5,7B,09,C4,FF,E0,00,80,
3621237,000001A1,false,Rx,0,8,B0,85,48,13,15,8C,80,20,
3623136,000004F7,false,Rx,0,8,00,1A,08,00,90,30,06,F0,
3623331,000001C7,false,Rx,0,4,AA,A0,FF,C0,00,00,00,00,
3623607,00000428,false,Rx,0,8,00,00,00,7F,00,00,00,00,
3623782,0000042F,false,Rx,0,2,00,20,00,00,00,00,00,00,
3626239,0000019F,false,Rx,0,8,E1,E1,7D,06,00,6A,50,FE,
3629027,00000155,false,Rx,0,8,4A,87,B3,54,96,D8,02,C1,
3629496,00000157,false,Rx,0,8,D5,CB,09,C4,FF,E0,00,80,
3631222,000001A1,false,Rx,0,8,B0,C5,5C,13,15,8C,80,20,
3633074,000001C7,false,Rx,0,4,AA,A0,FF,C0,00,00,00,00,
3636249,0000019F,false,Rx,0,8,E1,E1,7D,0B,00,6A,50,FE,
3636491,00000511,false,Rx,0,7,00,BA,F1,1D,9B,73,7D,00,
3639030,00000155,false,Rx,0,8,4A,87,B4,54,96,D8,02,C1,
3639469,00000157,false,Rx,0,8,D5,1B,09,C4,FF,E0,00,80,
3641249,000001A1,false,Rx,0,8,B0,C5,48,13,15,8C,80,20,
3643071,000001C7,false,Rx,0,4,AA,A0,FF,C0,00,00,00,00,
3646249,0000019F,false,Rx,0,8,E1,E1,7D,00,00,6A,50,FE,
3649000,00000155,false,Rx,0,8,4A,87,B4,54,96,D8,02,C1,
3649573,00000157,false,Rx,0,8,D5,6B,09,C4,FF,E0,00,80,
3651243,000001A1,false,Rx,0,8,B0,85,48,13,15,8C,80,20,
3653016,00000500,false,Rx,0,5,02,87,3D,BD,00,00,00,00,
3653136,000001C7,false,Rx,0,4,AA,A0,FF,C0,00,00,00,00,
3656266,0000019F,false,Rx,0,8,E1,E1,7D,05,00,6A,50,FE,
3658966,00000155,false,Rx,0,8,4A,87,B3,54,96,D8,02,C1,
3659489,00000157,false,Rx,0,8,D5,BB,09,C4,FF,E0,00,80,
3661383,000001A1,false,Rx,0,8,B0,C5,48,13,15,8C,80,20,
3663245,000001C7,false,Rx,0,4,AA,A0,FF,C0,00,00,00,00,
3664531,00000423,false,Rx,0,8,0B,1D,00,02,B2,80,5D,D8,
3666280,0000019F,false,Rx,0,8,E1,E1,7D,0A,00,6A,50,FE,
3668984,00000155,false,Rx,0,8,4A,87,B4,54,96,D8,02,C1,
3669216,00000424,false,Rx,0,8,11,40,56,C8,33,5E,AA,34,
3669439,00000425,false,Rx,0,8,2A,BB,44,9C,42,18,CD,0B,
3669661,00000157,false,Rx,0,8,D5,0B,09,C4,FF,E0,00,80,
3669867,00000445,false,Rx,0,7,80,55,55,65,04,82,00,00,
3670125,00000426,false,Rx,0,8,00,60,01,00,53,18,00,40,
3670313,000004AE,false,Rx,0,8,D2,B2,3C,A0,92,5A,88,84,
3670465,00000659,false,Rx,0,4,26,00,03,36,00,00,00,00,
3670643,000004AF,false,Rx,0,5,65,3B,4B,3A,40,00,00,00,
3671242,000001A1,false,Rx,0,8,B0,C5,48,13,15,8C,80,20,
3673250,000001C7,false,Rx,0,4,AA,A0,FF,C0,00,00,00,00,
3676334,0000019F,false,Rx,0,8,E1,E1,7D,0F,00,6A,50,FE,
3679224,00000155,false,Rx,0,8,4A,87,B3,54,96,D8,02,C1,
3679589,00000157,false,Rx,0,8,D5,5B,09,C4,FF,E0,00,80,
3681475,000001A1,false,Rx,0,8,B0,85,5C,13,15,8C,80,20,
3683148,000001C7,false,Rx,0,4,AA,A0,FF,C0,00,00,00,00,
3684524,00000435,false,Rx,0,8,FF,FF,1E,0B,2E,30,00,00,
3686303,0000019F,false,Rx,0,8,E1,E1,7D,04,00,6A,50,FE,
3686550,00000419,false,Rx,0,6,5E,6B,4A,E6,3E,00,00,00,
3689000,00000155,false,Rx,0,8,4A,87,B3,54,96,D8,02,C1,
3689463,00000157,false,Rx,0,8,D5,AB,09,C4,FF,E0,00,80,
3689729,00000436,false,Rx,0,6,86,16,64,3A,FF,DC,00,00,
3691393,000001A1,false,Rx,0,8,B0,C5,5C,13,15,8C,80,20,
3693252,000001C7,false,Rx,0,4,AA,A0,FF,C0,00,00,00,00,
3696405,0000019F,false,Rx,0,8,E1,E1,7D,09,00,6A,50,FE,
3699222,00000155,false,Rx,0,8,4A,87,B4,54,96,D8,02,C1,
3699692,00000157,false,Rx,0,8,D5,FB,09,C4,FF,E0,00,80,
3701475,000001A1,false,Rx,0,8,B0,C5,48,13,15,8C,80,20,
3703375,000001C7,false,Rx,0,4,AA,A0,FF,C0,00,00,00,00,
3706400,0000019F,false,Rx,0,8,E1,E1,7D,0E,00,6A,50,FE,
3709326,00000155,false,Rx,0,8,4A,87,B3,54,96,D8,02,C1,
3709466,00000157,false,Rx,0,8,D5,4B,09,C4,FF,E0,00,80,
3711377,000001A1,false,Rx,0,8,B0,C5,5C,13,15,8C,80,20,
3713382,000001C7,false,Rx,0,4,AA,A0,FF,C0,00,00,00,00,
3716500,0000019F,false,Rx,0,8,E1,E1,7D,03,00,6A,50,FE,
3719251,00000155,false,Rx,0,8,4B,87,B4,54,96,D8,02,C1,
3719542,00000157,false,Rx,0,8,D5,9B,09,C4,FF,E0,00,80,
3721501,000001A1,false,Rx,0,8,B0,85,5C,13,15,8C,80,20,
3723454,000004F7,false,Rx,0,8,00,1A,08,00,90,30,06,F0,
3723463,000001C7,false,Rx,0,4,AA,A0,FF,C0,00,00,00,00,
3723604,00000428,false,Rx,0,8,00,00,00,7F,00,00,00,00,
3723779,0000042F,false,Rx,0,2,00,20,00,00,00,00,00,00,
3726505,0000019F,false,Rx,0,8,E1,E1,7D,08,00,6A,50,FE,
3729252,00000155,false,Rx,0,8,4B,87,B4,54,96,D8,02,C1,
3729587,00000157,false,Rx,0,8,D5,EB,09,C4,FF,E0,00,80,
3731505,000001A1,false,Rx,0,8,B0,C5,48,13,15,8C,80,20,
3733380,000001C7,false,Rx,0,4,AA,A0,FF,C0,00,00,00,00,
3736407,0000019F,false,Rx,0,8,E1,E1,7D,0D,00,6A,50,FE,
3736510,00000511,false,Rx,0,7,00,F9,BA,D6,06,80,60,00,
3739284,00000155,false,Rx,0,8,4B,87,B4,54,96,D8,02,C1,
3739564,00000157,false,Rx,0,8,D5,3B,09,C4,FF,E0,00,80,
3741249,000001A1,false,Rx,0,8,B0,C5,5C,13,15,8C,80,20,
3743294,000001C7,false,Rx,0,4,AA,A0,FF,C0,00,00,00,00,
3746406,0000019F,false,Rx,0,8,E1,E1,7D,02,00,6A,50,FE,
3749177,00000155,false,Rx,0,8,4B,87,B4,54,96,D8,02,C1,
3749676,00000157,false,Rx,0,8,D5,8B,09,C4,FF,E0,00,80,
3751476,000001A1,false,Rx,0,8,B0,C5,5C,13,15,8C,80,20,
3753048,00000500,false,Rx,0,5,02,C9,98,BF,9B,00,00,00,
3753138,000001C7,false,Rx,0,4,AA,A0,FF,C0,00,00,00,00,
3756505,0000019F,false,Rx,0,8,E1,E1,7D,07,00,6A,50,FE,
3759202,00000155,false,Rx,0,8,4B,87,B3,54,96,D8,02,C1,
3759534,00000157,false,Rx,0,8,D5,DB,09,C4,FF,E0,00,80,
3761232,000001A1,false,Rx,0,8,B0,85,5C,13,15,8C,80,20,
3763154,000001C7,false,Rx,0,4,AA,A0,FF,C0,00,00,00,00,
3764479,00000423,false,Rx,0,8,0B,1D,00,02,B2,80,5D,D8,
3766263,0000019F,false,Rx,0,8,E1,E1,7D,0C,00,6A,50,FE,
3768961,00000155,false,Rx,0,8,4B,87,B4,54,96,D8,02,C1,
3769181,00000424,false,Rx,0,8,11,40,56,C8,33,5E,AA,34,
3769402,00000425,false,Rx,0,8,2A,BB,44,9C,42,18,CD,0A,
3769632,00000157,false,Rx,0,8,D5,2B,09,C4,FF,E0,00,80,
3769891,00000445,false,Rx,0,7,80,55,55,65,04,82,00,00,
3770096,00000426,false,Rx,0,8,00,60,01,00,53,18,00,40,
3771222,000001A1,false,Rx,0,8,B0,C5,5C,13,15,8C,80,20,
3773151,000001C7,false,Rx,0,4,AA,A0,FF,C0,00,00,00,00,
3776248,0000019F,false,Rx,0,8,E1,E1,7D,01,00,6A,50,FE,
3778973,00000155,false,Rx,0,8,4B,87,B4,54,96,D8,02,C1,
3779501,00000157,false,Rx,0,8,D5,7B,09,C4,FF,E0,00,80,
3781223,000001A1,false,Rx,0,8,B0,C5,5C,13,15,8C,80,20,
3783148,000001C7,false,Rx,0,4,AA,A0,FF,C0,00,00,00,00,
3784424,00000435,false,Rx,0,8,FF,FF,1E,0B,2E,2C,00,00,
3786249,0000019F,false,Rx,0,8,E1,E1,7D,06,00,6A,50,FE,
3786500,00000419,false,Rx,0,6,5E,6B,4A,E6,3E,00,00,00,
3788949,00000155,false,Rx,0,8,4B,87,B3,54,96,D8,02,C1,
3789452,00000157,false,Rx,0,8,D5,CB,09,C4,FF,E0,00,80,
3789653,00000436,false,Rx,0,6,86,16,64,3A,FF,DC,00,00,
3791227,000001A1,false,Rx,0,8,B0,C5,5C,13,15,8C,80,20,
3793150,000001C7,false,Rx,0,4,AA,A0,FF,C0,00,00,00,00,
3796249,0000019F,false,Rx,0,8,E1,E1,7D,0B,00,6A,50,FE,
3798975,00000155,false,Rx,0,8,4B,87,B4,54,96,D8,02,C1,
3799501,00000157,false,Rx,0,8,D5,1B,09,C4,FF,E0,00,80,
3801224,000001A1,false,Rx,0,8,B0,85,5C,13,15,8C,80,20,
3803174,000001C7,false,Rx,0,4,AA,A0,FF,C0,00,00,00,00,
3806249,0000019F,false,Rx,0,8,E1,E1,7D,00,00,6A,50,FE,
3809024,00000155,false,Rx,0,8,4B,87,B3,54,96,D8,02,C1,
3809501,00000157,false,Rx,0,8,D5,6B,09,C4,FF,E0,00,80,
3811249,000001A1,false,Rx,0,8,B0,C5,5C,13,15,8C,80,20,
3813173,000001C7,false,Rx,0,4,AA,A0,FF,C0,00,00,00,00,
3816250,0000019F,false,Rx,0,8,E1,E1,7D,05,00,6A,50,FE,
3819025,00000155,false,Rx,0,8,4B,87,B4,54,96,D8,02,C1,
3819527,00000157,false,Rx,0,8,D5,BB,09,C4,FF,E0,00,80,
3821248,000001A1,false,Rx,0,8,B0,C5,5C,13,15,8C,80,20,
3823249,000004F7,false,Rx,0,8,00,1A,08,00,90,30,06,F0,
3823425,000001C7,false,Rx,0,4,AA,A0,FF,C0,00,00,00,00,
3823670,00000428,false,Rx,0,8,00,00,00,7F,00,00,00,00,
3823829,0000042F,false,Rx,0,2,00,20,00,00,00,00,00,00,
3826238,0000019F,false,Rx,0,8,E1,E1,7D,0A,00,6A,50,FE,
3829015,00000155,false,Rx,0,8,4B,87,B4,54,96,D8,02,C1,
3829441,00000157,false,Rx,0,8,D5,0B,09,C4,FF,E0,00,80,
3831276,000001A1,false,Rx,0,8,B0,85,5C,13,15,8C,80,20,
3833193,000001C7,false,Rx,0,4,AA,A0,FF,C0,00,00,00,00,
3836274,0000019F,false,Rx,0,8,E1,E1,7D,0F,00,6A,50,FE,
3836531,00000511,false,Rx,0,7,00,38,83,8F,71,8D,43,00,
3839028,00000155,false,Rx,0,8,4B,87,B4,54,96,D8,02,C1,
3839477,00000157,false,Rx,0,8,D5,5B,09,C4,FF,E0,00,80,
3841248,000001A1,false,Rx,0,8,B0,C5,5C,13,15,8C,80,20,
3843196,000001C7,false,Rx,0,4,AA,A0,FF,C0,00,00,00,00,
3846253,0000019F,false,Rx,0,8,E1,E1,7D,04,00,6A,50,FE,
3848949,00000155,false,Rx,0,8,4B,87,B4,54,96,D8,02,C1,
3849519,00000157,false,Rx,0,8,D5,AB,09,C4,FF,E0,00,80,
3851226,000001A1,false,Rx,0,8,B0,C5,5C,13,15,8C,80,20,
3853190,000001C7,false,Rx,0,4,AA,A0,FF,C0,00,00,00,00,
3853357,00000500,false,Rx,0,5,02,6C,58,BB,0F,00,00,00,
3856242,0000019F,false,Rx,0,8,E1,E1,7D,09,00,6A,50,FE,
3858958,00000155,false,Rx,0,8,4B,87,B4,54,96,D8,02,C1,
3859445,00000157,false,Rx,0,8,D5,FB,09,C4,FF,E0,00,80,
3861254,000001A1,false,Rx,0,8,B0,85,48,13,15,8C,80,20,
3863193,000001C7,false,Rx,0,4,AA,A0,FF,C0,00,00,00,00,
3864489,00000423,false,Rx,0,8,0B,1D,00,02,5D,80,B2,D8,
3866241,0000019F,false,Rx,0,8,E1,E1,7D,0E,00,6A,50,FE,
3868940,00000155,false,Rx,0,8,4B,87,B4,54,96,D8,02,C1,
3869164,00000424,false,Rx,0,8,11,40,56,C8,33,5E,55,34,
3869388,00000425,false,Rx,0,8,2A,BB,44,9C,42,18,CD,0A,
3869639,00000157,false,Rx,0,8,D5,4B,09,C4,FF,E0,00,80,
3869881,00000445,false,Rx,0,7,80,55,AA,65,04,82,00,00,
3870079,00000426,false,Rx,0,8,00,60,01,00,53,18,00,40,
3871244,000001A1,false,Rx,0,8,B0,C5,5C,13,15,8C,80,20,
3873049,0000069F,false,Rx,0,4,71,30,28,2F,00,00,00,00,
3873200,000001C7,false,Rx,0,4,AA,A0,FF,C0,00,00,00,00,
3876249,0000019F,false,Rx,0,8,E1,E1,7D,03,00,6A,50,FE,
3878950,00000155,false,Rx,0,8,4B,87,B4,54,96,D8,02,C1,
3879476,00000157,false,Rx,0,8,D5,9B,09,C4,FF,E0,00,80,
3881223,000001A1,false,Rx,0,8,B0,C5,48,13,15,8C,80,20,
3883201,000001C7,false,Rx,0,4,AA,A0,FF,C0,00,00,00,00,
3884374,00000435,false,Rx,0,8,FF,FF,1E,0B,2E,2C,00,00,
3886250,0000019F,false,Rx,0,8,E1,E1,7D,08,00,6A,50,FE,
3886501,00000419,false,Rx,0,6,5E,6B,4A,E6,3E,00,00,00,
3888949,00000155,false,Rx,0,8,4B,87,B4,54,96,D8,02,C1,
3889502,00000157,false,Rx,0,8,D5,EB,09,C4,FF,E0,00,80,
3889706,00000436,false,Rx,0,6,86,16,64,3A,FF,DC,00,00,
3891228,000001A1,false,Rx,0,8,B0,85,5C,13,15,8C,80,20,
3893227,000001C7,false,Rx,0,4,AA,A0,FF,C0,00,00,00,00,
3896246,0000019F,false,Rx,0,8,E1,E1,7D,0D,00,6A,50,FE,
3898972,00000155,false,Rx,0,8,4B,87,B4,54,96,D8,02,C1,
3899473,00000157,false,Rx,0,8,D5,3B,09,C4,FF,E0,00,80,
3901234,000001A1,false,Rx,0,8,B0,C5,5C,13,15,8C,80,20,
3903207,000001C7,false,Rx,0,4,AA,A0,FF,C0,00,00,00,00,
3906230,0000019F,false,Rx,0,8,E1,E1,7D,02,00,6A,50,FE,
3909057,00000155,false,Rx,0,8,4B,87,B4,54,96,D8,02,C1,
3909480,00000157,false,Rx,0,8,D5,8B,09,C4,FF,E0,00,80,
3911229,000001A1,false,Rx,0,8,B0,C5,5C,13,15,8C,80,20,
3913206,000001C7,false,Rx,0,4,AA,A0,FF,C0,00,00,00,00,
3916265,0000019F,false,Rx,0,8,E1,E1,7D,07,00,6A,50,FE,
3919127,00000155,false,Rx,0,8,4C,87,B3,54,96,D8,02,C1,
3919595,00000157,false,Rx,0,8,D5,DB,09,C4,FF,E0,00,80,
3921265,000001A1,false,Rx,0,8,B0,C5,5C,13,15,8C,80,20,
3923320,000004F7,false,Rx,0,8,00,1A,08,00,90,30,06,F0,
3923498,000001C7,false,Rx,0,4,AA,A0,FF,C0,00,00,00,00,
3923750,00000428,false,Rx,0,8,00,00,00,7F,00,00,00,00,
3923944,0000042F,false,Rx,0,2,00,20,00,00,00,00,00,00,
3926493,0000019F,false,Rx,0,8,E1,E1,7D,0C,00,6A,50,FE,
3929116,00000155,false,Rx,0,8,4C,87,B4,54,96,D8,02,C1,
3929638,00000157,false,Rx,0,8,D5,2B,09,C4,FF,E0,00,80,
3931388,000001A1,false,Rx,0,8,B0,C5,5C,13,15,8C,80,20,
3933390,000001C7,false,Rx,0,4,AA,A0,FF,C0,00,00,00,00,
3936301,0000019F,false,Rx,0,8,E1,E1,7D,01,00,6A,50,FE,
3936556,00000511,false,Rx,0,7,00,77,4C,48,DC,9A,26,00,
3939035,00000155,false,Rx,0,8,4C,87,B4,54,96,D8,02,C1,
3939694,00000157,false,Rx,0,8,D5,7B,09,C4,FF,E0,00,80,
3941404,000001A1,false,Rx,0,8,B0,C5,5C,13,15,8C,80,20,
3943298,000001C7,false,Rx,0,4,AA,A0,FF,C0,00,00,00,00,
3946300,0000019F,false,Rx,0,8,E1,E1,7D,06,00,6A,50,FE,
3949074,00000155,false,Rx,0,8,4C,87,B4,54,96,D8,02,C1,
3949689,00000157,false,Rx,0,8,D5,CB,09,C4,FF,E0,00,80,
3951391,000001A1,false,Rx,0,8,B0,C5,5C,13,15,8C,80,20,
3953213,00000500,false,Rx,0,5,02,1C,32,94,45,00,00,00,
3953230,000001C7,false,Rx,0,4,AA,A0,FF,C0,00,00,00,00,
3956399,0000019F,false,Rx,0,8,E1,E1,7D,0B,00,6A,50,FE,
3959195,00000155,false,Rx,0,8,4C,87,B4,54,96,D8,02,C1,
3959672,00000157,false,Rx,0,8,D5,1B,09,C4,FF,E0,00,80,
3961503,000001A1,false,Rx,0,8,B0,C5,5C,13,15,8C,80,20,
3963526,000001C7,false,Rx,0,4,AA,A0,FF,C0,00,00,00,00,
3964715,00000423,false,Rx,0,8,0B,1D,00,02,5D,80,B2,D8,
3966256,0000019F,false,Rx,0,8,E1,E1,7D,00,00,6A,50,FE,
3969111,00000155,false,Rx,0,8,4C,87,B4,54,96,D8,02,C1,
3969173,00000424,false,Rx,0,8,11,40,56,C8,33,5E,55,34,
3969469,00000425,false,Rx,0,8,2A,BB,44,9C,42,18,CD,0B,
3969692,00000157,false,Rx,0,8,D5,6B,09,C4,FF,E0,00,80,
3969916,00000445,false,Rx,0,7,80,55,AA,65,04,82,00,00,
3970117,00000426,false,Rx,0,8,00,60,01,00,53,18,00,40,
3971488,000001A1,false,Rx,0,8,B0,C5,5C,13,15,8C,80,20,
3973524,000001C7,false,Rx,0,4,AA,A0,FF,C0,00,00,00,00,
3976507,0000019F,false,Rx,0,8,E1,E1,7D,05,00,6A,50,FE,
3978948,00000155,false,Rx,0,8,4C,87,B4,54,96,D8,02,C1,
3979604,00000157,false,Rx,0,8,D5,BB,09,C4,FF,E0,00,80,
3981499,000001A1,false,Rx,0,8,B0,C5,5C,13,15,8C,80,20,
3983269,000001C7,false,Rx,0,4,AA,A0,FF,C0,00,00,00,00,
3984491,00000435,false,Rx,0,8,FF,FF,1E,0B,2E,30,00,00,
3986501,0000019F,false,Rx,0,8,E1,E1,7D,0A,00,6A,50,FE,
3986509,00000419,false,Rx,0,6,5E,6A,4A,E6,3E,00,00,00,
3989201,00000155,false,Rx,0,8,4C,87,B4,54,96,D8,02,C1,
3989536,00000157,false,Rx,0,8,D5,0B,09,C4,FF,E0,00,80,
3989669,00000436,false,Rx,0,6,86,16,64,3A,FF,DC,00,00,
3991401,000001A1,false,Rx,0,8,B0,C5,5C,13,15,8C,80,20,
3993529,000001C7,false,Rx,0,4,AA,A0,FF,C0,00,00,00,00,
3996255,0000019F,false,Rx,0,8,E1,E1,7D,0F,00,6A,50,FE,
3999116,00000155,false,Rx,0,8,4C,87,B4,54,96,D8,02,C1,
3999605,00000157,false,Rx,0,8,D5,5B,09,C4,FF,E0,00,80,
4001498,000001A1,false,Rx,0,8,B0,C5,5C,13,15,8C,80,20,
4003554,000001C7,false,Rx,0,4,AA,A0,FF,C0,00,00,00,00,
4006504,0000019F,false,Rx,0,8,E1,E1,7D,04,00,6A,50,FE,
4009183,00000155,false,Rx,0,8,4C,87,B4,54,96,D8,02,C1,
4009490,00000157,false,Rx,0,8,D5,AB,09,C4,FF,E0,00,80,
4011504,000001A1,false,Rx,0,8,B0,85,5C,13,15,8C,80,20,
4013342,000001C7,false,Rx,0,4,AA,A0,FF,C0,00,00,00,00,
4016256,0000019F,false,Rx,0,8,E1,E1,7D,09,00,6A,50,FE,
4019067,00000155,false,Rx,0,8,4C,87,B4,54,96,D8,02,C1,
4019593,00000157,false,Rx,0,8,D5,FB,09,C4,FF,E0,00,80,
4021286,000001A1,false,Rx,0,8,B0,C5,5C,13,15,8C,80,20,
4023412,000004F7,false,Rx,0,8,00,1A,08,00,90,30,06,F0,
4023570,000001C7,false,Rx,0,4,AA,A0,FF,C0,00,00,00,00,
4023817,00000428,false,Rx,0,8,00,00,00,7F,00,00,00,00,
4024011,0000042F,false,Rx,0,2,00,20,00,00,00,00,00,00,
4026290,0000019F,false,Rx,0,8,E1,E1,7D,0E,00,6A,50,FE,
4029037,00000155,false,Rx,0,8,4C,87,B4,54,96,D8,02,C1,
4029565,00000157,false,Rx,0,8,D5,4B,09,C4,FF,E0,00,80,
4031289,000001A1,false,Rx,0,8,B0,C5,5C,13,15,8C,80,20,
4033337,000001C7,false,Rx,0,4,AA,A0,FF,C0,00,00,00,00,
4036288,0000019F,false,Rx,0,8,E1,E1,7D,03,00,6A,50,FE,
4036565,00000511,false,Rx,0,7,00,B6,15,01,47,A7,09,00,
4038976,00000155,false,Rx,0,8,4C,87,B4,54,96,D8,02,C1,
4039599,00000157,false,Rx,0,8,D5,9B,09,C4,FF,E0,00,80,
4041256,000001A1,false,Rx,0,8,B0,85,5C,13,15,8C,80,20,
4043302,000001C7,false,Rx,0,4,AA,A0,FF,C0,00,00,00,00,
4046288,0000019F,false,Rx,0,8,E1,E1,7D,08,00,6A,50,FE,
4049012,00000155,false,Rx,0,8,4C,87,B4,54,96,D8,02,C1,
4049592,00000157,false,Rx,0,8,D5,EB,09,C4,FF,E0,00,80,
4051287,000001A1,false,Rx,0,8,B0,C5,5C,13,15,8C,80,20,
4053112,00000500,false,Rx,0,5,02,72,95,DA,A0,00,00,00,
4053342,000001C7,false,Rx,0,4,AA,A0,FF,C0,00,00,00,00,
4056240,0000019F,false,Rx,0,8,E1,E1,7D,0D,00,6A,50,FE,
4058998,00000155,false,Rx,0,8,4C,87,B4,54,96,D8,02,C1,
4059540,00000157,false,Rx,0,8,D5,3B,09,C4,FF,E0,00,80,
4061286,000001A1,false,Rx,0,8,B0,C5,5C,13,15,8C,80,20,
4063364,000001C7,false,Rx,0,4,AA,A0,FF,C0,00,00,00,00,
4064527,00000423,false,Rx,0,8,0B,1D,00,02,5D,80,B2,D8,
4066288,0000019F,false,Rx,0,8,E1,E1,7D,02,00,6A,50,FE,
4068924,00000155,false,Rx,0,8,4C,87,B4,54,96,D8,02,C1,
4069206,00000424,false,Rx,0,8,11,40,56,C8,33,5E,55,34,
4069396,00000425,false,Rx,0,8,2A,BB,44,9C,42,18,CD,0B,
4069659,00000157,false,Rx,0,8,D5,8B,09,C4,FF,E0,00,80,
4069818,00000445,false,Rx,0,7,80,55,AA,65,04,82,00,00,
4070065,00000426,false,Rx,0,8,00,60,01,00,53,18,00,40,
4071277,000001A1,false,Rx,0,8,B0,85,5C,13,15,8C,80,20,
4073323,000001C7,false,Rx,0,4,AA,A0,FF,C0,00,00,00,00,
4076277,0000019F,false,Rx,0,8,E1,E1,7D,07,00,6A,50,FE,
4078956,00000155,false,Rx,0,8,4C,87,B4,54,96,D8,02,C1,
4079477,00000157,false,Rx,0,8,D5,DB,09,C4,FF,E0,00,80,
4081270,000001A1,false,Rx,0,8,B0,C5,5C,13,15,8C,80,20,
4083350,000001C7,false,Rx,0,4,AA,A0,FF,C0,00,00,00,00,
4084423,00000435,false,Rx,0,8,FF,FF,1E,0B,2E,30,00,00,
4086249,0000019F,false,Rx,0,8,E1,E1,7D,0C,00,6A,50,FE,
4086502,00000419,false,Rx,0,6,5E,6A,4A,E6,3E,00,00,00,
4088929,00000155,false,Rx,0,8,4C,87,B4,54,96,D8,02,C1,
4089552,00000157,false,Rx,0,8,D5,2B,09,C4,FF,E0,00,80,
4089754,00000436,false,Rx,0,6,86,16,64,3A,FF,DC,00,00,
4091246,000001A1,false,Rx,0,8,B0,C5,5C,13,15,8C,80,20,
4093347,000001C7,false,Rx,0,4,AA,A0,FF,C0,00,00,00,00,
4096244,0000019F,false,Rx,0,8,E1,E1,7D,01,00,6A,50,FE,
4098943,00000155,false,Rx,0,8,4C,87,B4,54,96,D8,02,C1,
4099543,00000157,false,Rx,0,8,D5,7B,09,C4,FF,E0,00,80,
4101248,000001A1,false,Rx,0,8,B0,C5,5C,13,15,8C,80,20,
4103341,000001C7,false,Rx,0,4,AA,A0,FF,C0,00,00,00,00,
4106238,0000019F,false,Rx,0,8,E1,E1,7D,06,00,6A,50,FE,
4109043,00000155,false,Rx,0,8,4C,87,B4,54,96,D8,02,C1,
4109487,00000157,false,Rx,0,8,D5,CB,09,C4,FF,E0,00,80,
4111237,000001A1,false,Rx,0,8,B0,85,5C,13,15,8C,80,20,
4113338,000001C7,false,Rx,0,4,AA,A0,FF,C0,00,00,00,00,
4116240,0000019F,false,Rx,0,8,E1,E1,7D,0B,00,6A,50,FE,
4118964,00000155,false,Rx,0,8,4C,87,B4,54,96,D8,02,C1,
4119511,00000157,false,Rx,0,8,D5,1B,09,C4,FF,E0,00,80,
4121238,000001A1,false,Rx,0,8,B0,C5,5C,13,15,8C,80,20,
4123413,000004F7,false,Rx,0,8,00,1A,08,00,90,30,06,F0,
4123585,000001C7,false,Rx,0,4,AA,A0,FF,C0,00,00,00,00,
4123878,00000428,false,Rx,0,8,00,00,00,7F,00,00,00,00,
4124024,0000042F,false,Rx,0,2,00,20,00,00,00,00,00,00,
4126239,0000019F,false,Rx,0,8,E1,E1,7D,00,00,6A,50,FE,
4128990,00000155,false,Rx,0,8,4C,87,B4,54,96,D8,02,C1,
4129538,00000157,false,Rx,0,8,D5,6B,09,C4,FF,E0,00,80,
4131237,000001A1,false,Rx,0,8,B0,C5,5C,13,15,8C,80,20,
4133362,000001C7,false,Rx,0,4,AA,A0,FF,C0,00,00,00,00,
4136237,0000019F,false,Rx,0,8,E1,E1,7D,05,00,6A,50,FE,
4136508,00000511,false,Rx,0,7,00,F5,DE,BA,B2,B4,EC,00,
4138989,00000155,false,Rx,0,8,4C,87,B4,54,96,D8,02,C1,
4139459,00000157,false,Rx,0,8,D5,BB,09,C4,FF,E0,00,80,
4141273,000001A1,false,Rx,0,8,B0,85,5C,13,15,8C,80,20,
4143365,000001C7,false,Rx,0,4,AA,A0,FF,C0,00,00,00,00,
4146241,0000019F,false,Rx,0,8,E1,E1,7D,0A,00,6A,50,FE,
4148996,00000155,false,Rx,0,8,4C,87,B4,54,96,D8,02,C1,
4149489,00000157,false,Rx,0,8,D5,0B,09,C4,FF,E0,00,80,
4151239,000001A1,false,Rx,0,8,B0,C5,5C,13,15,8C,80,20,
4153343,00000500,false,Rx,0,5,02,D3,67,68,C3,00,00,00,
4153513,000001C7,false,Rx,0,4,AA,A0,FF,C0,00,00,00,00,
4156242,0000019F,false,Rx,0,8,E1,E1,7D,0F,00,6A,50,FE,
4158925,00000155,false,Rx,0,8,4C,87,B4,54,96,D8,02,C1,
4159519,00000157,false,Rx,0,8,D5,5B,09,C4,FF,E0,00,80,
4161242,000001A1,false,Rx,0,8,B0,C5,5C,13,15,8C,80,20,
4163388,000001C7,false,Rx,0,4,AA,A0,FF,C0,00,00,00,00,
4164463,00000423,false,Rx,0,8,0B,1D,00,02,5D,80,B2,D8,
4166243,0000019F,false,Rx,0,8,E1,E1,7D,04,00,6A,50,FE,
4168917,00000155,false,Rx,0,8,4C,87,B4,54,96,D8,02,C1,
4169173,00000424,false,Rx,0,8,11,40,56,C8,33,5E,55,34,
4169384,00000425,false,Rx,0,8,2A,BB,44,9C,42,18,CD,0B,
4169610,00000157,false,Rx,0,8,D5,AB,09,C4,FF,E0,00,80,
4169810,00000445,false,Rx,0,7,80,55,AA,65,04,82,00,00,
4170058,00000426,false,Rx,0,8,00,60,01,00,53,18,00,40,
4171239,000001A1,false,Rx,0,8,B0,C5,5C,13,15,8C,80,20,
4173390,000001C7,false,Rx,0,4,AA,A0,FF,C0,00,00,00,00,
4176241,0000019F,false,Rx,0,8,E1,E1,7D,09,00,6A,50,FE,
4178945,00000155,false,Rx,0,8,4C,87,B4,54,96,D8,02,C1,
4179462,00000157,false,Rx,0,8,D5,FB,09,C4,FF,E0,00,80,
4181242,000001A1,false,Rx,0,8,B0,C5,5C,13,15,8C,80,20,
4183392,000001C7,false,Rx,0,4,AA,A0,FF,C0,00,00,00,00,
4184440,00000435,false,Rx,0,8,FF,FF,1E,0B,2E,30,00,00,
4186246,0000019F,false,Rx,0,8,E1,E1,7D,0E,00,6A,50,FE,
4186488,00000419,false,Rx,0,6,5E,6A,4A,E6,3E,00,00,00,
4188954,00000155,false,Rx,0,8,4C,87,B4,54,96,D8,02,C1,
4189464,00000157,false,Rx,0,8,D5,4B,09,C4,FF,E0,00,80,
4189662,00000436,false,Rx,0,6,86,16,64,3A,FF,DC,00,00,
4191242,000001A1,false,Rx,0,8,B0,C5,5C,13,15,8C,80,20,
4193387,000001C7,false,Rx,0,4,AA,A0,FF,C0,00,00,00,00,
4196242,0000019F,false,Rx,0,8,E1,E1,7D,03,00,6A,50,FE,
4198938,00000155,false,Rx,0,8,4C,87,B4,54,96,D8,02,C1,
4199485,00000157,false,Rx,0,8,D5,9B,09,C4,FF,E0,00,80,
4201238,000001A1,false,Rx,0,8,B0,C5,5C,13,15,8C,80,20,
4203389,000001C7,false,Rx,0,4,AA,A0,FF,C0,00,00,00,00,
4206240,0000019F,false,Rx,0,8,E1,E1,7D,08,00,6A,50,FE,
4209016,00000155,false,Rx,0,8,4C,87,B3,54,96,D8,02,C2,
4209461,00000157,false,Rx,0,8,D5,EB,09,C4,FF,E0,00,80,
4211244,000001A1,false,Rx,0,8,B0,C5,5C,13,15,8C,80,20,
4213418,000001C7,false,Rx,0,4,AA,A0,FF,C0,00,00,00,00,
4216267,0000019F,false,Rx,0,8,E1,E1,7D,0D,00,6A,50,FE,
4218991,00000155,false,Rx,0,8,4C,87,B4,54,96,D8,02,C2,
4219537,00000157,false,Rx,0,8,D5,3B,09,C4,FF,E0,00,80,
4221216,000001A1,false,Rx,0,8,B0,85,5C,13,15,8C,80,20,
4223489,000004F7,false,Rx,0,8,00,1A,08,00,90,30,06,F0,
4223636,000001C7,false,Rx,0,4,AA,A0,FF,C0,00,00,00,00,
4223914,00000428,false,Rx,0,8,00,00,00,7F,00,00,00,00,
4224035,0000042F,false,Rx,0,2,00,20,00,00,00,00,00,00,
4226238,0000019F,false,Rx,0,8,E1,E1,7D,02,00,6A,50,FE,
4228993,00000155,false,Rx,0,8,4C,87,B4,54,96,D8,02,C2,
4229539,00000157,false,Rx,0,8,D5,8B,09,C4,FF,E0,00,80,
4231239,000001A1,false,Rx,0,8,B0,C5,5C,13,15,8C,80,20,
4233393,000001C7,false,Rx,0,4,AA,A0,FF,C0,00,00,00,00,
4236241,0000019F,false,Rx,0,8,E1,E1,7D,07,00,6A,50,FE,
4236510,00000511,false,Rx,0,7,00,34,A7,73,1D,C1,CF,00,
4239017,00000155,false,Rx,0,8,4C,87,B4,54,96,D8,02,C2,
4239537,00000157,false,Rx,0,8,D5,DB,09,C4,FF,E0,00,80,
4241242,000001A1,false,Rx,0,8,B0,C5,5C,13,15,8C,80,20,
4243392,000001C7,false,Rx,0,4,AA,A0,FF,C0,00,00,00,00,
4246244,0000019F,false,Rx,0,8,E1,E1,7D,0C,00,6A,50,FE,
4248918,00000155,false,Rx,0,8,4C,87,B4,54,96,D8,02,C2,
4249513,00000157,false,Rx,0,8,D5,2B,09,C4,FF,E0,00,80,
4251245,000001A1,false,Rx,0,8,B0,85,48,13,15,8C,80,20,
4253145,00000500,false,Rx,0,5,02,7F,F0,4E,B1,00,00,00,
4253389,000001C7,false,Rx,0,4,AA,A0,FF,C0,00,00,00,00,
4256244,0000019F,false,Rx,0,8,E1,E1,7D,01,00,6A,50,FE,
4258944,00000155,false,Rx,0,8,4C,87,B4,54,96,D8,02,C2,
4259462,00000157,false,Rx,0,8,D5,7B,09,C4,FF,E0,00,80,
4261164,000001A1,false,Rx,0,8,B0,C5,5C,13,15,8C,80,20,
4263389,000001C7,false,Rx,0,4,AA,A0,FF,C0,00,00,00,00,
4264390,00000423,false,Rx,0,8,0B,1D,00,02,5D,80,B2,D8,
4266164,0000019F,false,Rx,0,8,E1,E1,7D,06,00,6A,50,FE,
4268915,00000155,false,Rx,0,8,4C,87,B4,54,96,D8,02,C2,
4269135,00000424,false,Rx,0,8,11,40,56,C8,33,5E,55,34,
4269385,00000425,false,Rx,0,8,2A,BB,44,9C,42,18,CD,0B,
4269610,00000157,false,Rx,0,8,D5,CB,09,C4,FF,E0,00,80,
4269809,00000445,false,Rx,0,7,80,55,AA,65,04,82,00,00,
4270058,00000426,false,Rx,0,8,00,60,01,00,53,18,00,40,
4271136,000001A1,false,Rx,0,8,B0,C5,5C,13,15,8C,80,20,
4273414,000001C7,false,Rx,0,4,AA,A0,FF,C0,00,00,00,00,
4276161,0000019F,false,Rx,0,8,E1,E1,7D,0B,00,6A,50,FE,
4278912,00000155,false,Rx,0,8,4C,87,B4,54,96,D8,02,C2,
4279486,00000157,false,Rx,0,8,D5,1B,09,C4,FF,E0,00,80,
4281163,000001A1,false,Rx,0,8,B0,85,5C,13,15,8C,80,20,
4283414,000001C7,false,Rx,0,4,AA,A0,FF,C0,00,00,00,00,
4284440,00000435,false,Rx,0,8,FF,FF,1E,0B,2E,30,00,00,
4286162,0000019F,false,Rx,0,8,E1,E1,7D,00,00,6A,50,FE,
4286414,00000419,false,Rx,0,6,5E,69,4A,E6,3E,00,00,00,
4288914,00000155,false,Rx,0,8,4C,87,B3,54,96,D8,02,C2,
4289437,00000157,false,Rx,0,8,D5,6B,09,C4,FF,E0,00,80,
4289635,00000436,false,Rx,0,6,86,16,64,3A,FF,DC,00,00,
4291163,000001A1,false,Rx,0,8,B0,C5,5C,13,15,8C,80,20,
4293414,000001C7,false,Rx,0,4,AA,A0,FF,C0,00,00,00,00,
4296165,0000019F,false,Rx,0,8,E1,E1,7D,05,00,6A,50,FE,
4298939,00000155,false,Rx,0,8,4C,87,B4,54,96,D8,02,C2,
4299436,00000157,false,Rx,0,8,D5,BB,09,C4,FF,E0,00,80,
4301137,000001A1,false,Rx,0,8,B0,C5,5C,13,15,8C,80,20,
4303413,000001C7,false,Rx,0,4,AA,A0,FF,C0,00,00,00,00,
4306164,0000019F,false,Rx,0,8,E1,E1,7D,0A,00,6A,50,FE,
4309038,00000155,false,Rx,0,8,4C,87,B4,54,96,D8,02,C2,
4309436,00000157,false,Rx,0,8,D5,0B,09,C4,FF,E0,00,80,
4311137,000001A1,false,Rx,0,8,B0,C5,5C,13,15,8C,80,20,
4313418,000001C7,false,Rx,0,4,AA,A0,FF,C0,00,00,00,00,
4316138,0000019F,false,Rx,0,8,E1,E1,7D,0F,00,6A,50,FE,
4318964,00000155,false,Rx,0,8,4C,87,B4,54,96,D8,02,C2,
4319509,00000157,false,Rx,0,8,D5,5B,09,C4,FF,E0,00,80,
4321133,000001A1,false,Rx,0,8,B0,C5,5C,13,15,8C,80,20,
4323486,000004F7,false,Rx,0,8,00,1A,08,00,90,30,06,F0,
4323683,000001C7,false,Rx,0,4,AA,A0,FF,C0,00,00,00,00,
4323958,00000428,false,Rx,0,8,00,00,00,7F,00,00,00,00,
4324082,0000042F,false,Rx,0,2,00,20,00,00,00,00,00,00,
4326160,0000019F,false,Rx,0,8,E1,E1,7D,04,00,6A,50,FE,
4328938,00000155,false,Rx,0,8,4C,87,B4,54,96,D8,02,C2,
4329461,00000157,false,Rx,0,8,D5,AB,09,C4,FF,E0,00,80,
4331142,000001A1,false,Rx,0,8,B0,C5,5C,13,15,8C,80,20,
4333441,000001C7,false,Rx,0,4,AA,A0,FF,C0,00,00,00,00,
4336139,0000019F,false,Rx,0,8,E1,E1,7D,09,00,6A,50,FE,
4336411,00000511,false,Rx,0,7,00,73,70,2C,88,CE,B2,00,
4338991,00000155,false,Rx,0,8,4C,87,B4,54,96,D8,02,C2,
4339485,00000157,false,Rx,0,8,D5,FB,09,C4,FF,E0,00,80,
4341161,000001A1,false,Rx,0,8,B0,C5,5C,13,15,8C,80,20,
4343441,000001C7,false,Rx,0,4,AA,A0,FF,C0,00,00,00,00,
4346166,0000019F,false,Rx,0,8,E1,E1,7D,0E,00,6A,50,FE,
4348992,00000155,false,Rx,0,8,4C,87,B4,54,96,D8,02,C2,
4349436,00000157,false,Rx,0,8,D5,4B,09,C4,FF,E0,00,80,
4351163,000001A1,false,Rx,0,8,B0,C5,5C,13,15,8C,80,20,
4353140,00000500,false,Rx,0,5,02,F8,74,09,4E,00,00,00,
4353437,000001C7,false,Rx,0,4,AA,A0,FF,C0,00,00,00,00,
4356164,0000019F,false,Rx,0,8,E1,E1,7D,03,00,6A,50,FE,
4358915,00000155,false,Rx,0,8,4C,87,B4,54,96,D8,02,C2,
4359487,00000157,false,Rx,0,8,D5,9B,09,C4,FF,E0,00,80,
4361138,000001A1,false,Rx,0,8,B0,85,48,13,15,8C,80,20,
4363438,000001C7,false,Rx,0,4,AA,A0,FF,C0,00,00,00,00,
4364434,00000423,false,Rx,0,8,0B,1D,00,02,B2,80,5D,D8,
4366160,0000019F,false,Rx,0,8,E1,E1,7D,08,00,6A,50,FE,
4368911,00000155,false,Rx,0,8,4C,87,B3,54,96,D8,02,C2,
4369133,00000424,false,Rx,0,8,11,40,56,C8,33,5E,AA,34,
4369358,00000425,false,Rx,0,8,2A,BB,44,9C,42,18,CD,0B,
4369609,00000157,false,Rx,0,8,D5,EB,09,C4,FF,E0,00,80,
4369809,00000445,false,Rx,0,7,80,55,55,65,04,82,00,00,
4370057,00000426,false,Rx,0,8,00,60,01,00,53,18,00,40,
4371165,000001A1,false,Rx,0,8,B0,C5,5C,13,15,8C,80,20,
4373465,000001C7,false,Rx,0,4,AA,A0,FF,C0,00,00,00,00,
4376165,0000019F,false,Rx,0,8,E1,E1,7D,0D,00,6A,50,FE,
4378913,00000155,false,Rx,0,8,4C,87,B4,54,96,D8,02,C2,
4379513,00000157,false,Rx,0,8,D5,3B,09,C4,FF,E0,00,80,
4381141,000001A1,false,Rx,0,8,B0,C5,5C,13,15,8C,80,20,
4383467,000001C7,false,Rx,0,4,AA,A0,FF,C0,00,00,00,00,
4384363,00000435,false,Rx,0,8,FF,FF,1E,0B,2E,30,00,00,
4386170,0000019F,false,Rx,0,8,E1,E1,7D,02,00,6A,50,FE,
4386411,00000419,false,Rx,0,6,5E,69,4A,E6,3E,00,00,00,
4388920,00000155,false,Rx,0,8,4C,87,B4,54,96,D8,02,C2,
4389495,00000157,false,Rx,0,8,D5,8B,09,C4,FF,E0,00,80,
4389698,00000436,false,Rx,0,6,86,16,64,3A,FF,DC,00,00,
4391174,000001A1,false,Rx,0,8,B0,85,48,13,15,8C,80,20,
4393465,000001C7,false,Rx,0,4,AA,A0,FF,C0,00,00,00,00,
4396166,0000019F,false,Rx,0,8,E1,E1,7D,07,00,6A,50,FE,
4398947,00000155,false,Rx,0,8,4C,87,B4,54,96,D8,02,C2,
4399414,00000157,false,Rx,0,8,D5,DB,09,C4,FF,E0,00,80,
4401141,000001A1,false,Rx,0,8,B0,85,5C,13,15,8C,80,20,
4403465,000001C7,false,Rx,0,4,AA,A0,FF,C0,00,00,00,00,
4406168,0000019F,false,Rx,0,8,E1,E1,7D,0C,00,6A,50,FE,
4408987,00000155,false,Rx,0,8,4C,87,B4,54,96,D8,02,C2,
4409460,00000157,false,Rx,0,8,D5,2B,09,C4,FF,E0,00,80,
4411176,000001A1,false,Rx,0,8,B0,C5,5C,13,15,8C,80,20,
4413486,000001C7,false,Rx,0,4,AA,A0,FF,C0,00,00,00,00,
4416161,0000019F,false,Rx,0,8,E1,E1,7D,01,00,6A,50,FE,
4418985,00000155,false,Rx,0,8,4C,87,B4,54,96,D8,02,C2,
4419448,00000157,false,Rx,0,8,D5,7B,09,C4,FF,E0,00,80,
4421136,000001A1,false,Rx,0,8,B0,C5,48,13,15,8C,80,20,
4423551,000004F7,false,Rx,0,8,00,1A,08,00,90,30,06,F0,
4423745,000001C7,false,Rx,0,4,AA,A0,FF,C0,00,00,00,00,
4424015,00000428,false,Rx,0,8,00,00,00,7F,00,00,00,00,
4424170,0000042F,false,Rx,0,2,00,20,00,00,00,00,00,00,
4426168,0000019F,false,Rx,0,8,E1,E1,7D,06,00,6A,50,FE,
4429028,00000155,false,Rx,0,8,4C,87,B4,54,96,D8,02,C2,
4429480,00000157,false,Rx,0,8,D5,CB,09,C4,FF,E0,00,80,
4431165,000001A1,false,Rx,0,8,B0,85,5C,13,15,8C,80,20,
4433526,000001C7,false,Rx,0,4,AA,A0,FF,C0,00,00,00,00,
4436161,0000019F,false,Rx,0,8,E1,E1,7D,0B,00,6A,50,FE,
4436417,00000511,false,Rx,0,7,00,B2,39,E5,F3,DB,95,00,
4438941,00000155,false,Rx,0,8,4C,87,B4,54,96,D8,02,C2,
4439548,00000157,false,Rx,0,8,D5,1B,09,C4,FF,E0,00,80,
4441143,000001A1,false,Rx,0,8,B0,C5,5C,13,15,8C,80,20,
4443493,000001C7,false,Rx,0,4,AA,A0,FF,C0,00,00,00,00,
4446161,0000019F,false,Rx,0,8,E1,E1,7D,00,00,6A,50,FE,
4448956,00000155,false,Rx,0,8,4C,87,B4,54,96,D8,02,C2,
4449461,00000157,false,Rx,0,8,D5,6B,09,C4,FF,E0,00,80,
4451134,000001A1,false,Rx,0,8,B0,C5,5C,13,15,8C,80,20,
4453413,00000500,false,Rx,0,5,02,BA,4E,FC,9D,00,00,00,
4453585,000001C7,false,Rx,0,4,AA,A0,FF,C0,00,00,00,00,
4456138,0000019F,false,Rx,0,8,E1,E1,7D,05,00,6A,50,FE,
4458920,00000155,false,Rx,0,8,4C,87,B4,54,96,D8,02,C2,
4459545,00000157,false,Rx,0,8,D5,BB,09,C4,FF,E0,00,80,
4461137,000001A1,false,Rx,0,8,B0,85,5C,13,15,8C,80,20,
4463513,000001C7,false,Rx,0,4,AA,A0,FF,C0,00,00,00,00,
4464460,00000423,false,Rx,0,8,0B,1D,00,02,B2,80,5D,D8,
4466162,0000019F,false,Rx,0,8,E1,E1,7D,0A,00,6A,50,FE,
4468910,00000155,false,Rx,0,8,4C,87,B4,54,96,D8,02,C2,
4469135,00000424,false,Rx,0,8,11,40,56,C8,33,5E,AA,34,
4469360,00000425,false,Rx,0,8,2A,BB,44,9C,42,18,CD,0A,
4469609,00000157,false,Rx,0,8,D5,0B,09,C4,FF,E0,00,80,
4469815,00000445,false,Rx,0,7,80,55,55,65,04,82,00,00,
4470065,00000426,false,Rx,0,8,00,60,01,00,53,18,00,40,
4471142,000001A1,false,Rx,0,8,B0,C5,48,13,15,8C,80,20,
4473546,000001C7,false,Rx,0,4,AA,A0,FF,C0,00,00,00,00,
4476303,0000019F,false,Rx,0,8,E1,E1,7D,0F,00,6A,50,FE,
4479023,00000155,false,Rx,0,8,4C,87,B4,54,96,D8,02,C2,
4479712,00000157,false,Rx,0,8,D5,5B,09,C4,FF,E0,00,80,
4481408,000001A1,false,Rx,0,8,B0,C5,48,13,15,8C,80,20,
4483710,000001C7,false,Rx,0,4,AA,A0,FF,C0,00,00,00,00,
4484627,00000435,false,Rx,0,8,FF,FF,1E,0B,2E,30,00,00,
4486307,0000019F,false,Rx,0,8,E1,E1,7D,04,00,6A,50,FE,
4486473,00000419,false,Rx,0,6,5E,69,4A,E6,3E,00,00,00,
4489141,00000155,false,Rx,0,8,4C,87,B4,54,96,D8,02,C2,
4489708,00000157,false,Rx,0,8,D5,AB,09,C4,FF,E0,00,80,
4489715,00000436,false,Rx,0,6,86,16,64,3A,FF,DC,00,00,
4491196,000001A1,false,Rx,0,8,B0,85,5C,13,15,8C,80,20,
4493800,000001C7,false,Rx,0,4,AA,A0,FF,C0,00,00,00,00,
4496148,0000019F,false,Rx,0,8,E1,E1,7D,09,00,6A,50,FE,
4499100,00000155,false,Rx,0,8,4C,87,B3,54,96,D8,02,C2,
4499672,00000157,false,Rx,0,8,D5,FB,09,C4,FF,E0,00,80,
4501407,000001A1,false,Rx,0,8,B0,85,5C,13,15,8C,80,20,
4503797,000001C7,false,Rx,0,4,AA,A0,FF,C0,00,00,00,00,
4506405,0000019F,false,Rx,0,8,E1,E1,7D,0E,00,6A,50,FE,
4509193,00000155,false,Rx,0,8,4C,87,B4,54,96,D8,02,C2,
4509562,00000157,false,Rx,0,8,D5,4B,09,C4,FF,E0,00,80,
4511309,000001A1,false,Rx,0,8,B0,C5,5C,13,15,8C,80,20,
4513556,000001C7,false,Rx,0,4,AA,A0,FF,C0,00,00,00,00,
4516179,0000019F,false,Rx,0,8,E1,E1,7D,03,00,6A,50,FE,
4518951,00000155,false,Rx,0,8,4C,87,B4,54,96,D8,02,C2,
4519448,00000157,false,Rx,0,8,D5,9B,09,C4,FF,E0,00,80,
4521145,000001A1,false,Rx,0,8,B0,C5,5C,13,15,8C,80,20,
4523596,000004F7,false,Rx,0,8,00,1A,08,00,90,30,06,F0,
4523822,000001C7,false,Rx,0,4,AA,A0,FF,C0,00,00,00,00,
4524094,00000428,false,Rx,0,8,00,00,00,7F,00,00,00,00,
4524222,0000042F,false,Rx,0,2,00,20,00,00,00,00,00,00,
4526177,0000019F,false,Rx,0,8,E1,E1,7D,08,00,6A,50,FE,
4528946,00000155,false,Rx,0,8,4C,87,B4,54,96,D8,02,C2,
4529472,00000157,false,Rx,0,8,D5,EB,09,C4,FF,E0,00,80,
4531146,000001A1,false,Rx,0,8,B0,85,5C,13,15,8C,80,20,
4533545,000001C7,false,Rx,0,4,AA,A0,FF,C0,00,00,00,00,
4536146,0000019F,false,Rx,0,8,E1,E1,7D,0D,00,6A,50,FE,
4536421,00000511,false,Rx,0,7,00,F1,02,9E,5E,E8,78,00,
4538995,00000155,false,Rx,0,8,4C,87,B4,54,96,D8,02,C2,
4539498,00000157,false,Rx,0,8,D5,3B,09,C4,FF,E0,00,80,
4541145,000001A1,false,Rx,0,8,B0,C5,48,13,15,8C,80,20,
4543546,000001C7,false,Rx,0,4,AA,A0,FF,C0,00,00,00,00,
4546146,0000019F,false,Rx,0,8,E1,E1,7D,02,00,6A,50,FE,
4548971,00000155,false,Rx,0,8,4C,87,B4,54,96,D8,02,C2,
4549473,00000157,false,Rx,0,8,D5,8B,09,C4,FF,E0,00,80,
4551145,000001A1,false,Rx,0,8,B0,C5,5C,13,15,8C,80,20,
4553221,00000500,false,Rx,0,5,02,71,1D,04,E7,00,00,00,
4553548,000001C7,false,Rx,0,4,AA,A0,FF,C0,00,00,00,00,
4556171,0000019F,false,Rx,0,8,E1,E1,7D,07,00,6A,50,FE,
4558921,00000155,false,Rx,0,8,4C,87,B4,54,96,D8,02,C2,
4559524,00000157,false,Rx,0,8,D5,DB,09,C4,FF,E0,00,80,
4561145,000001A1,false,Rx,0,8,B0,C5,5C,13,15,8C,80,20,
4563577,000001C7,false,Rx,0,4,AA,A0,FF,C0,00,00,00,00,
4564445,00000423,false,Rx,0,8,0B,1D,00,02,B2,80,5D,D8,
4566170,0000019F,false,Rx,0,8,E1,E1,7D,0C,00,6A,50,FE,
4568925,00000155,false,Rx,0,8,4C,87,B4,54,96,D8,02,C2,
4569147,00000424,false,Rx,0,8,11,40,56,C8,33,5E,AA,34,
4569376,00000425,false,Rx,0,8,2A,BB,44,9C,42,18,CD,0B,
4569599,00000157,false,Rx,0,8,D5,2B,09,C4,FF,E0,00,80,
4569822,00000445,false,Rx,0,7,80,55,55,65,04,82,00,00,
4570038,00000426,false,Rx,0,8,00,60,01,00,53,18,00,40,
4571141,000001A1,false,Rx,0,8,B0,C5,5C,13,15,8C,80,20,
4573571,000001C7,false,Rx,0,4,AA,A0,FF,C0,00,00,00,00,
4576185,0000019F,false,Rx,0,8,E1,E1,7D,01,00,6A,50,FE,
4578958,00000155,false,Rx,0,8,4C,87,B4,54,96,D8,02,C2,
4579537,00000157,false,Rx,0,8,D5,7B,09,C4,FF,E0,00,80,
4581180,000001A1,false,Rx,0,8,B0,C5,48,13,15,8C,80,20,
4583587,000001C7,false,Rx,0,4,AA,A0,FF,C0,00,00,00,00,
4584482,00000435,false,Rx,0,8,FF,FF,1E,0B,2E,30,00,00,
4586157,0000019F,false,Rx,0,8,E1,E1,7D,06,00,6A,50,FE,
4586431,00000419,false,Rx,0,6,5E,69,4A,E6,3E,00,00,00,
4588932,00000155,false,Rx,0,8,4C,87,B4,54,96,D8,02,C2,
4589432,00000157,false,Rx,0,8,D5,CB,09,C4,FF,E0,00,80,
4589634,00000436,false,Rx,0,6,86,16,64,3A,FF,DC,00,00,
4591156,000001A1,false,Rx,0,8,B0,C5,48,13,15,8C,80,20,
4593581,000001C7,false,Rx,0,4,AA,A0,FF,C0,00,00,00,00,
4596158,0000019F,false,Rx,0,8,E1,E1,7D,0B,00,6A,50,FE,
4598932,00000155,false,Rx,0,8,4C,87,B3,54,96,D8,02,C2,
4599508,00000157,false,Rx,0,8,D5,1B,09,C4,FF,E0,00,80,
4601156,000001A1,false,Rx,0,8,B0,C5,5C,13,15,8C,80,20,
4603583,000001C7,false,Rx,0,4,AA,A0,FF,C0,00,00,00,00,
4606171,0000019F,false,Rx,0,8,E1,E1,7D,00,00,6A,50,FE,
4609297,00000155,false,Rx,0,8,4C,87,B4,54,96,D8,02,C2,
4609520,00000157,false,Rx,0,8,D5,6B,09,C4,FF,E0,00,80,
4611148,000001A1,false,Rx,0,8,B0,85,48,13,15,8C,80,20,
4613596,000001C7,false,Rx,0,4,AA,A0,FF,C0,00,00,00,00,
4616156,0000019F,false,Rx,0,8,E1,E1,7D,05,00,6A,50,FE,
4619005,00000155,false,Rx,0,8,4C,87,B4,54,96,D8,02,C2,
4619507,00000157,false,Rx,0,8,D5,BB,09,C4,FF,E0,00,80,
4621146,000001A1,false,Rx,0,8,B0,C5,48,13,15,8C,80,20,
4623668,000004F7,false,Rx,0,8,00,1A,08,00,90,30,06,F0,
4623820,000001C7,false,Rx,0,4,AA,A0,FF,C0,00,00,00,00,
4624094,00000428,false,Rx,0,8,00,00,00,7F,00,00,00,00,
4624244,0000042F,false,Rx,0,2,00,20,00,00,00,00,00,00,
4626149,0000019F,false,Rx,0,8,E1,E1,7D,0A,00,6A,50,FE,
4628973,00000155,false,Rx,0,8,4C,87,B4,54,96,D8,02,C2,
4629547,00000157,false,Rx,0,8,D5,0B,09,C4,FF,E0,00,80,
4631144,000001A1,false,Rx,0,8,B0,C5,5C,13,15,8C,80,20,
4633606,000001C7,false,Rx,0,4,AA,A0,FF,C0,00,00,00,00,
4636157,0000019F,false,Rx,0,8,E1,E1,7D,0F,00,6A,50,FE,
4636427,00000511,false,Rx,0,7,00,30,CB,57,C9,F5,5B,00,
4638982,00000155,false,Rx,0,8,4C,87,B4,54,96,D8,02,C2,
4639483,00000157,false,Rx,0,8,D5,5B,09,C4,FF,E0,00,80,
4641156,000001A1,false,Rx,0,8,B0,85,5C,13,15,8C,80,20,
4643609,000001C7,false,Rx,0,4,AA,A0,FF,C0,00,00,00,00,
4646157,0000019F,false,Rx,0,8,E1,E1,7D,04,00,6A,50,FE,
4648965,00000155,false,Rx,0,8,4C,87,B4,54,96,D8,02,C2,
4649481,00000157,false,Rx,0,8,D5,AB,09,C4,FF,E0,00,80,
4651186,000001A1,false,Rx,0,8,B0,C5,48,13,15,8C,80,20,
4653276,00000500,false,Rx,0,5,02,DC,A2,1C,F6,00,00,00,
4653610,000001C7,false,Rx,0,4,AA,A0,FF,C0,00,00,00,00,
4656166,0000019F,false,Rx,0,8,E1,E1,7D,09,00,6A,50,FE,
4658922,00000155,false,Rx,0,8,4C,87,B4,54,96,D8,02,C2,
4659482,00000157,false,Rx,0,8,D5,FB,09,C4,FF,E0,00,80,
4661159,000001A1,false,Rx,0,8,B0,C5,5C,13,15,8C,80,20,
4663631,000001C7,false,Rx,0,4,AA,A0,FF,C0,00,00,00,00,
4664354,00000423,false,Rx,0,8,0B,1D,00,02,B2,80,5D,D8,
4666164,0000019F,false,Rx,0,8,E1,E1,7D,0E,00,6A,50,FE,
4669005,00000155,false,Rx,0,8,4C,87,B4,54,96,D8,02,C2,
4669171,00000424,false,Rx,0,8,11,40,56,C8,33,5E,AA,34,
4669537,00000425,false,Rx,0,8,2A,BB,44,9C,42,18,CD,0B,
4669641,00000157,false,Rx,0,8,D5,4B,09,C4,FF,E0,00,80,
4669827,00000445,false,Rx,0,7,80,55,55,65,04,82,00,00,
4670175,00000426,false,Rx,0,8,00,60,01,00,53,18,00,40,
4671156,000001A1,false,Rx,0,8,B0,85,48,13,15,8C,80,20,
4673631,000001C7,false,Rx,0,4,AA,A0,FF,C0,00,00,00,00,
4676150,0000019F,false,Rx,0,8,E1,E1,7D,03,00,6A,50,FE,
4679001,00000155,false,Rx,0,8,4C,87,B4,54,96,D8,02,C2,
4679593,00000157,false,Rx,0,8,D5,9B,09,C4,FF,E0,00,80,
4681149,000001A1,false,Rx,0,8,B0,C5,5C,13,15,8C,80,20,
4683726,000001C7,false,Rx,0,4,AA,A0,FF,C0,00,00,00,00,
4684483,00000435,false,Rx,0,8,FF,FF,1E,0B,2E,30,00,00,
4686302,0000019F,false,Rx,0,8,E1,E1,7D,08,00,6A,50,FE,
4686459,00000419,false,Rx,0,6,5E,69,4A,E6,3E,00,00,00,
4688988,00000155,false,Rx,0,8,4C,87,B4,54,96,D8,02,C2,
4689557,00000157,false,Rx,0,8,D5,EB,09,C4,FF,E0,00,80,
4689692,00000436,false,Rx,0,6,86,16,64,3A,FF,DC,00,00,
4691305,000001A1,false,Rx,0,8,B0,C5,48,13,15,8C,80,20,
4693782,000001C7,false,Rx,0,4,AA,A0,FF,C0,00,00,00,00,
4696299,0000019F,false,Rx,0,8,E1,E1,7D,0D,00,6A,50,FE,
4699072,00000155,false,Rx,0,8,4C,87,B4,54,96,D8,02,C2,
4699508,00000157,false,Rx,0,8,D5,3B,09,C4,FF,E0,00,80,
4701206,000001A1,false,Rx,0,8,B0,C5,48,13,15,8C,80,20,
4703813,000001C7,false,Rx,0,4,AA,A0,FF,C0,00,00,00,00,
4706309,0000019F,false,Rx,0,8,E1,E1,7D,02,00,6A,50,FE,
4709280,00000155,false,Rx,0,8,4C,87,B4,54,96,D8,02,C2,
4709609,00000157,false,Rx,0,8,D5,8B,09,C4,FF,E0,00,80,
4711170,000001A1,false,Rx,0,8,B0,85,48,13,15,8C,80,20,
4713910,000001C7,false,Rx,0,4,AA,A0,FF,C0,00,00,00,00,
4716407,0000019F,false,Rx,0,8,E1,E1,7D,07,00,6A,50,FE,
4719214,00000155,false,Rx,0,8,4C,87,B4,54,96,D0,02,C2,
4719534,00000157,false,Rx,0,8,D5,DB,09,C4,FF,E0,00,80,
4721411,000001A1,false,Rx,0,8,B0,C5,48,13,15,8C,80,20,
4723860,000004F7,false,Rx,0,8,00,1A,08,00,90,30,06,F0,
4723887,000001C7,false,Rx,0,4,AA,A0,FF,C0,00,00,00,00,
4724137,00000428,false,Rx,0,8,00,00,00,7F,00,00,00,00,
4724316,0000042F,false,Rx,0,2,00,20,00,00,00,00,00,00,
4726411,0000019F,false,Rx,0,8,E1,E1,7D,0C,00,6A,50,FE,
4729204,00000155,false,Rx,0,8,4C,87,B4,54,96,D0,02,C2,
4729562,00000157,false,Rx,0,8,D5,2B,09,C4,FF,E0,00,80,
4731407,000001A1,false,Rx,0,8,B0,C5,48,13,15,8C,80,20,
4733906,000001C7,false,Rx,0,4,AA,A0,FF,C0,00,00,00,00,
4736310,0000019F,false,Rx,0,8,E1,E1,7D,01,00,6A,50,FE,
4736486,00000511,false,Rx,0,7,00,6F,94,10,34,02,3E,00,
4739235,00000155,false,Rx,0,8,4C,87,B4,54,96,D0,02,C2,
4739527,00000157,false,Rx,0,8,D5,7B,09,C4,FF,E0,00,80,
4741309,000001A1,false,Rx,0,8,B0,C5,5C,13,15,8C,80,20,
4743838,000001C7,false,Rx,0,4,AA,A0,FF,C0,00,00,00,00,
4746430,0000019F,false,Rx,0,8,E1,E1,7D,06,00,6A,50,FE,
4749237,00000155,false,Rx,0,8,4C,87,B4,54,96,D0,02,C2,
4749537,00000157,false,Rx,0,8,D5,CB,09,C4,FF,E0,00,80,
4751410,000001A1,false,Rx,0,8,B0,C5,5C,13,15,8C,80,20,
4753834,00000500,false,Rx,0,5,02,D2,94,E1,23,00,00,00,
4753844,000001C7,false,Rx,0,4,AA,A0,FF,C0,00,00,00,00,
4756406,0000019F,false,Rx,0,8,E1,E1,7D,0B,00,6A,50,FE,
4759005,00000155,false,Rx,0,8,4C,87,B4,54,96,D0,02,C2,
4759576,00000157,false,Rx,0,8,D5,1B,09,C4,FF,E0,00,80,
4761169,000001A1,false,Rx,0,8,B0,C5,5C,13,15,8C,80,20,
4763715,000001C7,false,Rx,0,4,AA,A0,FF,C0,00,00,00,00,
4764522,00000423,false,Rx,0,8,0B,1D,00,02,B2,80,5D,D8,
4766212,0000019F,false,Rx,0,8,E1,E1,7D,00,00,6A,50,FE,
4768942,00000155,false,Rx,0,8,4C,87,B4,54,96,D0,02,C2,
4769172,00000424,false,Rx,0,8,11,40,56,C8,33,5E,AA,34,
4769399,00000425,false,Rx,0,8,2A,BB,44,9C,42,18,CD,0B,
4769656,00000157,false,Rx,0,8,D5,6B,09,C4,FF,E0,00,80,
4769855,00000445,false,Rx,0,7,80,55,55,65,04,82,00,00,
4770092,00000426,false,Rx,0,8,00,60,01,00,53,18,00,40,
4771193,000001A1,false,Rx,0,8,B0,C5,48,13,15,8C,80,20,
4773719,000001C7,false,Rx,0,4,AA,A0,FF,C0,00,00,00,00,
4776193,0000019F,false,Rx,0,8,E1,E1,7D,05,00,6A,50,FE,
4778968,00000155,false,Rx,0,8,4C,87,B4,54,96,D0,02,C2,
4779471,00000157,false,Rx,0,8,D5,BB,09,C4,FF,E0,00,80,
4781193,000001A1,false,Rx,0,8,B0,C5,48,13,15,8C,80,20,
4783700,000001C7,false,Rx,0,4,AA,A0,FF,C0,00,00,00,00,
4784422,00000435,false,Rx,0,8,FF,FF,1E,0B,2E,30,00,00,
4786196,0000019F,false,Rx,0,8,E1,E1,7D,0A,00,6A,50,FE,
4786476,00000419,false,Rx,0,6,5E,68,4A,E6,3E,00,00,00,
4788943,00000155,false,Rx,0,8,4C,87,B4,54,96,D0,02,C2,
4789525,00000157,false,Rx,0,8,D5,0B,09,C4,FF,E0,00,80,
4789723,00000436,false,Rx,0,6,86,16,64,3A,FF,DC,00,00,
4791193,000001A1,false,Rx,0,8,B0,85,48,13,15,8C,80,20,
4793742,000001C7,false,Rx,0,4,AA,A0,FF,C0,00,00,00,00,
4796193,0000019F,false,Rx,0,8,E1,E1,7D,0F,00,6A,50,FE,
4798968,00000155,false,Rx,0,8,4C,87,B4,54,96,D0,02,C2,
4799547,00000157,false,Rx,0,8,D5,5B,09,C4,FF,E0,00,80,
4801150,000001A1,false,Rx,0,8,B0,C5,48,13,15,8C,80,20,
4803707,000001C7,false,Rx,0,4,AA,A0,FF,C0,00,00,00,00,
4806194,0000019F,false,Rx,0,8,E1,E1,7D,04,00,6A,50,FE,
4809043,00000155,false,Rx,0,8,4C,87,B4,54,96,D0,02,C2,
4809496,00000157,false,Rx,0,8,D5,AB,09,C4,FF,E0,00,80,
4811194,000001A1,false,Rx,0,8,B0,C5,5C,13,15,8C,80,20,
4813760,000001C7,false,Rx,0,4,AA,A0,FF,C0,00,00,00,00,
4816193,0000019F,false,Rx,0,8,E1,E1,7D,09,00,6A,50,FE,
4819010,00000155,false,Rx,0,8,4D,87,B4,54,96,D0,02,C2,
4819560,00000157,false,Rx,0,8,D5,FB,09,C4,FF,E0,00,80,
4821184,000001A1,false,Rx,0,8,B0,85,48,13,15,8C,80,20,
4823808,000004F7,false,Rx,0,8,00,1A,08,00,90,30,06,F0,
4823947,000001C7,false,Rx,0,4,AA,A0,FF,C0,00,00,00,00,
4824232,00000428,false,Rx,0,8,00,00,00,7F,00,00,00,00,
4824408,0000042F,false,Rx,0,2,00,20,00,00,00,00,00,00,
4826177,0000019F,false,Rx,0,8,E1,E1,7D,0E,00,6A,50,FE,
4829003,00000155,false,Rx,0,8,4D,87,B4,54,96,D0,02,C2,
4829508,00000157,false,Rx,0,8,D5,4B,09,C4,FF,E0,00,80,
4831150,000001A1,false,Rx,0,8,B0,C5,5C,13,15,8C,80,20,
4833741,000001C7,false,Rx,0,4,AA,A0,FF,C0,00,00,00,00,
4836156,0000019F,false,Rx,0,8,E1,E1,7D,03,00,6A,50,FE,
4836459,00000511,false,Rx,0,7,00,AE,5D,C9,9F,0F,21,00,
4838991,00000155,false,Rx,0,8,4D,87,B4,54,96,D0,02,C2,
4839502,00000157,false,Rx,0,8,D5,9B,09,C4,FF,E0,00,80,
4841156,000001A1,false,Rx,0,8,B0,C5,5C,13,15,8C,80,20,
4843725,000001C7,false,Rx,0,4,AA,A0,FF,C0,00,00,00,00,
4846148,0000019F,false,Rx,0,8,E1,E1,7D,08,00,6A,50,FE,
4848931,00000155,false,Rx,0,8,4D,87,B4,54,96,D0,02,C2,
4849499,00000157,false,Rx,0,8,D5,EB,09,C4,FF,E0,00,80,
4851142,000001A1,false,Rx,0,8,B0,85,5C,13,15,8C,80,20,
4853409,00000500,false,Rx,0,5,02,FC,37,B8,92,00,00,00,
4853758,000001C7,false,Rx,0,4,AA,A0,FF,C0,00,00,00,00,
4856183,0000019F,false,Rx,0,8,E1,E1,7D,0D,00,6A,50,FE,
4858934,00000155,false,Rx,0,8,4D,87,B4,54,96,D0,02,C2,
4859536,00000157,false,Rx,0,8,D5,3B,09,C4,FF,E0,00,80,
4861208,000001A1,false,Rx,0,8,B0,85,48,13,15,8C,80,20,
4863797,000001C7,false,Rx,0,4,AA,A0,FF,C0,00,00,00,00,
4864449,00000423,false,Rx,0,8,0B,1D,00,02,5D,80,B2,D8,
4866197,0000019F,false,Rx,0,8,E1,E1,7D,02,00,6A,50,FE,
4868932,00000155,false,Rx,0,8,4D,87,B5,54,96,D0,02,C2,
4869118,00000424,false,Rx,0,8,11,40,56,C8,33,5E,55,34,
4869386,00000425,false,Rx,0,8,2A,BB,44,9C,42,18,CD,0B,
4869632,00000157,false,Rx,0,8,D5,8B,09,C4,FF,E0,00,80,
4869831,00000445,false,Rx,0,7,80,55,AA,65,04,82,00,00,
4870082,00000426,false,Rx,0,8,00,60,01,00,53,18,00,40,
4871142,000001A1,false,Rx,0,8,B1,05,48,13,15,8C,80,20,
4873375,0000069F,false,Rx,0,4,71,30,28,2F,00,00,00,00,
4873786,000001C7,false,Rx,0,4,AA,A0,FF,C0,00,00,00,00,
4876183,0000019F,false,Rx,0,8,E1,E1,7D,07,00,6A,50,FE,
4878969,00000155,false,Rx,0,8,4D,87,B6,54,96,D0,02,C2,
4879472,00000157,false,Rx,0,8,D5,DB,09,C4,FF,E0,00,80,
4881184,000001A1,false,Rx,0,8,B0,C5,48,13,15,8C,80,20,
4883784,000001C7,false,Rx,0,4,AA,A0,FF,C0,00,00,00,00,
4884434,00000435,false,Rx,0,8,FF,FF,1E,0B,2E,30,00,00,
4886147,0000019F,false,Rx,0,8,E1,E1,7D,0C,00,6A,50,FE,
4886449,00000419,false,Rx,0,6,5E,67,4A,E6,3E,00,00,00,
4888919,00000155,false,Rx,0,8,4D,87,B5,54,96,D0,02,C2,
4889435,00000157,false,Rx,0,8,D5,2B,09,C4,FF,E0,00,80,
4889638,00000436,false,Rx,0,6,86,16,64,3A,FF,DC,00,00,
4891173,000001A1,false,Rx,0,8,B0,C5,5C,13,15,8C,80,20,
4893770,000001C7,false,Rx,0,4,AA,A0,FF,C0,00,00,00,00,
4896303,0000019F,false,Rx,0,8,E1,E1,7D,01,00,6A,50,FE,
4898924,00000155,false,Rx,0,8,4D,87,B7,54,96,D0,02,C2,
4899549,00000157,false,Rx,0,8,D5,7B,09,C4,FF,E0,00,80,
4901145,000001A1,false,Rx,0,8,B0,C5,5C,13,15,8C,80,20,
4903825,000001C7,false,Rx,0,4,AA,A0,FF,C0,00,00,00,00,
4906329,0000019F,false,Rx,0,8,E1,E1,7D,06,00,6A,50,FE,
4909283,00000155,false,Rx,0,8,4D,87,B7,54,96,D0,02,C2,
4909491,00000157,false,Rx,0,8,D5,CB,09,C4,FF,E0,00,80,
4911148,000001A1,false,Rx,0,8,B0,C5,48,13,15,8C,80,20,
4913961,000001C7,false,Rx,0,4,AA,A0,FF,C0,00,00,00,00,
4916397,0000019F,false,Rx,0,8,E1,E1,7D,0B,00,6A,50,FE,
4919099,00000155,false,Rx,0,8,4D,87,B7,54,96,D0,02,C3,
4919466,00000157,false,Rx,0,8,D5,1B,09,C4,FF,E0,00,80,
4921325,000001A1,false,Rx,0,8,B0,C5,48,13,15,8C,80,20,
4923888,000004F7,false,Rx,0,8,00,1A,08,00,90,30,06,F0,
4924041,000001C7,false,Rx,0,4,AA,A0,FF,C0,00,00,00,00,
4924332,00000428,false,Rx,0,8,00,00,00,7F,00,00,00,00,
4924461,0000042F,false,Rx,0,2,00,20,00,00,00,00,00,00,
4926305,0000019F,false,Rx,0,8,E1,E1,7D,00,00,6A,50,FE,
4929232,00000155,false,Rx,0,8,4D,87,B8,54,96,D0,02,C2,
4929574,00000157,false,Rx,0,8,D5,6B,09,C4,FF,E0,00,80,
4931413,000001A1,false,Rx,0,8,B0,C5,5C,13,15,8C,80,20,
4934001,000001C7,false,Rx,0,4,AA,A0,FF,C0,00,00,00,00,
4936305,0000019F,false,Rx,0,8,E1,E1,7D,05,00,6A,50,FE,
4936435,00000511,false,Rx,0,7,00,ED,26,82,0A,1C,04,00,
4939230,00000155,false,Rx,0,8,4D,87,B7,54,96,D0,02,C3,
4939520,00000157,false,Rx,0,8,D5,BB,09,C4,FF,E0,00,80,
4941309,000001A1,false,Rx,0,8,B0,C5,48,13,15,8C,80,20,
4943843,000001C7,false,Rx,0,4,AA,A0,FF,C0,00,00,00,00,
4946409,0000019F,false,Rx,0,8,E1,E1,7D,0A,00,6A,50,FE,
4949141,00000155,false,Rx,0,8,4D,87,B8,54,96,D0,02,C3,
4949541,00000157,false,Rx,0,8,D5,0B,09,C4,FF,E0,00,80,
4951161,000001A1,false,Rx,0,8,B0,C5,5C,13,15,8C,80,20,
4953392,00000500,false,Rx,0,5,02,5C,3F,5B,9D,00,00,00,
4953800,000001C7,false,Rx,0,4,AA,A0,FF,C0,00,00,00,00,
4956147,0000019F,false,Rx,0,8,E1,E1,7D,0F,00,6A,50,FE,
4958890,00000155,false,Rx,0,8,4D,87,B8,54,96,D0,02,C2,
4959420,00000157,false,Rx,0,8,D5,5B,09,C4,FF,E0,00,80,
4961153,000001A1,false,Rx,0,8,B0,85,5C,13,15,8C,80,20,
4963797,000001C7,false,Rx,0,4,AA,A0,FF,C0,00,00,00,00,
4964376,00000423,false,Rx,0,8,0B,1D,00,02,5D,80,B2,DA,
4966147,0000019F,false,Rx,0,8,E1,E1,7D,04,00,6A,50,FE,
4969060,00000155,false,Rx,0,8,4D,87,B8,54,96,D0,02,C3,
4969121,00000424,false,Rx,0,8,11,40,56,C8,33,5E,55,34,
4969435,00000425,false,Rx,0,8,2A,BB,44,9C,42,18,CD,0B,
4969578,00000157,false,Rx,0,8,D5,AB,09,C4,FF,E0,00,80,
4969995,00000445,false,Rx,0,7,80,55,AA,65,04,82,00,00,
4970064,00000426,false,Rx,0,8,00,60,01,00,53,18,00,40,
4971308,000001A1,false,Rx,0,8,B0,C5,5C,13,15,8C,80,20,
4973986,000001C7,false,Rx,0,4,AA,A0,FF,C0,00,00,00,00,
4976309,0000019F,false,Rx,0,8,E1,E1,7D,09,00,6A,50,FE,
4979068,00000155,false,Rx,0,8,4D,87,B9,54,96,D0,02,C3,
4979610,00000157,false,Rx,0,8,D5,FB,09,C4,FF,E0,00,80,
4981155,000001A1,false,Rx,0,8,B1,05,5C,13,15,8C,80,20,
4983903,000001C7,false,Rx,0,4,AA,A0,FF,C0,00,00,00,00,
4984583,00000435,false,Rx,0,8,FF,FF,1E,0B,2E,30,00,00,
4986233,0000019F,false,Rx,0,8,E1,E1,7D,0E,00,6A,50,FE,
4986519,00000419,false,Rx,0,6,5E,67,4A,E6,3E,00,00,00,
4988971,00000155,false,Rx,0,8,4D,87,B8,54,96,D0,02,C3,
4989635,00000157,false,Rx,0,8,D5,4B,09,C4,FF,E0,00,80,
4989674,00000436,false,Rx,0,6,86,16,64,3A,FF,DC,00,00,
4991414,000001A1,false,Rx,0,8,B0,C5,48,13,15,8C,80,20,
4993923,000001C7,false,Rx,0,4,AA,A0,FF,C0,00,00,00,00,
4996410,0000019F,false,Rx,0,8,E1,E1,7D,03,00,6A,50,FE,
4999087,00000155,false,Rx,0,8,4D,87,B8,54,96,D0,02,C3,
4999665,00000157,false,Rx,0,8,D5,9B,09,C4,FF,E0,00,80,
5001403,000001A1,false,Rx,0,8,B0,C5,48,13,15,8C,80,20,
5003840,000001C7,false,Rx,0,4,AA,A0,FF,C0,00,00,00,00,
5006411,0000019F,false,Rx,0,8,E1,E1,7D,08,00,6A,50,FE,
5009235,00000155,false,Rx,0,8,4D,87,B8,54,96,D0,02,C2,
5009559,00000157,false,Rx,0,8,D5,EB,09,C4,FF,E0,00,80,
5011167,000001A1,false,Rx,0,8,B1,05,5C,13,15,8C,80,20,
5013836,000001C7,false,Rx,0,4,AA,A0,FF,C0,00,00,00,00,
5016157,0000019F,false,Rx,0,8,E1,E1,7D,0D,00,6A,50,FE,
5018975,00000155,false,Rx,0,8,4D,87,B8,54,96,D0,02,C3,
5019501,00000157,false,Rx,0,8,D5,3B,09,C4,FF,E0,00,80,
5021149,000001A1,false,Rx,0,8,B0,C5,48,13,15,8C,80,20,
5023924,000004F7,false,Rx,0,8,00,1A,08,00,90,30,06,F0,
5024088,000001C7,false,Rx,0,4,AA,A0,FF,C0,00,00,00,00,
5024338,00000428,false,Rx,0,8,00,00,00,7F,00,00,00,00,
5024514,0000042F,false,Rx,0,2,00,20,00,00,00,00,00,00,
5026150,0000019F,false,Rx,0,8,E1,E1,7D,02,00,6A,50,FE,
5028981,00000155,false,Rx,0,8,4D,87,B8,54,96,D0,02,C2,
5029451,00000157,false,Rx,0,8,D5,8B,09,C4,FF,E0,00,80,
5031152,000001A1,false,Rx,0,8,B0,C5,5C,13,15,8C,80,20,
5033899,000001C7,false,Rx,0,4,AA,A0,FF,C0,00,00,00,00,
5036149,0000019F,false,Rx,0,8,E1,E1,7D,07,00,6A,50,FE,
5036452,00000511,false,Rx,0,7,00,2C,EF,3B,75,29,E7,00,
5038983,00000155,false,Rx,0,8,4D,87,B8,54,96,D0,02,C3,
5039477,00000157,false,Rx,0,8,D5,DB,09,C4,FF,E0,00,80,
5041150,000001A1,false,Rx,0,8,B0,C5,5C,13,15,8C,80,20,
5043893,000001C7,false,Rx,0,4,AA,A0,FF,C0,00,00,00,00,
5046155,0000019F,false,Rx,0,8,E1,E1,7D,0C,00,6A,50,FE,
5048929,00000155,false,Rx,0,8,4D,87,B8,54,96,D0,02,C2,
5049429,00000157,false,Rx,0,8,D5,2B,09,C4,FF,E0,00,80,
5051150,000001A1,false,Rx,0,8,B0,C5,5C,13,15,8C,80,20,
5053576,00000500,false,Rx,0,5,02,14,D6,1C,FF,00,00,00,
5053893,000001C7,false,Rx,0,4,AA,A0,FF,C0,00,00,00,00,
5056149,0000019F,false,Rx,0,8,E1,E1,7D,01,00,6A,50,FE,
5058904,00000155,false,Rx,0,8,4D,87,B7,54,96,D0,02,C3,
5059501,00000157,false,Rx,0,8,D5,7B,09,C4,FF,E0,00,80,
5061150,000001A1,false,Rx,0,8,B0,C5,48,13,15,8C,80,20,
5063894,000001C7,false,Rx,0,4,AA,A0,FF,C0,00,00,00,00,
5064348,00000423,false,Rx,0,8,0B,1D,00,02,5D,80,B2,D7,
5066175,0000019F,false,Rx,0,8,E1,E1,7D,06,00,6A,50,FE,
5068894,00000155,false,Rx,0,8,4D,87,B7,54,96,D0,02,C2,
5069122,00000424,false,Rx,0,8,11,40,56,C8,33,5E,55,34,
5069350,00000425,false,Rx,0,8,2A,BB,44,9C,42,18,CD,0B,
5069575,00000157,false,Rx,0,8,D5,CB,09,C4,FF,E0,00,80,
5069797,00000445,false,Rx,0,7,80,55,AA,65,04,82,00,00,
5070042,00000426,false,Rx,0,8,00,60,01,00,53,18,00,40,
5071145,000001A1,false,Rx,0,8,B0,C5,5C,13,15,8C,80,20,
5073888,000001C7,false,Rx,0,4,AA,A0,FF,C0,00,00,00,00,
5076146,0000019F,false,Rx,0,8,E1,E1,7D,0B,00,6A,50,FE,
5078901,00000155,false,Rx,0,8,4D,87,B7,54,96,D0,02,C2,
5079497,00000157,false,Rx,0,8,D5,1B,09,C4,FF,E0,00,80,
5081148,000001A1,false,Rx,0,8,B0,C5,5C,13,15,8C,80,20,
5083942,000001C7,false,Rx,0,4,AA,A0,FF,C0,00,00,00,00,
5084447,00000435,false,Rx,0,8,FF,FF,1E,0B,2E,30,00,00,
5086197,0000019F,false,Rx,0,8,E1,E1,7D,00,00,6A,50,FE,
5086473,00000419,false,Rx,0,6,5F,52,42,E6,3E,00,00,00,
5088896,00000155,false,Rx,0,8,4D,87,B7,54,96,D0,02,C2,
5089535,00000157,false,Rx,0,8,D5,6B,09,C4,FF,E0,00,80,
5089701,00000436,false,Rx,0,6,86,16,64,3A,FF,DC,00,00,
5091160,000001A1,false,Rx,0,8,B0,C5,48,13,15,8C,80,20,
5093900,000001C7,false,Rx,0,4,AA,A0,FF,C0,00,00,00,00,
5096152,0000019F,false,Rx,0,8,E1,E1,7D,05,00,6A,50,FE,
5098901,00000155,false,Rx,0,8,4D,87,B7,54,96,D0,02,C2,
5099526,00000157,false,Rx,0,8,D5,BB,09,C4,FF,E0,00,80,
5101150,000001A1,false,Rx,0,8,B0,C5,5C,13,15,8C,80,20,
5103890,000001C7,false,Rx,0,4,AA,A0,FF,C0,00,00,00,00,
5106149,0000019F,false,Rx,0,8,E1,E1,7D,0A,00,6A,50,FE,
5109078,00000155,false,Rx,0,8,4D,87,B7,54,96,D0,02,C3,
5109495,00000157,false,Rx,0,8,D5,0B,09,C4,FF,E0,00,80,
5111146,000001A1,false,Rx,0,8,B0,C5,48,13,15,8C,80,20,
5113906,000001C7,false,Rx,0,4,AA,A0,FF,C0,00,00,00,00,
5116160,0000019F,false,Rx,0,8,E1,E1,7D,0F,00,6A,50,FE,
5118924,00000155,false,Rx,0,8,4D,87,B6,54,96,D0,02,C3,
5119397,00000157,false,Rx,0,8,D5,5B,09,C4,FF,E0,00,80,
5121145,000001A1,false,Rx,0,8,B0,C5,5C,13,15,8C,80,20,
5123932,000004F7,false,Rx,0,8,00,1A,08,00,90,30,06,F0,
5124099,000001C7,false,Rx,0,4,AA,A0,FF,C0,00,00,00,00,
5124373,00000428,false,Rx,0,8,00,00,00,7F,00,00,00,00,
5124522,0000042F,false,Rx,0,2,00,20,00,00,00,00,00,00,
5126175,0000019F,false,Rx,0,8,E1,E1,7D,04,00,6A,50,FE,
5128936,00000155,false,Rx,0,8,4D,87,B7,54,96,D0,02,C2,
5129412,00000157,false,Rx,0,8,D5,AB,09,C4,FF,E0,00,80,
5131158,000001A1,false,Rx,0,8,B0,C5,5C,13,15,8C,80,20,
