Time Stamp,ID,Extended,Dir,Bus,LEN,D1,D2,D3,D4,D5,D6,D7,D8
44536059,000001C7,false,Rx,0,4,AA,A0,FF,C0,00,00,00,00,
806,00000155,false,Rx,0,8,38,87,CE,54,96,E8,02,C3,
1029,00000157,false,Rx,0,8,D5,27,09,C4,FF,E0,00,80,
1277,00000424,false,Rx,0,8,11,40,56,C8,33,5E,AA,34,
1502,00000425,false,Rx,0,8,2A,BB,44,9C,42,1A,CD,0C,
1727,00000426,false,Rx,0,8,00,60,01,00,53,18,00,40,
2453,00000445,false,Rx,0,7,80,55,55,65,04,82,00,00,
2702,000001A1,false,Rx,0,8,B1,45,48,13,95,0C,80,20,
7682,0000019F,false,Rx,0,8,00,00,7D,01,00,6A,90,FE,
10057,000001C7,false,Rx,0,4,AA,A0,FF,C0,00,00,00,00,
10804,00000155,false,Rx,0,8,38,87,CE,54,96,E8,02,C3,
11053,00000157,false,Rx,0,8,D5,77,09,C4,FF,E0,00,80,
12649,000001A1,false,Rx,0,8,B1,45,34,13,95,0C,80,20,
15883,00000435,false,Rx,0,8,FF,FF,1E,0B,2E,00,00,00,
17661,0000019F,false,Rx,0,8,00,00,7D,06,00,6A,90,FE,
17882,00000419,false,Rx,0,6,5E,09,2A,E6,3E,00,00,00,
20058,000001C7,false,Rx,0,4,AA,A0,FF,C0,00,00,00,00,
20803,00000155,false,Rx,0,8,38,87,CE,54,96,E8,02,C3,
21027,00000157,false,Rx,0,8,D5,C7,09,C4,FF,E0,00,80,
21232,00000436,false,Rx,0,6,86,16,64,3A,FF,DC,00,00,
22651,000001A1,false,Rx,0,8,B1,45,48,13,95,0C,80,20,
27651,0000019F,false,Rx,0,8,00,00,7D,0B,00,6A,90,FE,
30057,000001C7,false,Rx,0,4,AA,A0,FF,C0,00,00,00,00,
30828,00000155,false,Rx,0,8,38,87,CE,54,96,E8,02,C3,
31052,00000157,false,Rx,0,8,D5,17,09,C4,FF,E0,00,80,
32647,000001A1,false,Rx,0,8,B1,45,48,13,95,0C,80,20,
37652,0000019F,false,Rx,0,8,00,00,7D,00,00,6A,90,FE,
40175,000004F7,false,Rx,0,8,00,1A,08,00,90,30,06,F0,
40312,000001C7,false,Rx,0,4,AA,A0,FF,C0,00,00,00,00,
40564,00000428,false,Rx,0,8,00,00,00,7F,00,00,00,00,
40757,0000042F,false,Rx,0,2,00,20,00,00,00,00,00,00,
40985,00000157,false,Rx,0,8,D5,67,09,C4,FF,E0,00,80,
41212,00000155,false,Rx,0,8,38,87,CE,54,96,E8,02,C3,
42651,000001A1,false,Rx,0,8,B1,45,48,13,95,0C,80,20,
47656,0000019F,false,Rx,0,8,00,00,7D,05,00,6A,90,FE,
50083,000001C7,false,Rx,0,4,AA,A0,FF,C0,00,00,00,00,
50878,00000155,false,Rx,0,8,38,87,CE,54,96,E8,02,C3,
51102,00000157,false,Rx,0,8,D5,B7,09,C4,FF,E0,00,80,
52647,000001A1,false,Rx,0,8,B1,45,48,13,95,0C,80,20,
57655,0000019F,false,Rx,0,8,00,00,7D,0A,00,6A,90,FE,
60086,000001C7,false,Rx,0,4,AA,A0,FF,C0,00,00,00,00,
60883,00000155,false,Rx,0,8,38,87,CE,54,96,E8,02,C3,
61111,00000157,false,Rx,0,8,D5,07,09,C4,FF,E0,00,80,
62652,000001A1,false,Rx,0,8,B1,45,48,13,95,0C,80,20,
67651,0000019F,false,Rx,0,8,00,00,7D,0F,00,6A,90,FE,
67869,00000511,false,Rx,0,7,04,E2,1F,8F,46,E8,EF,00,
70080,000001C7,false,Rx,0,4,AA,A0,FF,C0,00,00,00,00,
70884,00000155,false,Rx,0,8,38,87,CE,54,96,E8,02,C3,
71111,00000157,false,Rx,0,8,D5,57,09,C4,FF,E0,00,80,
72654,000001A1,false,Rx,0,8,B1,45,48,13,95,0C,80,20,
77655,0000019F,false,Rx,0,8,00,00,7D,04,00,6A,90,FE,
80085,000001C7,false,Rx,0,4,AA,A0,FF,C0,00,00,00,00,
80834,00000155,false,Rx,0,8,38,87,CE,54,96,E8,02,C3,
81060,00000157,false,Rx,0,8,D5,A7,09,C4,FF,E0,00,80,
82653,000001A1,false,Rx,0,8,B1,45,34,13,95,0C,80,20,
87654,0000019F,false,Rx,0,8,00,00,7D,09,00,6A,90,FE,
90110,000001C7,false,Rx,0,4,AA,A0,FF,C0,00,00,00,00,
90808,00000155,false,Rx,0,8,38,87,CE,54,96,E8,02,C3,
91036,00000157,false,Rx,0,8,D5,F7,09,C4,FF,E0,00,80,
92651,000001A1,false,Rx,0,8,B1,05,48,13,95,0C,80,20,
95985,00000423,false,Rx,0,8,07,1D,00,02,B2,80,5D,D9,
97652,0000019F,false,Rx,0,8,00,00,7D,0E,00,6A,90,FE,
100109,000001C7,false,Rx,0,4,AA,A0,FF,C0,00,00,00,00,
100809,00000155,false,Rx,0,8,38,87,CE,54,96,E8,02,C3,
101036,00000157,false,Rx,0,8,D5,47,09,C4,FF,E0,00,80,
101263,00000424,false,Rx,0,8,11,40,56,C8,33,5E,AA,34,
101491,00000425,false,Rx,0,8,2A,BB,44,9C,42,1A,CD,0C,
101732,00000426,false,Rx,0,8,00,60,01,00,53,18,00,40,
102460,00000445,false,Rx,0,7,80,55,55,65,04,82,00,00,
102682,000001A1,false,Rx,0,8,B1,45,34,13,95,0C,80,20,
107654,0000019F,false,Rx,0,8,00,00,7D,03,00,6A,90,FE,
110108,000001C7,false,Rx,0,4,AA,A0,FF,C0,00,00,00,00,
110830,00000155,false,Rx,0,8,38,87,CE,54,96,E8,02,C3,
111113,00000157,false,Rx,0,8,D5,97,09,C4,FF,E0,00,80,
112707,000001A1,false,Rx,0,8,B1,45,48,13,95,0C,80,20,
116243,00000435,false,Rx,0,8,FF,FF,1E,0B,2E,00,00,00,
117729,0000019F,false,Rx,0,8,00,00,7D,08,00,6A,90,FE,
118051,00000419,false,Rx,0,6,5E,09,2A,E6,3E,00,00,00,
120395,000001C7,false,Rx,0,4,AA,A0,FF,C0,00,00,00,00,
120970,00000155,false,Rx,0,8,38,87,CE,54,96,E8,02,C3,
121124,00000157,false,Rx,0,8,D5,E7,09,C4,FF,E0,00,80,
121345,00000436,false,Rx,0,6,86,16,64,3A,FF,DC,00,00,
122733,000001A1,false,Rx,0,8,B1,05,48,13,95,0C,80,20,
127742,0000019F,false,Rx,0,8,00,00,7D,0D,00,6A,90,FE,
130396,000001C7,false,Rx,0,4,AA,A0,FF,C0,00,00,00,00,
130919,00000155,false,Rx,0,8,38,87,CE,54,96,E8,02,C3,
131122,00000157,false,Rx,0,8,D5,37,09,C4,FF,E0,00,80,
132818,000001A1,false,Rx,0,8,B1,45,48,13,95,0C,80,20,
137831,0000019F,false,Rx,0,8,00,00,7D,02,00,6A,90,FE,
140279,000004F7,false,Rx,0,8,00,1A,08,00,90,30,06,F0,
140396,000001C7,false,Rx,0,4,AA,A0,FF,C0,00,00,00,00,
140732,00000428,false,Rx,0,8,00,00,00,7F,00,00,00,00,
140816,0000042F,false,Rx,0,2,00,20,00,00,00,00,00,00,
141076,00000155,false,Rx,0,8,38,87,CE,54,96,E8,02,C3,
141340,00000157,false,Rx,0,8,D5,87,09,C4,FF,E0,00,80,
142667,000001A1,false,Rx,0,8,B1,85,48,13,95,0C,80,20,
147665,0000019F,false,Rx,0,8,00,00,7D,07,00,6A,90,FE,
150146,000001C7,false,Rx,0,4,AA,A0,FF,C0,00,00,00,00,
150838,00000155,false,Rx,0,8,38,87,CE,54,96,E8,02,C3,
151066,00000157,false,Rx,0,8,D5,D7,09,C4,FF,E0,00,80,
152657,000001A1,false,Rx,0,8,B1,45,48,13,95,0C,80,20,
157664,0000019F,false,Rx,0,8,00,00,7D,0C,00,6A,90,FE,
160165,000001C7,false,Rx,0,4,AA,A0,FF,C0,00,00,00,00,
160838,00000155,false,Rx,0,8,38,87,CE,54,96,E8,02,C3,
161092,00000157,false,Rx,0,8,D5,27,09,C4,FF,E0,00,80,
162666,000001A1,false,Rx,0,8,B1,45,48,13,95,0C,80,20,
167664,0000019F,false,Rx,0,8,00,00,7D,01,00,6A,90,FE,
167888,00000511,false,Rx,0,7,04,21,E8,48,B1,F5,D2,00,
170176,000001C7,false,Rx,0,4,AA,A0,FF,C0,00,00,00,00,
170893,00000155,false,Rx,0,8,38,87,CE,54,96,E8,02,C3,
171118,00000157,false,Rx,0,8,D5,77,09,C4,FF,E0,00,80,
172665,000001A1,false,Rx,0,8,B1,45,48,13,95,0C,80,20,
177665,0000019F,false,Rx,0,8,00,00,7D,06,00,6A,90,FE,
180166,000001C7,false,Rx,0,4,AA,A0,FF,C0,00,00,00,00,
180889,00000155,false,Rx,0,8,38,87,CE,54,96,E8,02,C3,
181114,00000157,false,Rx,0,8,D5,C7,09,C4,FF,E0,00,80,
182667,000001A1,false,Rx,0,8,B1,45,48,13,95,0C,80,20,
187659,0000019F,false,Rx,0,8,00,00,7D,0B,00,6A,90,FE,
190189,000001C7,false,Rx,0,4,AA,A0,FF,C0,00,00,00,00,
190813,00000155,false,Rx,0,8,38,87,CE,54,96,E8,02,C3,
191043,00000157,false,Rx,0,8,D5,17,09,C4,FF,E0,00,80,
192650,000001A1,false,Rx,0,8,B1,05,48,13,95,0C,80,20,
195920,00000423,false,Rx,0,8,07,1D,00,02,B2,80,5D,D9,
197655,0000019F,false,Rx,0,8,00,00,7D,00,00,6A,90,FE,
200195,000001C7,false,Rx,0,4,AA,A0,FF,C0,00,00,00,00,
200811,00000155,false,Rx,0,8,38,87,CE,54,96,E8,02,C3,
201031,00000157,false,Rx,0,8,D5,67,09,C4,FF,E0,00,80,
201257,00000424,false,Rx,0,8,11,40,56,C8,33,5E,AA,34,
201481,00000425,false,Rx,0,8,2A,BB,44,9C,42,1A,CD,0C,
201731,00000426,false,Rx,0,8,00,60,01,00,53,18,00,40,
202483,00000445,false,Rx,0,7,80,55,55,65,04,82,00,00,
202711,000001A1,false,Rx,0,8,B1,45,48,13,95,0C,80,20,
207684,0000019F,false,Rx,0,8,00,00,7D,05,00,6A,90,FE,
210199,000001C7,false,Rx,0,4,AA,A0,FF,C0,00,00,00,00,
210814,00000155,false,Rx,0,8,38,87,CE,54,96,E8,02,C3,
211042,00000157,false,Rx,0,8,D5,B7,09,C4,FF,E0,00,80,
212667,000001A1,false,Rx,0,8,B1,45,34,13,95,0C,80,20,
215947,00000435,false,Rx,0,8,FF,FF,1E,0B,2E,00,00,00,
217679,0000019F,false,Rx,0,8,00,00,7D,0A,00,6A,90,FE,
217891,00000419,false,Rx,0,6,5E,09,2A,E6,3E,00,00,00,
220191,000001C7,false,Rx,0,4,AA,A0,FF,C0,00,00,00,00,
220814,00000155,false,Rx,0,8,38,87,CE,54,96,E8,02,C3,
221040,00000157,false,Rx,0,8,D5,07,09,C4,FF,E0,00,80,
221241,00000436,false,Rx,0,6,86,16,64,3A,FF,DC,00,00,
222665,000001A1,false,Rx,0,8,B1,45,48,13,95,0C,80,20,
227653,0000019F,false,Rx,0,8,00,00,7D,0F,00,6A,90,FE,
230211,000001C7,false,Rx,0,4,AA,A0,FF,C0,00,00,00,00,
230811,00000155,false,Rx,0,8,38,87,CE,54,96,E8,02,C3,
231058,00000157,false,Rx,0,8,D5,57,09,C4,FF,E0,00,80,
232658,000001A1,false,Rx,0,8,B1,45,48,13,95,0C,80,20,
237659,0000019F,false,Rx,0,8,00,00,7D,04,00,6A,90,FE,
240265,000004F7,false,Rx,0,8,00,1A,08,00,90,30,06,F0,
240440,000001C7,false,Rx,0,4,AA,A0,FF,C0,00,00,00,00,
240686,00000428,false,Rx,0,8,00,00,00,7F,00,00,00,00,
240864,0000042F,false,Rx,0,2,00,20,00,00,00,00,00,00,
241094,00000155,false,Rx,0,8,38,87,CE,54,96,E8,02,C3,
241347,00000157,false,Rx,0,8,D5,A7,09,C4,FF,E0,00,80,
242663,000001A1,false,Rx,0,8,B1,45,34,13,95,0C,80,20,
247659,0000019F,false,Rx,0,8,00,00,7D,09,00,6A,90,FE,
250215,000001C7,false,Rx,0,4,AA,A0,FF,C0,00,00,00,00,
250889,00000155,false,Rx,0,8,38,87,CE,54,96,E8,02,C3,
251115,00000157,false,Rx,0,8,D5,F7,09,C4,FF,E0,00,80,
252656,000001A1,false,Rx,0,8,B1,45,48,13,95,0C,80,20,
257665,0000019F,false,Rx,0,8,00,00,7D,0E,00,6A,90,FE,
260222,000001C7,false,Rx,0,4,AA,A0,FF,C0,00,00,00,00,
260889,00000155,false,Rx,0,8,38,87,CE,54,96,E8,02,C3,
261115,00000157,false,Rx,0,8,D5,47,09,C4,FF,E0,00,80,
262666,000001A1,false,Rx,0,8,B1,45,34,13,95,0C,80,20,
267659,0000019F,false,Rx,0,8,00,00,7D,03,00,6A,90,FE,
267884,00000511,false,Rx,0,7,04,60,B1,01,1C,02,B5,00,
270237,000001C7,false,Rx,0,4,AA,A0,FF,C0,00,00,00,00,
270833,00000155,false,Rx,0,8,38,87,CE,54,96,E8,02,C3,
271082,00000157,false,Rx,0,8,D5,97,09,C4,FF,E0,00,80,
272651,000001A1,false,Rx,0,8,B1,05,48,13,95,0C,80,20,
277693,0000019F,false,Rx,0,8,00,00,7D,08,00,6A,90,FE,
280271,000001C7,false,Rx,0,4,AA,A0,FF,C0,00,00,00,00,
280871,00000155,false,Rx,0,8,38,87,CE,54,96,E8,02,C3,
281063,00000157,false,Rx,0,8,D5,E7,09,C4,FF,E0,00,80,
282685,000001A1,false,Rx,0,8,B1,45,48,13,95,0C,80,20,
287694,0000019F,false,Rx,0,8,00,00,7D,0D,00,6A,90,FE,
290273,000001C7,false,Rx,0,4,AA,A0,FF,C0,00,00,00,00,
290847,00000155,false,Rx,0,8,38,87,CE,54,96,E8,02,C3,
291063,00000157,false,Rx,0,8,D5,37,09,C4,FF,E0,00,80,
292679,000001A1,false,Rx,0,8,B1,45,48,13,95,0C,80,20,
295928,00000423,false,Rx,0,8,07,1D,00,02,B2,80,5D,D9,
297690,0000019F,false,Rx,0,8,00,00,7D,02,00,6A,90,FE,
300273,000001C7,false,Rx,0,4,AA,A0,FF,C0,00,00,00,00,
300814,00000155,false,Rx,0,8,38,87,CE,54,96,E8,02,C3,
301040,00000157,false,Rx,0,8,D5,87,09,C4,FF,E0,00,80,
301259,00000424,false,Rx,0,8,11,40,56,C8,33,5E,AA,34,
301484,00000425,false,Rx,0,8,2A,BB,44,9C,42,1A,CD,0C,
301731,00000426,false,Rx,0,8,00,60,01,00,53,18,00,40,
302458,00000445,false,Rx,0,7,80,55,55,65,04,82,00,00,
302707,000001A1,false,Rx,0,8,B1,05,48,13,95,0C,80,20,
307656,0000019F,false,Rx,0,8,00,00,7D,07,00,6A,90,FE,
310354,000001C7,false,Rx,0,4,AA,A0,FF,C0,00,00,00,00,
310886,00000155,false,Rx,0,8,38,87,CE,54,96,E8,02,C3,
311095,00000157,false,Rx,0,8,D5,D7,09,C4,FF,E0,00,80,
312822,000001A1,false,Rx,0,8,B1,45,48,13,95,0C,80,20,
316247,00000435,false,Rx,0,8,FF,FF,1E,0B,2E,00,00,00,
317732,0000019F,false,Rx,0,8,00,00,7D,0C,00,6A,90,FE,
317954,00000419,false,Rx,0,6,5E,09,2A,E6,3E,00,00,00,
320477,000001C7,false,Rx,0,4,AA,A0,FF,C0,00,00,00,00,
320971,00000155,false,Rx,0,8,38,87,CE,54,96,E8,02,C3,
321063,00000157,false,Rx,0,8,D5,27,09,C4,FF,E0,00,80,
321306,00000436,false,Rx,0,6,86,16,64,3A,FF,DC,00,00,
322666,000001A1,false,Rx,0,8,B1,45,34,13,95,0C,80,20,
327720,0000019F,false,Rx,0,8,00,00,7D,01,00,6A,90,FE,
330328,000001C7,false,Rx,0,4,AA,A0,FF,C0,00,00,00,00,
330973,00000155,false,Rx,0,8,38,87,CE,54,96,E8,02,C3,
331095,00000157,false,Rx,0,8,D5,77,09,C4,FF,E0,00,80,
332732,000001A1,false,Rx,0,8,B1,45,34,13,95,0C,80,20,
337840,0000019F,false,Rx,0,8,00,00,7D,06,00,6A,90,FE,
340429,000004F7,false,Rx,0,8,00,1A,08,00,90,30,06,F0,
340455,000001C7,false,Rx,0,4,AA,A0,FF,C0,00,00,00,00,
340930,00000428,false,Rx,0,8,00,00,00,7F,00,00,00,00,
341044,00000155,false,Rx,0,8,38,87,CE,54,96,E8,02,C3,
341280,00000157,false,Rx,0,8,D5,C7,09,C4,FF,E0,00,80,
341397,0000042F,false,Rx,0,2,00,20,00,00,00,00,00,00,
342722,000001A1,false,Rx,0,8,B1,45,34,13,95,0C,80,20,
347736,0000019F,false,Rx,0,8,00,00,7D,0B,00,6A,90,FE,
350476,000001C7,false,Rx,0,4,AA,A0,FF,C0,00,00,00,00,
351015,00000155,false,Rx,0,8,38,87,CE,54,96,E8,02,C3,
351150,00000157,false,Rx,0,8,D5,17,09,C4,FF,E0,00,80,
352730,000001A1,false,Rx,0,8,B1,45,48,13,95,0C,80,20,
357810,0000019F,false,Rx,0,8,00,00,7D,00,00,6A,90,FE,
360401,000001C7,false,Rx,0,4,AA,A0,FF,C0,00,00,00,00,
361000,00000155,false,Rx,0,8,38,87,CE,54,96,E8,02,C3,
361147,00000157,false,Rx,0,8,D5,67,09,C4,FF,E0,00,80,
362823,000001A1,false,Rx,0,8,B1,45,34,13,95,0C,80,20,
367822,0000019F,false,Rx,0,8,00,00,7D,05,00,6A,90,FE,
367965,00000511,false,Rx,0,7,04,9F,7A,BA,87,0F,98,00,
370257,000001C7,false,Rx,0,4,AA,A0,FF,C0,00,00,00,00,
371083,00000155,false,Rx,0,8,38,87,CE,54,96,E8,02,C3,
371129,00000157,false,Rx,0,8,D5,B7,09,C4,FF,E0,00,80,
372729,000001A1,false,Rx,0,8,B1,45,48,13,95,0C,80,20,
377833,0000019F,false,Rx,0,8,00,00,7D,0A,00,6A,90,FE,
380506,000001C7,false,Rx,0,4,AA,A0,FF,C0,00,00,00,00,
381099,00000155,false,Rx,0,8,38,87,CE,54,96,E8,02,C3,
381108,00000157,false,Rx,0,8,D5,07,09,C4,FF,E0,00,80,
382712,000001A1,false,Rx,0,8,B1,45,48,13,95,0C,80,20,
387827,0000019F,false,Rx,0,8,00,00,7D,0F,00,6A,90,FE,
390433,000001C7,false,Rx,0,4,AA,A0,FF,C0,00,00,00,00,
390975,00000155,false,Rx,0,8,38,87,CE,54,96,E8,02,C3,
391087,00000157,false,Rx,0,8,D5,57,09,C4,FF,E0,00,80,
392713,000001A1,false,Rx,0,8,B1,45,48,13,95,0C,80,20,
395951,00000423,false,Rx,0,8,07,1D,00,02,B2,80,5D,D9,
397670,0000019F,false,Rx,0,8,00,00,7D,04,00,6A,90,FE,
400277,000001C7,false,Rx,0,4,AA,A0,FF,C0,00,00,00,00,
400799,00000155,false,Rx,0,8,38,87,CE,54,96,E8,02,C3,
401051,00000157,false,Rx,0,8,D5,A7,09,C4,FF,E0,00,80,
401279,00000424,false,Rx,0,8,11,40,56,C8,33,5E,AA,34,
401511,00000425,false,Rx,0,8,2A,BB,44,9C,42,1A,CD,0B,
401747,00000426,false,Rx,0,8,00,60,01,00,53,18,00,40,
402451,00000445,false,Rx,0,7,80,55,55,65,04,82,00,00,
402689,000001A1,false,Rx,0,8,B1,45,48,13,95,0C,80,20,
407670,0000019F,false,Rx,0,8,00,00,7D,09,00,6A,90,FE,
410276,000001C7,false,Rx,0,4,AA,A0,FF,C0,00,00,00,00,
410827,00000155,false,Rx,0,8,38,87,CE,54,96,E8,02,C3,
411050,00000157,false,Rx,0,8,D5,F7,09,C4,FF,E0,00,80,
412668,000001A1,false,Rx,0,8,B1,45,48,13,95,0C,80,20,
415976,00000435,false,Rx,0,8,FF,FF,1E,0B,2E,00,00,00,
417669,0000019F,false,Rx,0,8,00,00,7D,0E,00,6A,90,FE,
417897,00000419,false,Rx,0,6,5E,09,2A,E6,3E,00,00,00,
420275,000001C7,false,Rx,0,4,AA,A0,FF,C0,00,00,00,00,
420824,00000155,false,Rx,0,8,38,87,CE,54,96,E8,02,C3,
421052,00000157,false,Rx,0,8,D5,47,09,C4,FF,E0,00,80,
421256,00000436,false,Rx,0,6,86,16,64,3A,FF,DC,00,00,
422672,000001A1,false,Rx,0,8,B1,45,48,13,95,0C,80,20,
427669,0000019F,false,Rx,0,8,00,00,7D,03,00,6A,90,FE,
430276,000001C7,false,Rx,0,4,AA,A0,FF,C0,00,00,00,00,
430824,00000155,false,Rx,0,8,38,87,CE,54,96,E8,02,C3,
431052,00000157,false,Rx,0,8,D5,97,09,C4,FF,E0,00,80,
432668,000001A1,false,Rx,0,8,B1,45,48,13,95,0C,80,20,
437670,0000019F,false,Rx,0,8,00,00,7D,08,00,6A,90,FE,
440351,000004F7,false,Rx,0,8,00,1A,08,00,90,30,06,F0,
440551,000001C7,false,Rx,0,4,AA,A0,FF,C0,00,00,00,00,
440821,00000428,false,Rx,0,8,00,00,00,7F,00,00,00,00,
441047,00000155,false,Rx,0,8,38,87,CE,54,96,E8,02,C3,
441300,00000157,false,Rx,0,8,D5,E7,09,C4,FF,E0,00,80,
441428,0000042F,false,Rx,0,2,00,20,00,00,00,00,00,00,
442665,000001A1,false,Rx,0,8,B1,45,34,13,95,0C,80,20,
447663,0000019F,false,Rx,0,8,00,00,7D,0D,00,6A,90,FE,
450331,000001C7,false,Rx,0,4,AA,A0,FF,C0,00,00,00,00,
450901,00000155,false,Rx,0,8,38,87,CE,54,96,E8,02,C3,
451154,00000157,false,Rx,0,8,D5,37,09,C4,FF,E0,00,80,
452678,000001A1,false,Rx,0,8,B1,05,34,13,95,0C,80,20,
457671,0000019F,false,Rx,0,8,00,00,7D,02,00,6A,90,FE,
460288,000001C7,false,Rx,0,4,AA,A0,FF,C0,00,00,00,00,
460873,00000155,false,Rx,0,8,38,87,CE,54,96,E8,02,C3,
461095,00000157,false,Rx,0,8,D5,87,09,C4,FF,E0,00,80,
462668,000001A1,false,Rx,0,8,B1,45,48,13,95,0C,80,20,
467665,0000019F,false,Rx,0,8,00,00,7D,07,00,6A,90,FE,
467915,00000511,false,Rx,0,7,04,DE,43,73,F2,1C,7B,00,
470292,000001C7,false,Rx,0,4,AA,A0,FF,C0,00,00,00,00,
470867,00000155,false,Rx,0,8,38,87,CE,54,96,E8,02,C3,
471113,00000157,false,Rx,0,8,D5,D7,09,C4,FF,E0,00,80,
472655,000001A1,false,Rx,0,8,B1,45,48,13,95,0C,80,20,
477671,0000019F,false,Rx,0,8,00,00,7D,0C,00,6A,90,FE,
480301,000001C7,false,Rx,0,4,AA,A0,FF,C0,00,00,00,00,
480850,00000155,false,Rx,0,8,38,87,CE,54,96,E8,02,C3,
481079,00000157,false,Rx,0,8,D5,27,09,C4,FF,E0,00,80,
482673,000001A1,false,Rx,0,8,B1,05,48,13,95,0C,80,20,
487669,0000019F,false,Rx,0,8,00,00,7D,01,00,6A,90,FE,
490302,000001C7,false,Rx,0,4,AA,A0,FF,C0,00,00,00,00,
490823,00000155,false,Rx,0,8,38,87,CE,54,96,E8,02,C3,
491025,00000157,false,Rx,0,8,D5,77,09,C4,FF,E0,00,80,
492668,000001A1,false,Rx,0,8,B1,45,48,13,95,0C,80,20,
494527,0000069F,false,Rx,0,4,71,30,28,2F,00,00,00,00,
495950,00000423,false,Rx,0,8,07,1D,00,02,5D,80,B2,D9,
497661,0000019F,false,Rx,0,8,00,00,7D,06,00,6A,90,FE,
500326,000001C7,false,Rx,0,4,AA,A0,FF,C0,00,00,00,00,
500795,00000155,false,Rx,0,8,38,87,CE,54,96,E8,02,C3,
501023,00000157,false,Rx,0,8,D5,C7,09,C4,FF,E0,00,80,
501279,00000424,false,Rx,0,8,11,40,56,C8,33,5E,55,34,
501480,00000425,false,Rx,0,8,2A,BB,44,9C,42,1A,CD,0B,
501719,00000426,false,Rx,0,8,00,60,01,00,53,18,00,40,
502477,00000445,false,Rx,0,7,80,55,AA,65,04,82,00,00,
502697,000001A1,false,Rx,0,8,B1,45,48,13,95,0C,80,20,
507662,0000019F,false,Rx,0,8,00,00,7D,0B,00,6A,90,FE,
510314,000001C7,false,Rx,0,4,AA,A0,FF,C0,00,00,00,00,
510816,00000155,false,Rx,0,8,38,87,CE,54,96,E8,02,C3,
511040,00000157,false,Rx,0,8,D5,17,09,C4,FF,E0,00,80,
512690,000001A1,false,Rx,0,8,B1,45,34,13,95,0C,80,20,
515981,00000435,false,Rx,0,8,FF,FF,1E,0B,2E,00,00,00,
517674,0000019F,false,Rx,0,8,00,00,7D,00,00,6A,90,FE,
517897,00000419,false,Rx,0,6,5E,09,2A,E6,3E,00,00,00,
520329,000001C7,false,Rx,0,4,AA,A0,FF,C0,00,00,00,00,
520800,00000155,false,Rx,0,8,38,87,CE,54,96,E8,02,C3,
521053,00000157,false,Rx,0,8,D5,67,09,C4,FF,E0,00,80,
521230,00000436,false,Rx,0,6,86,16,64,3A,FF,DC,00,00,
522667,000001A1,false,Rx,0,8,B1,45,48,13,95,0C,80,20,
527672,0000019F,false,Rx,0,8,00,00,7D,05,00,6A,90,FE,
530332,000001C7,false,Rx,0,4,AA,A0,FF,C0,00,00,00,00,
530825,00000155,false,Rx,0,8,38,87,CE,54,96,E8,02,C3,
531055,00000157,false,Rx,0,8,D5,B7,09,C4,FF,E0,00,80,
532666,000001A1,false,Rx,0,8,B1,45,48,13,95,0C,80,20,
537670,0000019F,false,Rx,0,8,00,00,7D,0A,00,6A,90,FE,
540427,000004F7,false,Rx,0,8,00,1A,08,00,90,30,06,F0,
540596,000001C7,false,Rx,0,4,AA,A0,FF,C0,00,00,00,00,
540896,00000428,false,Rx,0,8,00,00,00,7F,00,00,00,00,
541124,00000155,false,Rx,0,8,38,87,CE,54,96,E8,02,C3,
541352,00000157,false,Rx,0,8,D5,07,09,C4,FF,E0,00,80,
541480,0000042F,false,Rx,0,2,00,20,00,00,00,00,00,00,
542667,000001A1,false,Rx,0,8,B1,45,48,13,95,0C,80,20,
547668,0000019F,false,Rx,0,8,00,00,7D,0F,00,6A,90,FE,
550342,000001C7,false,Rx,0,4,AA,A0,FF,C0,00,00,00,00,
550841,00000155,false,Rx,0,8,38,87,CE,54,96,E8,02,C3,
551068,00000157,false,Rx,0,8,D5,57,09,C4,FF,E0,00,80,
552659,000001A1,false,Rx,0,8,B1,45,48,13,95,0C,80,20,
557654,0000019F,false,Rx,0,8,00,00,7D,04,00,6A,90,FE,
560596,000001C7,false,Rx,0,4,AA,A0,FF,C0,00,00,00,00,
560947,00000155,false,Rx,0,8,38,87,CE,54,96,E8,02,C3,
561123,00000157,false,Rx,0,8,D5,A7,09,C4,FF,E0,00,80,
562731,000001A1,false,Rx,0,8,B1,45,48,13,95,0C,80,20,
567824,0000019F,false,Rx,0,8,00,00,7D,09,00,6A,90,FE,
567956,00000511,false,Rx,0,7,04,1D,0C,2C,5D,29,5E,00,
570487,000001C7,false,Rx,0,4,AA,A0,FF,C0,00,00,00,00,
571019,00000155,false,Rx,0,8,38,87,CE,54,96,E8,02,C3,
571133,00000157,false,Rx,0,8,D5,F7,09,C4,FF,E0,00,80,
572698,000001A1,false,Rx,0,8,B1,45,48,13,95,0C,80,20,
577736,0000019F,false,Rx,0,8,00,00,7D,0E,00,6A,90,FE,
580403,000001C7,false,Rx,0,4,AA,A0,FF,C0,00,00,00,00,
580928,00000155,false,Rx,0,8,38,87,CE,54,96,E8,02,C3,
581150,00000157,false,Rx,0,8,D5,47,09,C4,FF,E0,00,80,
582714,000001A1,false,Rx,0,8,B1,45,34,13,95,0C,80,20,
587775,0000019F,false,Rx,0,8,00,00,7D,03,00,6A,90,FE,
590529,000001C7,false,Rx,0,4,AA,A0,FF,C0,00,00,00,00,
590825,00000155,false,Rx,0,8,38,87,CE,54,96,E8,02,C3,
591121,00000157,false,Rx,0,8,D5,97,09,C4,FF,E0,00,80,
592734,000001A1,false,Rx,0,8,B1,45,34,13,95,0C,80,20,
596052,00000423,false,Rx,0,8,07,1D,00,02,5D,80,B2,D9,
597831,0000019F,false,Rx,0,8,00,00,7D,08,00,6A,90,FE,
600587,000001C7,false,Rx,0,4,AA,A0,FF,C0,00,00,00,00,
600867,00000155,false,Rx,0,8,38,87,CE,54,96,E8,02,C3,
601114,00000157,false,Rx,0,8,D5,E7,09,C4,FF,E0,00,80,
601350,00000424,false,Rx,0,8,11,40,56,C8,33,5E,55,34,
601550,00000425,false,Rx,0,8,2A,BB,44,9C,42,1A,CD,0B,
601872,00000426,false,Rx,0,8,00,60,01,00,53,18,00,40,
602595,00000445,false,Rx,0,7,80,55,AA,65,04,82,00,00,
602665,000001A1,false,Rx,0,8,B1,45,48,13,95,0C,80,20,
607731,0000019F,false,Rx,0,8,00,00,7D,0D,00,6A,90,FE,
610629,000001C7,false,Rx,0,4,AA,A0,FF,C0,00,00,00,00,
610893,00000155,false,Rx,0,8,38,87,CE,54,96,E8,02,C3,
611123,00000157,false,Rx,0,8,D5,37,09,C4,FF,E0,00,80,
612830,000001A1,false,Rx,0,8,B1,85,34,13,95,0C,80,20,
616065,00000435,false,Rx,0,8,FF,FF,1E,0B,2E,00,00,00,
617829,0000019F,false,Rx,0,8,00,00,7D,02,00,6A,90,FE,
617897,00000419,false,Rx,0,6,5E,09,2A,E6,3E,00,00,00,
620533,000001C7,false,Rx,0,4,AA,A0,FF,C0,00,00,00,00,
620842,00000155,false,Rx,0,8,38,87,CE,54,96,E8,02,C3,
621092,00000157,false,Rx,0,8,D5,87,09,C4,FF,E0,00,80,
621274,00000436,false,Rx,0,6,86,16,64,3A,FF,DC,00,00,
622823,000001A1,false,Rx,0,8,B1,45,48,13,95,0C,80,20,
627743,0000019F,false,Rx,0,8,00,00,7D,07,00,6A,90,FE,
630560,000001C7,false,Rx,0,4,AA,A0,FF,C0,00,00,00,00,
630901,00000155,false,Rx,0,8,38,87,CE,54,96,E8,02,C3,
631058,00000157,false,Rx,0,8,D5,D7,09,C4,FF,E0,00,80,
632728,000001A1,false,Rx,0,8,B1,05,48,13,95,0C,80,20,
637835,0000019F,false,Rx,0,8,00,00,7D,0C,00,6A,90,FE,
640634,000004F7,false,Rx,0,8,00,1A,08,00,90,30,06,F0,
640652,000001C7,false,Rx,0,4,AA,A0,FF,C0,00,00,00,00,
640961,00000155,false,Rx,0,8,38,87,CE,54,96,E8,02,C3,
641189,00000157,false,Rx,0,8,D5,27,09,C4,FF,E0,00,80,
641438,00000428,false,Rx,0,8,00,00,00,7F,00,00,00,00,
641531,0000042F,false,Rx,0,2,00,20,00,00,00,00,00,00,
642710,000001A1,false,Rx,0,8,B1,45,48,13,95,0C,80,20,
647663,0000019F,false,Rx,0,8,00,00,7D,01,00,6A,90,FE,
650402,000001C7,false,Rx,0,4,AA,A0,FF,C0,00,00,00,00,
650868,00000155,false,Rx,0,8,38,87,CE,54,96,E8,02,C3,
651095,00000157,false,Rx,0,8,D5,77,09,C4,FF,E0,00,80,
652661,000001A1,false,Rx,0,8,B1,45,34,13,95,0C,80,20,
657669,0000019F,false,Rx,0,8,00,00,7D,06,00,6A,90,FE,
660390,000001C7,false,Rx,0,4,AA,A0,FF,C0,00,00,00,00,
660863,00000155,false,Rx,0,8,38,87,CE,54,96,E8,02,C3,
661087,00000157,false,Rx,0,8,D5,C7,09,C4,FF,E0,00,80,
662661,000001A1,false,Rx,0,8,B1,05,48,13,95,0C,80,20,
667663,0000019F,false,Rx,0,8,00,00,7D,0B,00,6A,90,FE,
667916,00000511,false,Rx,0,7,04,5C,D5,E5,C8,36,41,00,
670399,000001C7,false,Rx,0,4,AA,A0,FF,C0,00,00,00,00,
670843,00000155,false,Rx,0,8,38,87,CE,54,96,E8,02,C3,
671071,00000157,false,Rx,0,8,D5,17,09,C4,FF,E0,00,80,
672661,000001A1,false,Rx,0,8,B1,45,48,13,95,0C,80,20,
677663,0000019F,false,Rx,0,8,00,00,7D,00,00,6A,90,FE,
680423,000001C7,false,Rx,0,4,AA,A0,FF,C0,00,00,00,00,
680842,00000155,false,Rx,0,8,38,87,CE,54,96,E8,02,C3,
681069,00000157,false,Rx,0,8,D5,67,09,C4,FF,E0,00,80,
682663,000001A1,false,Rx,0,8,B1,45,48,13,95,0C,80,20,
687668,0000019F,false,Rx,0,8,00,00,7D,05,00,6A,90,FE,
690419,000001C7,false,Rx,0,4,AA,A0,FF,C0,00,00,00,00,
690792,00000155,false,Rx,0,8,38,87,CE,54,96,E8,02,C3,
691018,00000157,false,Rx,0,8,D5,B7,09,C4,FF,E0,00,80,
692662,000001A1,false,Rx,0,8,B1,45,34,13,95,0C,80,20,
695890,00000423,false,Rx,0,8,07,1D,00,02,5D,80,B2,D9,
697662,0000019F,false,Rx,0,8,00,00,7D,0A,00,6A,90,FE,
700419,000001C7,false,Rx,0,4,AA,A0,FF,C0,00,00,00,00,
700793,00000155,false,Rx,0,8,38,87,CE,54,96,E8,02,C3,
701018,00000157,false,Rx,0,8,D5,07,09,C4,FF,E0,00,80,
701240,00000424,false,Rx,0,8,11,40,56,C8,33,5E,55,34,
701465,00000425,false,Rx,0,8,2A,BB,44,9C,42,1A,CD,0C,
701715,00000426,false,Rx,0,8,00,60,01,00,53,18,00,40,
702416,00000445,false,Rx,0,7,80,55,AA,65,04,82,00,00,
702659,000001A1,false,Rx,0,8,B1,45,48,13,95,0C,80,20,
707692,0000019F,false,Rx,0,8,00,00,7D,0F,00,6A,90,FE,
710426,000001C7,false,Rx,0,4,AA,A0,FF,C0,00,00,00,00,
710789,00000155,false,Rx,0,8,38,87,CE,54,96,E8,02,C3,
711038,00000157,false,Rx,0,8,D5,57,09,C4,FF,E0,00,80,
712662,000001A1,false,Rx,0,8,B1,45,48,13,95,0C,80,20,
715952,00000435,false,Rx,0,8,FF,FF,1E,0B,2E,00,00,00,
717662,0000019F,false,Rx,0,8,00,00,7D,04,00,6A,90,FE,
717891,00000419,false,Rx,0,6,5E,09,2A,E6,3E,00,00,00,
720429,000001C7,false,Rx,0,4,AA,A0,FF,C0,00,00,00,00,
720799,00000155,false,Rx,0,8,38,87,CE,54,96,E8,02,C3,
721064,00000157,false,Rx,0,8,D5,A7,09,C4,FF,E0,00,80,
721249,00000436,false,Rx,0,6,86,16,64,3A,FF,DC,00,00,
722671,000001A1,false,Rx,0,8,B1,45,48,13,95,0C,80,20,
727665,0000019F,false,Rx,0,8,00,00,7D,09,00,6A,90,FE,
730417,000001C7,false,Rx,0,4,AA,A0,FF,C0,00,00,00,00,
730813,00000155,false,Rx,0,8,38,87,CE,54,96,E8,02,C3,
731037,00000157,false,Rx,0,8,D5,F7,09,C4,FF,E0,00,80,
732658,000001A1,false,Rx,0,8,B1,45,34,13,95,0C,80,20,
737664,0000019F,false,Rx,0,8,00,00,7D,0E,00,6A,90,FE,
740517,000004F7,false,Rx,0,8,00,1A,08,00,90,30,06,F0,
740660,000001C7,false,Rx,0,4,AA,A0,FF,C0,00,00,00,00,
740941,00000428,false,Rx,0,8,00,00,00,7F,00,00,00,00,
741161,00000155,false,Rx,0,8,38,87,CE,54,96,E8,02,C3,
741386,00000157,false,Rx,0,8,D5,47,09,C4,FF,E0,00,80,
741536,0000042F,false,Rx,0,2,00,20,00,00,00,00,00,00,
742662,000001A1,false,Rx,0,8,B1,45,48,13,95,0C,80,20,
747662,0000019F,false,Rx,0,8,00,00,7D,03,00,6A,90,FE,
750443,000001C7,false,Rx,0,4,AA,A0,FF,C0,00,00,00,00,
750812,00000155,false,Rx,0,8,38,87,CE,54,96,E8,02,C3,
751062,00000157,false,Rx,0,8,D5,97,09,C4,FF,E0,00,80,
752655,000001A1,false,Rx,0,8,B1,45,48,13,95,0C,80,20,
757661,0000019F,false,Rx,0,8,00,00,7D,08,00,6A,90,FE,
760440,000001C7,false,Rx,0,4,AA,A0,FF,C0,00,00,00,00,
760812,00000155,false,Rx,0,8,38,87,CE,54,96,E8,02,C3,
761060,00000157,false,Rx,0,8,D5,E7,09,C4,FF,E0,00,80,
762664,000001A1,false,Rx,0,8,B1,45,48,13,95,0C,80,20,
767665,0000019F,false,Rx,0,8,00,00,7D,0D,00,6A,90,FE,
767906,00000511,false,Rx,0,7,04,9B,9E,9E,33,43,24,00,
770444,000001C7,false,Rx,0,4,AA,A0,FF,C0,00,00,00,00,
770862,00000155,false,Rx,0,8,38,87,CE,54,96,E8,02,C3,
771085,00000157,false,Rx,0,8,D5,37,09,C4,FF,E0,00,80,
772659,000001A1,false,Rx,0,8,B1,45,48,13,95,0C,80,20,
777666,0000019F,false,Rx,0,8,00,00,7D,02,00,6A,90,FE,
780464,000001C7,false,Rx,0,4,AA,A0,FF,C0,00,00,00,00,
780863,00000155,false,Rx,0,8,38,87,CE,54,96,E8,02,C3,
781086,00000157,false,Rx,0,8,D5,87,09,C4,FF,E0,00,80,
782658,000001A1,false,Rx,0,8,B1,05,34,13,95,0C,80,20,
787658,0000019F,false,Rx,0,8,00,00,7D,07,00,6A,90,FE,
790466,000001C7,false,Rx,0,4,AA,A0,FF,C0,00,00,00,00,
790785,00000155,false,Rx,0,8,38,87,CE,54,96,E8,02,C3,
791011,00000157,false,Rx,0,8,D5,D7,09,C4,FF,E0,00,80,
792654,000001A1,false,Rx,0,8,B1,45,48,13,95,0C,80,20,
795964,00000423,false,Rx,0,8,07,1D,00,02,5D,80,B2,D9,
797656,0000019F,false,Rx,0,8,00,00,7D,0C,00,6A,90,FE,
800466,000001C7,false,Rx,0,4,AA,A0,FF,C0,00,00,00,00,
800787,00000155,false,Rx,0,8,38,87,CE,54,96,E8,02,C3,
801009,00000157,false,Rx,0,8,D5,27,09,C4,FF,E0,00,80,
801259,00000424,false,Rx,0,8,11,40,56,C8,33,5E,55,34,
801459,00000425,false,Rx,0,8,2A,BB,44,9C,42,1A,CD,0C,
801709,00000426,false,Rx,0,8,00,60,01,00,53,18,00,40,
802409,00000445,false,Rx,0,7,80,55,AA,65,04,82,00,00,
802657,000001A1,false,Rx,0,8,B1,45,48,13,95,0C,80,20,
807658,0000019F,false,Rx,0,8,00,00,7D,01,00,6A,90,FE,
810467,000001C7,false,Rx,0,4,AA,A0,FF,C0,00,00,00,00,
810787,00000155,false,Rx,0,8,38,87,CE,54,96,E8,02,C3,
811037,00000157,false,Rx,0,8,D5,77,09,C4,FF,E0,00,80,
812659,000001A1,false,Rx,0,8,B1,05,48,13,95,0C,80,20,
815915,00000435,false,Rx,0,8,FF,FF,1E,0B,2E,00,00,00,
817659,0000019F,false,Rx,0,8,00,00,7D,06,00,6A,90,FE,
817903,00000419,false,Rx,0,6,5E,09,2A,E6,3E,00,00,00,
820465,000001C7,false,Rx,0,4,AA,A0,FF,C0,00,00,00,00,
820785,00000155,false,Rx,0,8,38,87,CE,54,96,E8,02,C3,
821036,00000157,false,Rx,0,8,D5,C7,09,C4,FF,E0,00,80,
821235,00000436,false,Rx,0,6,86,16,64,3A,FF,DC,00,00,
822661,000001A1,false,Rx,0,8,B1,45,48,13,95,0C,80,20,
827659,0000019F,false,Rx,0,8,00,00,7D,0B,00,6A,90,FE,
830489,000001C7,false,Rx,0,4,AA,A0,FF,C0,00,00,00,00,
830784,00000155,false,Rx,0,8,38,87,CE,54,96,E8,02,C3,
831059,00000157,false,Rx,0,8,D5,17,09,C4,FF,E0,00,80,
832653,000001A1,false,Rx,0,8,B1,45,48,13,95,0C,80,20,
837667,0000019F,false,Rx,0,8,00,00,7D,00,00,6A,90,FE,
840565,000004F7,false,Rx,0,8,00,1A,08,00,90,30,06,F0,
840734,000001C7,false,Rx,0,4,AA,A0,FF,C0,00,00,00,00,
840959,00000155,false,Rx,0,8,38,87,CE,54,96,E8,02,C4,
841185,00000157,false,Rx,0,8,D5,67,09,C4,FF,E0,00,80,
841435,00000428,false,Rx,0,8,00,00,00,7F,00,00,00,00,
841584,0000042F,false,Rx,0,2,00,20,00,00,00,00,00,00,
842654,000001A1,false,Rx,0,8,B1,05,34,13,95,0C,80,20,
847657,0000019F,false,Rx,0,8,00,00,7D,05,00,6A,90,FE,
850487,000001C7,false,Rx,0,4,AA,A0,FF,C0,00,00,00,00,
850862,00000155,false,Rx,0,8,38,87,CE,54,96,E8,02,C4,
851085,00000157,false,Rx,0,8,D5,B7,09,C4,FF,E0,00,80,
852655,000001A1,false,Rx,0,8,B1,45,34,13,95,0C,80,20,
857659,0000019F,false,Rx,0,8,00,00,7D,0A,00,6A,90,FE,
860516,000001C7,false,Rx,0,4,AA,A0,FF,C0,00,00,00,00,
860861,00000155,false,Rx,0,8,38,87,CE,54,96,E8,02,C4,
861085,00000157,false,Rx,0,8,D5,07,09,C4,FF,E0,00,80,
862654,000001A1,false,Rx,0,8,B1,45,48,13,95,0C,80,20,
867658,0000019F,false,Rx,0,8,00,00,7D,0F,00,6A,90,FE,
867902,00000511,false,Rx,0,7,04,DA,67,57,9E,50,07,00,
870512,000001C7,false,Rx,0,4,AA,A0,FF,C0,00,00,00,00,
870810,00000155,false,Rx,0,8,38,87,CE,54,96,E8,02,C4,
871060,00000157,false,Rx,0,8,D5,57,09,C4,FF,E0,00,80,
872663,000001A1,false,Rx,0,8,B1,45,48,13,95,0C,80,20,
877659,0000019F,false,Rx,0,8,00,00,7D,04,00,6A,90,FE,
880514,000001C7,false,Rx,0,4,AA,A0,FF,C0,00,00,00,00,
880811,00000155,false,Rx,0,8,38,87,CE,54,96,E8,02,C4,
881059,00000157,false,Rx,0,8,D5,A7,09,C4,FF,E0,00,80,
882655,000001A1,false,Rx,0,8,B1,45,34,13,95,0C,80,20,
887657,0000019F,false,Rx,0,8,00,00,7D,09,00,6A,90,FE,
890512,000001C7,false,Rx,0,4,AA,A0,FF,C0,00,00,00,00,
890784,00000155,false,Rx,0,8,38,87,CE,54,96,E8,02,C4,
891009,00000157,false,Rx,0,8,D5,F7,09,C4,FF,E0,00,80,
892657,000001A1,false,Rx,0,8,B1,45,48,13,95,0C,80,20,
895892,00000423,false,Rx,0,8,07,1D,00,02,5D,80,B2,D9,
897656,0000019F,false,Rx,0,8,00,00,7D,0E,00,6A,90,FE,
900515,000001C7,false,Rx,0,4,AA,A0,FF,C0,00,00,00,00,
900785,00000155,false,Rx,0,8,38,87,CE,54,96,E8,02,C4,
901010,00000157,false,Rx,0,8,D5,47,09,C4,FF,E0,00,80,
901235,00000424,false,Rx,0,8,11,40,56,C8,33,5E,55,34,
901460,00000425,false,Rx,0,8,2A,BB,44,9C,42,1A,CD,0C,
901709,00000426,false,Rx,0,8,00,60,01,00,53,18,00,40,
902412,00000445,false,Rx,0,7,80,55,AA,65,04,82,00,00,
902656,000001A1,false,Rx,0,8,B1,05,48,13,95,0C,80,20,
907659,0000019F,false,Rx,0,8,00,00,7D,03,00,6A,90,FE,
910540,000001C7,false,Rx,0,4,AA,A0,FF,C0,00,00,00,00,
910785,00000155,false,Rx,0,8,38,87,CE,54,96,E8,02,C5,
911010,00000157,false,Rx,0,8,D5,97,09,C4,FF,E0,00,80,
912657,000001A1,false,Rx,0,8,B1,45,48,13,95,0C,80,20,
915890,00000435,false,Rx,0,8,FF,FF,1E,0B,2E,00,00,00,
917659,0000019F,false,Rx,0,8,00,00,7D,08,00,6A,90,FE,
917901,00000419,false,Rx,0,6,5E,09,2A,E6,3E,00,00,00,
920540,000001C7,false,Rx,0,4,AA,A0,FF,C0,00,00,00,00,
920761,00000155,false,Rx,0,8,38,87,CE,54,96,E8,02,C4,
921035,00000157,false,Rx,0,8,D5,E7,09,C4,FF,E0,00,80,
921235,00000436,false,Rx,0,6,86,16,64,3A,FF,DC,00,00,
922665,000001A1,false,Rx,0,8,B1,45,48,13,95,0C,80,20,
927658,0000019F,false,Rx,0,8,00,00,7D,0D,00,6A,90,FE,
930539,000001C7,false,Rx,0,4,AA,A0,FF,C0,00,00,00,00,
930787,00000155,false,Rx,0,8,38,87,CE,54,96,E8,02,C5,
931036,00000157,false,Rx,0,8,D5,37,09,C4,FF,E0,00,80,
932658,000001A1,false,Rx,0,8,B1,45,48,13,95,0C,80,20,
937659,0000019F,false,Rx,0,8,00,00,7D,02,00,6A,90,FE,
940675,000004F7,false,Rx,0,8,00,1A,08,00,90,30,06,F0,
940776,000001C7,false,Rx,0,4,AA,A0,FF,C0,00,00,00,00,
941026,00000155,false,Rx,0,8,38,87,CE,54,96,E8,02,C5,
941253,00000157,false,Rx,0,8,D5,87,09,C4,FF,E0,00,80,
941503,00000428,false,Rx,0,8,00,00,00,7F,00,00,00,00,
941654,0000042F,false,Rx,0,2,00,20,00,00,00,00,00,00,
942656,000001A1,false,Rx,0,8,B1,45,48,13,95,0C,80,20,
947660,0000019F,false,Rx,0,8,00,00,7D,07,00,6A,90,FE,
950564,000001C7,false,Rx,0,4,AA,A0,FF,C0,00,00,00,00,
950811,00000155,false,Rx,0,8,38,87,CE,54,96,E8,02,C5,
951035,00000157,false,Rx,0,8,D5,D7,09,C4,FF,E0,00,80,
952656,000001A1,false,Rx,0,8,B1,45,48,13,95,0C,80,20,
957658,0000019F,false,Rx,0,8,00,00,7D,0C,00,6A,90,FE,
960566,000001C7,false,Rx,0,4,AA,A0,FF,C0,00,00,00,00,
960835,00000155,false,Rx,0,8,38,87,CE,54,96,E8,02,C5,
961085,00000157,false,Rx,0,8,D5,27,09,C4,FF,E0,00,80,
962658,000001A1,false,Rx,0,8,B1,05,48,13,95,0C,80,20,
967659,0000019F,false,Rx,0,8,00,00,7D,01,00,6A,90,FE,
967902,00000511,false,Rx,0,7,04,19,30,10,09,5D,EA,00,
970565,000001C7,false,Rx,0,4,AA,A0,FF,C0,00,00,00,00,
970860,00000155,false,Rx,0,8,38,87,CE,54,96,E8,02,C5,
971086,00000157,false,Rx,0,8,D5,77,09,C4,FF,E0,00,80,
972655,000001A1,false,Rx,0,8,B1,45,48,13,95,0C,80,20,
977660,0000019F,false,Rx,0,8,00,00,7D,06,00,6A,90,FE,
980590,000001C7,false,Rx,0,4,AA,A0,FF,C0,00,00,00,00,
980809,00000155,false,Rx,0,8,38,87,CE,54,96,E8,02,C4,
981034,00000157,false,Rx,0,8,D5,C7,09,C4,FF,E0,00,80,
982655,000001A1,false,Rx,0,8,B1,45,48,13,95,0C,80,20,
987657,0000019F,false,Rx,0,8,00,00,7D,0B,00,6A,90,FE,
990587,000001C7,false,Rx,0,4,AA,A0,FF,C0,00,00,00,00,
990839,00000155,false,Rx,0,8,38,87,CE,54,96,E8,02,C5,
991064,00000157,false,Rx,0,8,D5,17,09,C4,FF,E0,00,80,
992656,000001A1,false,Rx,0,8,B1,05,48,13,95,0C,80,20,
995969,00000423,false,Rx,0,8,07,1D,00,02,B2,80,5D,D9,
997674,0000019F,false,Rx,0,8,00,00,7D,00,00,6A,90,FE,
1000589,000001C7,false,Rx,0,4,AA,A0,FF,C0,00,00,00,00,
1000810,00000155,false,Rx,0,8,38,87,CE,54,96,E8,02,C5,
1001034,00000157,false,Rx,0,8,D5,67,09,C4,FF,E0,00,80,
1001284,00000424,false,Rx,0,8,11,40,56,C8,33,5E,AA,34,
1001509,00000425,false,Rx,0,8,2A,BB,44,9C,42,1A,CD,0C,
1001735,00000426,false,Rx,0,8,00,60,01,00,53,18,00,40,
1002385,00000445,false,Rx,0,7,80,55,55,65,04,82,00,00,
1002654,000001A1,false,Rx,0,8,B1,45,48,13,95,0C,80,20,
1007697,0000019F,false,Rx,0,8,00,00,7D,05,00,6A,90,FE,
1010594,000001C7,false,Rx,0,4,AA,A0,FF,C0,00,00,00,00,
1010843,00000155,false,Rx,0,8,38,87,CE,54,96,E8,02,C4,
1011098,00000157,false,Rx,0,8,D5,B7,09,C4,FF,E0,00,80,
1012694,000001A1,false,Rx,0,8,B1,45,48,13,95,0C,80,20,
1016015,00000435,false,Rx,0,8,FF,FF,1E,0B,2E,00,00,00,
1017702,0000019F,false,Rx,0,8,00,00,7D,0A,00,6A,90,FE,
1017944,00000419,false,Rx,0,6,5E,09,2A,E6,3E,00,00,00,
1020742,000001C7,false,Rx,0,4,AA,A0,FF,C0,00,00,00,00,
1020875,00000155,false,Rx,0,8,38,87,CE,54,96,E8,02,C5,
1021102,00000157,false,Rx,0,8,D5,07,09,C4,FF,E0,00,80,
1021296,00000436,false,Rx,0,6,86,16,64,3A,FF,DC,00,00,
1022712,000001A1,false,Rx,0,8,B1,05,48,13,95,0C,80,20,
1027694,0000019F,false,Rx,0,8,00,00,7D,0F,00,6A,90,FE,
1030683,000001C7,false,Rx,0,4,AA,A0,FF,C0,00,00,00,00,
1030875,00000155,false,Rx,0,8,38,87,CE,54,96,E8,02,C4,
1031103,00000157,false,Rx,0,8,D5,57,09,C4,FF,E0,00,80,
1032741,000001A1,false,Rx,0,8,B1,45,48,13,95,0C,80,20,
1037743,0000019F,false,Rx,0,8,00,00,7D,04,00,6A,90,FE,
1040742,000004F7,false,Rx,0,8,00,1A,08,00,90,30,06,F0,
1040969,00000155,false,Rx,0,8,38,87,CE,54,96,E8,02,C5,
1041199,00000157,false,Rx,0,8,D5,A7,09,C4,FF,E0,00,80,
1041385,000001C7,false,Rx,0,4,AA,A0,FF,C0,00,00,00,00,
1041651,00000428,false,Rx,0,8,00,00,00,7F,00,00,00,00,
1041751,0000042F,false,Rx,0,2,00,20,00,00,00,00,00,00,
1042737,000001A1,false,Rx,0,8,B1,45,48,13,95,0C,80,20,
1047737,0000019F,false,Rx,0,8,00,00,7D,09,00,6A,90,FE,
1050738,000001C7,false,Rx,0,4,AA,A0,FF,C0,00,00,00,00,
1050863,00000155,false,Rx,0,8,38,87,CE,54,96,E8,02,C5,
1051306,00000157,false,Rx,0,8,D5,F7,09,C4,FF,E0,00,80,
1052849,000001A1,false,Rx,0,8,B1,05,48,13,95,0C,80,20,
1057684,0000019F,false,Rx,0,8,00,00,7D,0E,00,6A,90,FE,
1060739,000001C7,false,Rx,0,4,AA,A0,FF,C0,00,00,00,00,
1060918,00000155,false,Rx,0,8,38,87,CE,54,96,E8,02,C5,
1061256,00000157,false,Rx,0,8,D5,47,09,C4,FF,E0,00,80,
1062733,000001A1,false,Rx,0,8,B1,45,48,13,95,0C,80,20,
1067837,0000019F,false,Rx,0,8,00,00,7D,03,00,6A,90,FE,
1067918,00000511,false,Rx,0,7,04,58,F9,C9,74,6A,CD,00,
1070741,000001C7,false,Rx,0,4,AA,A0,FF,C0,00,00,00,00,
1070900,00000155,false,Rx,0,8,38,87,CE,54,96,E8,02,C5,
1071232,00000157,false,Rx,0,8,D5,97,09,C4,FF,E0,00,80,
1072833,000001A1,false,Rx,0,8,B1,45,48,13,95,0C,80,20,
1077832,0000019F,false,Rx,0,8,00,00,7D,08,00,6A,90,FE,
1080746,000001C7,false,Rx,0,4,AA,A0,FF,C0,00,00,00,00,
1080885,00000155,false,Rx,0,8,38,87,CE,54,96,E8,02,C4,
1081298,00000157,false,Rx,0,8,D5,E7,09,C4,FF,E0,00,80,
1082740,000001A1,false,Rx,0,8,B1,45,48,13,95,0C,80,20,
1087744,0000019F,false,Rx,0,8,00,00,7D,0D,00,6A,90,FE,
1090740,000001C7,false,Rx,0,4,AA,A0,FF,C0,00,00,00,00,
1090869,00000155,false,Rx,0,8,38,87,CE,54,96,E8,02,C5,
1091183,00000157,false,Rx,0,8,D5,37,09,C4,FF,E0,00,80,
1092724,000001A1,false,Rx,0,8,B1,45,48,13,95,0C,80,20,
1096063,00000423,false,Rx,0,8,07,1D,00,02,B2,80,5D,D9,
1097835,0000019F,false,Rx,0,8,00,00,7D,02,00,6A,90,FE,
1100843,000001C7,false,Rx,0,4,AA,A0,FF,C0,00,00,00,00,
1100892,00000155,false,Rx,0,8,38,87,CE,54,96,E8,02,C5,
1101204,00000157,false,Rx,0,8,D5,87,09,C4,FF,E0,00,80,
1101359,00000424,false,Rx,0,8,11,40,56,C8,33,5E,AA,34,
1101629,00000425,false,Rx,0,8,2A,BB,44,9C,42,1A,CD,0C,
1101889,00000426,false,Rx,0,8,00,60,01,00,53,18,00,40,
1102534,00000445,false,Rx,0,7,80,55,55,65,04,82,00,00,
1102669,000001A1,false,Rx,0,8,B1,45,48,13,95,0C,80,20,
1107840,0000019F,false,Rx,0,8,00,00,7D,07,00,6A,90,FE,
1110740,000001C7,false,Rx,0,4,AA,A0,FF,C0,00,00,00,00,
1110945,00000155,false,Rx,0,8,38,87,CE,54,96,E8,02,C4,
1111207,00000157,false,Rx,0,8,D5,D7,09,C4,FF,E0,00,80,
1112829,000001A1,false,Rx,0,8,B1,05,48,13,95,0C,80,20,
1116246,00000435,false,Rx,0,8,FF,FF,1E,0B,2E,00,00,00,
1117743,0000019F,false,Rx,0,8,00,00,7D,0C,00,6A,90,FE,
1117990,00000419,false,Rx,0,6,5E,09,2A,E6,3E,00,00,00,
1120840,000001C7,false,Rx,0,4,AA,A0,FF,C0,00,00,00,00,
1120900,00000155,false,Rx,0,8,38,87,CE,54,96,E8,02,C4,
1121379,00000157,false,Rx,0,8,D5,27,09,C4,FF,E0,00,80,
1121389,00000436,false,Rx,0,6,86,16,64,3A,FF,DC,00,00,
1122741,000001A1,false,Rx,0,8,B1,45,48,13,95,0C,80,20,
1127747,0000019F,false,Rx,0,8,00,00,7D,01,00,6A,90,FE,
1130708,000001C7,false,Rx,0,4,AA,A0,FF,C0,00,00,00,00,
1130994,00000155,false,Rx,0,8,38,87,CE,54,96,E8,02,C5,
1131224,00000157,false,Rx,0,8,D5,77,09,C4,FF,E0,00,80,
1132746,000001A1,false,Rx,0,8,B1,45,48,13,95,0C,80,20,
1137818,0000019F,false,Rx,0,8,00,00,7D,06,00,6A,90,FE,
1141002,000004F7,false,Rx,0,8,00,1A,08,00,90,30,06,F0,
1141011,00000155,false,Rx,0,8,38,87,CE,54,96,E8,02,C4,
1141292,00000157,false,Rx,0,8,D5,C7,09,C4,FF,E0,00,80,
1141409,000001C7,false,Rx,0,4,AA,A0,FF,C0,00,00,00,00,
1141745,00000428,false,Rx,0,8,00,00,00,7F,00,00,00,00,
1141822,0000042F,false,Rx,0,2,00,20,00,00,00,00,00,00,
1142720,000001A1,false,Rx,0,8,B1,45,48,13,95,0C,80,20,
1147717,0000019F,false,Rx,0,8,00,00,7D,0B,00,6A,90,FE,
1150710,000001C7,false,Rx,0,4,AA,A0,FF,C0,00,00,00,00,
1150970,00000155,false,Rx,0,8,38,87,CE,54,96,E8,02,C4,
1151200,00000157,false,Rx,0,8,D5,17,09,C4,FF,E0,00,80,
1152714,000001A1,false,Rx,0,8,B1,45,48,13,95,0C,80,20,
1157713,0000019F,false,Rx,0,8,00,00,7D,00,00,6A,90,FE,
1160746,000001C7,false,Rx,0,4,AA,A0,FF,C0,00,00,00,00,
1160971,00000155,false,Rx,0,8,38,87,CE,54,96,E8,02,C5,
1161199,00000157,false,Rx,0,8,D5,67,09,C4,FF,E0,00,80,
1162709,000001A1,false,Rx,0,8,B1,45,48,13,95,0C,80,20,
1167713,0000019F,false,Rx,0,8,00,00,7D,05,00,6A,90,FE,
1167992,00000511,false,Rx,0,7,04,97,C2,82,DF,77,B0,00,
1170701,000001C7,false,Rx,0,4,AA,A0,FF,C0,00,00,00,00,
1170971,00000155,false,Rx,0,8,38,87,CE,54,96,E8,02,C4,
1171223,00000157,false,Rx,0,8,D5,B7,09,C4,FF,E0,00,80,
1172710,000001A1,false,Rx,0,8,B1,05,48,13,95,0C,80,20,
1177713,0000019F,false,Rx,0,8,00,00,7D,0A,00,6A,90,FE,
1180744,000001C7,false,Rx,0,4,AA,A0,FF,C0,00,00,00,00,
1180996,00000155,false,Rx,0,8,38,87,CE,54,96,E8,02,C4,
1181224,00000157,false,Rx,0,8,D5,07,09,C4,FF,E0,00,80,
1182664,000001A1,false,Rx,0,8,B1,45,48,13,95,0C,80,20,
1187713,0000019F,false,Rx,0,8,00,00,7D,0F,00,6A,90,FE,
1190801,00000155,false,Rx,0,8,38,87,CE,54,96,E8,02,C4,
1191007,00000157,false,Rx,0,8,D5,57,09,C4,FF,E0,00,80,
1191161,000001C7,false,Rx,0,4,AA,A0,FF,C0,00,00,00,00,
1192711,000001A1,false,Rx,0,8,B1,45,48,13,95,0C,80,20,
1195921,00000423,false,Rx,0,8,07,1D,00,02,B2,80,5D,D9,
1197703,0000019F,false,Rx,0,8,00,00,7D,04,00,6A,90,FE,
1200698,000001C7,false,Rx,0,4,AA,A0,FF,C0,00,00,00,00,
1200919,00000155,false,Rx,0,8,38,87,CE,54,96,E8,02,C4,
1201163,00000157,false,Rx,0,8,D5,A7,09,C4,FF,E0,00,80,
1201390,00000424,false,Rx,0,8,11,40,56,C8,33,5E,AA,34,
1201590,00000425,false,Rx,0,8,2A,BB,44,9C,42,1A,CD,0C,
1201839,00000426,false,Rx,0,8,00,60,01,00,53,18,00,40,
1202416,00000445,false,Rx,0,7,80,55,55,65,04,82,00,00,
1202664,000001A1,false,Rx,0,8,B1,05,48,13,95,0C,80,20,
1207667,0000019F,false,Rx,0,8,00,00,7D,09,00,6A,90,FE,
1210698,000001C7,false,Rx,0,4,AA,A0,FF,C0,00,00,00,00,
1210917,00000155,false,Rx,0,8,38,87,CE,54,96,E8,02,C4,
1211142,00000157,false,Rx,0,8,D5,F7,09,C4,FF,E0,00,80,
1212666,000001A1,false,Rx,0,8,B1,45,48,13,95,0C,80,20,
1215874,00000435,false,Rx,0,8,FF,FF,1E,0B,2E,00,00,00,
1217666,0000019F,false,Rx,0,8,00,00,7D,0E,00,6A,90,FE,
1217921,00000419,false,Rx,0,6,5E,09,2A,E6,3E,00,00,00,
1220747,00000155,false,Rx,0,8,38,87,CE,54,96,E8,02,C5,
1220975,00000157,false,Rx,0,8,D5,47,09,C4,FF,E0,00,80,
1221151,000001C7,false,Rx,0,4,AA,A0,FF,C0,00,00,00,00,
1221350,00000436,false,Rx,0,6,86,16,64,3A,FF,DC,00,00,
1222666,000001A1,false,Rx,0,8,B1,45,48,13,95,0C,80,20,
1227663,0000019F,false,Rx,0,8,00,00,7D,03,00,6A,90,FE,
1230698,000001C7,false,Rx,0,4,AA,A0,FF,C0,00,00,00,00,
1230925,00000155,false,Rx,0,8,38,87,CE,54,96,E8,02,C4,
1231151,00000157,false,Rx,0,8,D5,97,09,C4,FF,E0,00,80,
1232666,000001A1,false,Rx,0,8,B1,45,48,13,95,0C,80,20,
1237667,0000019F,false,Rx,0,8,00,00,7D,08,00,6A,90,FE,
1240778,000004F7,false,Rx,0,8,00,1A,08,00,90,30,06,F0,
1241000,00000157,false,Rx,0,8,D5,E7,09,C4,FF,E0,00,80,
1241228,00000155,false,Rx,0,8,38,87,CE,54,96,E8,02,C4,
1241406,000001C7,false,Rx,0,4,AA,A0,FF,C0,00,00,00,00,
1241665,00000428,false,Rx,0,8,00,00,00,7F,00,00,00,00,
1241821,0000042F,false,Rx,0,2,00,20,00,00,00,00,00,00,
1242666,000001A1,false,Rx,0,8,B1,45,48,13,95,0C,80,20,
1247686,0000019F,false,Rx,0,8,00,00,7D,0D,00,6A,90,FE,
1250708,000001C7,false,Rx,0,4,AA,A0,FF,C0,00,00,00,00,
1250951,00000155,false,Rx,0,8,38,87,CE,54,96,E8,02,C4,
1251180,00000157,false,Rx,0,8,D5,37,09,C4,FF,E0,00,80,
1252673,000001A1,false,Rx,0,8,B1,45,48,13,95,0C,80,20,
1257681,0000019F,false,Rx,0,8,00,00,7D,02,00,6A,90,FE,
1260736,000001C7,false,Rx,0,4,AA,A0,FF,C0,00,00,00,00,
1260952,00000155,false,Rx,0,8,38,87,CE,54,96,E8,02,C4,
1261180,00000157,false,Rx,0,8,D5,87,09,C4,FF,E0,00,80,
1262670,000001A1,false,Rx,0,8,B1,45,48,13,95,0C,80,20,
1267673,0000019F,false,Rx,0,8,00,00,7D,07,00,6A,90,FE,
1267913,00000511,false,Rx,0,7,04,D6,8B,3B,4A,84,93,00,
1270721,000001C7,false,Rx,0,4,AA,A0,FF,C0,00,00,00,00,
1270946,00000155,false,Rx,0,8,38,87,CE,54,96,E8,02,C4,
1271170,00000157,false,Rx,0,8,D5,D7,09,C4,FF,E0,00,80,
1272665,000001A1,false,Rx,0,8,B1,45,34,13,95,0C,80,20,
1277836,0000019F,false,Rx,0,8,00,00,7D,0C,00,6A,90,FE,
1280851,00000155,false,Rx,0,8,38,87,CE,54,96,E8,02,C4,
1281074,00000157,false,Rx,0,8,D5,27,09,C4,FF,E0,00,80,
1281225,000001C7,false,Rx,0,4,AA,A0,FF,C0,00,00,00,00,
1282732,000001A1,false,Rx,0,8,B1,45,48,13,95,0C,80,20,
1287737,0000019F,false,Rx,0,8,00,00,7D,01,00,6A,90,FE,
1290812,00000155,false,Rx,0,8,38,87,CE,54,96,E8,02,C4,
1291039,00000157,false,Rx,0,8,D5,77,09,C4,FF,E0,00,80,
1291210,000001C7,false,Rx,0,4,AA,A0,FF,C0,00,00,00,00,
1292736,000001A1,false,Rx,0,8,B1,45,48,13,95,0C,80,20,
1296060,00000423,false,Rx,0,8,07,1D,00,02,B2,80,5D,D9,
1297836,0000019F,false,Rx,0,8,00,00,7D,06,00,6A,90,FE,
1300999,00000155,false,Rx,0,8,38,87,CE,54,96,E8,02,C5,
1301010,000001C7,false,Rx,0,4,AA,A0,FF,C0,00,00,00,00,
1301160,00000157,false,Rx,0,8,D5,C7,09,C4,FF,E0,00,80,
1301538,00000424,false,Rx,0,8,11,40,56,C8,33,5E,AA,34,
1301649,00000425,false,Rx,0,8,2A,BB,44,9C,42,1A,CD,0C,
1301950,00000426,false,Rx,0,8,00,60,01,00,53,18,00,40,
1302456,00000445,false,Rx,0,7,80,55,55,65,04,82,00,00,
1302674,000001A1,false,Rx,0,8,B1,45,48,13,95,0C,80,20,
1307834,0000019F,false,Rx,0,8,00,00,7D,0B,00,6A,90,FE,
1310850,00000155,false,Rx,0,8,38,87,CE,54,96,E8,02,C5,
1311007,000001C7,false,Rx,0,4,AA,A0,FF,C0,00,00,00,00,
1311222,00000157,false,Rx,0,8,D5,17,09,C4,FF,E0,00,80,
1312836,000001A1,false,Rx,0,8,B1,05,48,13,95,0C,80,20,
1315963,00000435,false,Rx,0,8,FF,FF,1E,0B,2E,00,00,00,
1317842,0000019F,false,Rx,0,8,00,00,7D,00,00,6A,90,FE,
1318002,00000419,false,Rx,0,6,5E,09,2A,E6,3E,00,00,00,
1320970,00000155,false,Rx,0,8,38,87,CE,54,96,E8,02,C5,
1320979,000001C7,false,Rx,0,4,AA,A0,FF,C0,00,00,00,00,
1321198,00000157,false,Rx,0,8,D5,67,09,C4,FF,E0,00,80,
1321402,00000436,false,Rx,0,6,86,16,64,3A,FF,DC,00,00,
1322741,000001A1,false,Rx,0,8,B1,05,48,13,95,0C,80,20,
1327770,0000019F,false,Rx,0,8,00,00,7D,05,00,6A,90,FE,
1330829,00000155,false,Rx,0,8,38,87,CE,54,96,E8,02,C4,
1331053,00000157,false,Rx,0,8,D5,B7,09,C4,FF,E0,00,80,
1331241,000001C7,false,Rx,0,4,AA,A0,FF,C0,00,00,00,00,
1332834,000001A1,false,Rx,0,8,B1,45,48,13,95,0C,80,20,
1337679,0000019F,false,Rx,0,8,00,00,7D,0A,00,6A,90,FE,
1340870,000004F7,false,Rx,0,8,00,1A,08,00,90,30,06,F0,
1341088,00000155,false,Rx,0,8,38,87,CE,54,96,E8,02,C5,
1341375,00000157,false,Rx,0,8,D5,07,09,C4,FF,E0,00,80,
1341514,000001C7,false,Rx,0,4,AA,A0,FF,C0,00,00,00,00,
1341921,00000428,false,Rx,0,8,00,00,00,7F,00,00,00,00,
1341928,0000042F,false,Rx,0,2,00,20,00,00,00,00,00,00,
1342728,000001A1,false,Rx,0,8,B1,45,48,13,95,0C,80,20,
1347840,0000019F,false,Rx,0,8,00,00,7D,0F,00,6A,90,FE,
1350872,00000155,false,Rx,0,8,39,87,CE,54,96,E8,02,C5,
1351074,00000157,false,Rx,0,8,D5,57,09,C4,FF,E0,00,80,
1351276,000001C7,false,Rx,0,4,AA,A0,FF,C0,00,00,00,00,
1352837,000001A1,false,Rx,0,8,B1,05,48,13,95,0C,80,20,
1357689,0000019F,false,Rx,0,8,00,00,7D,04,00,6A,90,FE,
1361061,00000155,false,Rx,0,8,39,87,CE,54,96,E8,02,C5,
1361070,00000157,false,Rx,0,8,D5,A7,09,C4,FF,E0,00,80,
1361247,000001C7,false,Rx,0,4,AA,A0,FF,C0,00,00,00,00,
1362749,000001A1,false,Rx,0,8,B1,45,48,13,95,0C,80,20,
1367835,0000019F,false,Rx,0,8,00,00,7D,09,00,6A,90,FE,
1367992,00000511,false,Rx,0,7,04,15,54,F4,B5,91,76,00,
1370846,00000155,false,Rx,0,8,39,87,CE,54,96,E8,02,C5,
1371067,00000157,false,Rx,0,8,D5,F7,09,C4,FF,E0,00,80,
1371279,000001C7,false,Rx,0,4,AA,A0,FF,C0,00,00,00,00,
1372838,000001A1,false,Rx,0,8,B1,45,48,13,95,0C,80,20,
1377846,0000019F,false,Rx,0,8,00,00,7D,0E,00,6A,90,FE,
1381078,00000155,false,Rx,0,8,39,87,CE,54,96,E8,02,C5,
1381087,00000157,false,Rx,0,8,D5,47,09,C4,FF,E0,00,80,
1381273,000001C7,false,Rx,0,4,AA,A0,FF,C0,00,00,00,00,
1382823,000001A1,false,Rx,0,8,B1,05,48,13,95,0C,80,20,
1387737,0000019F,false,Rx,0,8,00,00,7D,03,00,6A,90,FE,
1390764,00000155,false,Rx,0,8,39,87,CE,54,96,E8,02,C4,
1391057,00000157,false,Rx,0,8,D5,97,09,C4,FF,E0,00,80,
1391153,000001C7,false,Rx,0,4,AA,A0,FF,C0,00,00,00,00,
1392756,000001A1,false,Rx,0,8,B1,45,48,13,95,0C,80,20,
1395986,00000423,false,Rx,0,8,07,1D,00,02,B2,80,5D,D9,
1397676,0000019F,false,Rx,0,8,00,00,7D,08,00,6A,90,FE,
1400750,00000155,false,Rx,0,8,39,87,CE,54,96,E8,02,C5,
1400977,00000157,false,Rx,0,8,D5,E7,09,C4,FF,E0,00,80,
1401154,000001C7,false,Rx,0,4,AA,A0,FF,C0,00,00,00,00,
1401384,00000424,false,Rx,0,8,11,40,56,C8,33,5E,AA,34,
1401614,00000425,false,Rx,0,8,2A,BB,44,9C,42,1A,CD,0C,
1401847,00000426,false,Rx,0,8,00,60,01,00,53,18,00,40,
1402375,00000445,false,Rx,0,7,80,55,55,65,04,82,00,00,
1402667,000001A1,false,Rx,0,8,B1,45,34,13,95,0C,80,20,
1407668,0000019F,false,Rx,0,8,00,00,7D,0D,00,6A,90,FE,
1410750,00000155,false,Rx,0,8,39,87,CE,54,96,E8,02,C5,
1411012,00000157,false,Rx,0,8,D5,37,09,C4,FF,E0,00,80,
1411155,000001C7,false,Rx,0,4,AA,A0,FF,C0,00,00,00,00,
1412667,000001A1,false,Rx,0,8,B1,45,48,13,95,0C,80,20,
1415905,00000435,false,Rx,0,8,FF,FF,1E,0B,2E,00,00,00,
1417668,0000019F,false,Rx,0,8,00,00,7D,02,00,6A,90,FE,
1417922,00000419,false,Rx,0,6,5E,09,2A,E6,3E,00,00,00,
1420751,00000155,false,Rx,0,8,39,87,CE,54,96,E8,02,C4,
1420929,000001C7,false,Rx,0,4,AA,A0,FF,C0,00,00,00,00,
1421154,00000157,false,Rx,0,8,D5,87,09,C4,FF,E0,00,80,
1421356,00000436,false,Rx,0,6,86,16,64,3A,FF,DC,00,00,
1422667,000001A1,false,Rx,0,8,B1,45,48,13,95,0C,80,20,
1427674,0000019F,false,Rx,0,8,00,00,7D,07,00,6A,90,FE,
1430775,00000155,false,Rx,0,8,39,87,CE,54,96,E8,02,C4,
1431002,00000157,false,Rx,0,8,D5,D7,09,C4,FF,E0,00,80,
1431179,000001C7,false,Rx,0,4,AA,A0,FF,C0,00,00,00,00,
1432667,000001A1,false,Rx,0,8,B1,45,34,13,95,0C,80,20,
1437669,0000019F,false,Rx,0,8,00,00,7D,0C,00,6A,90,FE,
1440838,00000155,false,Rx,0,8,39,87,CE,54,96,E8,02,C5,
1441053,00000157,false,Rx,0,8,D5,27,09,C4,FF,E0,00,80,
1441306,000004F7,false,Rx,0,8,00,1A,08,00,90,30,06,F0,
1441484,000001C7,false,Rx,0,4,AA,A0,FF,C0,00,00,00,00,
1441772,00000428,false,Rx,0,8,00,00,00,7F,00,00,00,00,
1441949,0000042F,false,Rx,0,2,00,20,00,00,00,00,00,00,
1442667,000001A1,false,Rx,0,8,B1,45,48,13,95,0C,80,20,
1447667,0000019F,false,Rx,0,8,00,00,7D,01,00,6A,90,FE,
1450820,00000155,false,Rx,0,8,39,87,CE,54,96,E8,02,C4,
1451043,00000157,false,Rx,0,8,D5,77,09,C4,FF,E0,00,80,
1451218,000001C7,false,Rx,0,4,AA,A0,FF,C0,00,00,00,00,
1452697,000001A1,false,Rx,0,8,B1,45,48,13,95,0C,80,20,
1457681,0000019F,false,Rx,0,8,00,00,7D,06,00,6A,90,FE,
1460834,00000155,false,Rx,0,8,39,87,CE,54,96,E8,02,C5,
1461053,00000157,false,Rx,0,8,D5,C7,09,C4,FF,E0,00,80,
1461230,000001C7,false,Rx,0,4,AA,A0,FF,C0,00,00,00,00,
1462668,000001A1,false,Rx,0,8,B1,45,48,13,95,0C,80,20,
1467672,0000019F,false,Rx,0,8,00,00,7D,0B,00,6A,90,FE,
1467924,00000511,false,Rx,0,7,04,54,1D,AD,20,9E,59,00,
1470824,00000155,false,Rx,0,8,39,87,CE,54,96,E8,02,C4,
1471044,00000157,false,Rx,0,8,D5,17,09,C4,FF,E0,00,80,
1471219,000001C7,false,Rx,0,4,AA,A0,FF,C0,00,00,00,00,
1472663,000001A1,false,Rx,0,8,B1,45,48,13,95,0C,80,20,
1477675,0000019F,false,Rx,0,8,00,00,7D,00,00,6A,90,FE,
1480776,00000155,false,Rx,0,8,39,87,CE,54,96,E8,02,C4,
1481027,00000157,false,Rx,0,8,D5,67,09,C4,FF,E0,00,80,
1481182,000001C7,false,Rx,0,4,AA,A0,FF,C0,00,00,00,00,
1482669,000001A1,false,Rx,0,8,B1,45,48,13,95,0C,80,20,
1487674,0000019F,false,Rx,0,8,00,00,7D,05,00,6A,90,FE,
1490750,00000155,false,Rx,0,8,39,87,CE,54,96,E8,02,C5,
1490978,00000157,false,Rx,0,8,D5,B7,09,C4,FF,E0,00,80,
1491155,000001C7,false,Rx,0,4,AA,A0,FF,C0,00,00,00,00,
1492670,000001A1,false,Rx,0,8,B1,45,48,13,95,0C,80,20,
1495526,0000069F,false,Rx,0,4,71,30,28,2F,00,00,00,00,
1495924,00000423,false,Rx,0,8,07,1D,00,02,5D,80,B2,D9,
1497668,0000019F,false,Rx,0,8,00,00,7D,0A,00,6A,90,FE,
1500751,00000155,false,Rx,0,8,39,87,CE,54,96,E8,02,C5,
1500977,00000157,false,Rx,0,8,D5,07,09,C4,FF,E0,00,80,
1501155,000001C7,false,Rx,0,4,AA,A0,FF,C0,00,00,00,00,
1501383,00000424,false,Rx,0,8,11,40,56,C8,33,5E,55,34,
1501590,00000425,false,Rx,0,8,2A,BB,44,9C,42,1A,CD,0C,
1501849,00000426,false,Rx,0,8,00,60,01,00,53,18,00,40,
1502380,00000445,false,Rx,0,7,80,55,AA,65,04,82,00,00,
1502668,000001A1,false,Rx,0,8,B1,05,48,13,95,0C,80,20,
1507668,0000019F,false,Rx,0,8,00,00,7D,0F,00,6A,90,FE,
1510751,00000155,false,Rx,0,8,39,87,CE,54,96,E8,02,C4,
1511004,00000157,false,Rx,0,8,D5,57,09,C4,FF,E0,00,80,
1511154,000001C7,false,Rx,0,4,AA,A0,FF,C0,00,00,00,00,
1512666,000001A1,false,Rx,0,8,B1,45,48,13,95,0C,80,20,
1515945,00000435,false,Rx,0,8,FF,FF,1E,0B,2E,00,00,00,
1517663,0000019F,false,Rx,0,8,00,00,7D,04,00,6A,90,FE,
1517912,00000419,false,Rx,0,6,5E,09,2A,E6,3E,00,00,00,
1521011,00000155,false,Rx,0,8,39,87,CE,54,96,E8,02,C5,
1521018,00000157,false,Rx,0,8,D5,A7,09,C4,FF,E0,00,80,
1521192,000001C7,false,Rx,0,4,AA,A0,FF,C0,00,00,00,00,
1521428,00000436,false,Rx,0,6,86,16,64,3A,FF,DC,00,00,
1522816,000001A1,false,Rx,0,8,B1,45,48,13,95,0C,80,20,
1527745,0000019F,false,Rx,0,8,00,00,7D,09,00,6A,90,FE,
1530799,00000155,false,Rx,0,8,39,87,CE,54,96,E8,02,C4,
1530965,000001C7,false,Rx,0,4,AA,A0,FF,C0,00,00,00,00,
1531213,00000157,false,Rx,0,8,D5,F7,09,C4,FF,E0,00,80,
1532739,000001A1,false,Rx,0,8,B1,05,48,13,95,0C,80,20,
1537821,0000019F,false,Rx,0,8,00,00,7D,0E,00,6A,90,FE,
1540955,00000155,false,Rx,0,8,39,87,CE,54,96,E8,02,C4,
1541145,00000157,false,Rx,0,8,D5,47,09,C4,FF,E0,00,80,
1541545,000004F7,false,Rx,0,8,00,1A,08,00,90,30,06,F0,
1541552,000001C7,false,Rx,0,4,AA,A0,FF,C0,00,00,00,00,
1541846,00000428,false,Rx,0,8,00,00,00,7F,00,00,00,00,
1541897,0000042F,false,Rx,0,2,00,20,00,00,00,00,00,00,
1542717,000001A1,false,Rx,0,8,B1,45,48,13,95,0C,80,20,
1547832,0000019F,false,Rx,0,8,00,00,7D,03,00,6A,90,FE,
1550809,00000155,false,Rx,0,8,39,87,CE,54,96,E8,02,C4,
1551096,00000157,false,Rx,0,8,D5,97,09,C4,FF,E0,00,80,
1551203,000001C7,false,Rx,0,4,AA,A0,FF,C0,00,00,00,00,
1552832,000001A1,false,Rx,0,8,B1,45,48,13,95,0C,80,20,
1557835,0000019F,false,Rx,0,8,00,00,7D,08,00,6A,90,FE,
1561038,00000155,false,Rx,0,8,39,87,CE,54,96,E8,02,C4,
1561046,00000157,false,Rx,0,8,D5,E7,09,C4,FF,E0,00,80,
1561241,000001C7,false,Rx,0,4,AA,A0,FF,C0,00,00,00,00,
1562710,000001A1,false,Rx,0,8,B1,05,48,13,95,0C,80,20,
1567836,0000019F,false,Rx,0,8,00,00,7D,0D,00,6A,90,FE,
1567920,00000511,false,Rx,0,7,04,93,E6,66,8B,AB,3C,00,
1570834,00000155,false,Rx,0,8,39,87,CE,54,96,E8,02,C4,
1571143,00000157,false,Rx,0,8,D5,37,09,C4,FF,E0,00,80,
1571226,000001C7,false,Rx,0,4,AA,A0,FF,C0,00,00,00,00,
1572883,000001A1,false,Rx,0,8,B1,45,48,13,95,0C,80,20,
1577840,0000019F,false,Rx,0,8,00,00,7D,02,00,6A,90,FE,
1581103,00000155,false,Rx,0,8,39,87,CE,54,96,E8,02,C5,
1581112,00000157,false,Rx,0,8,D5,87,09,C4,FF,E0,00,80,
1581224,000001C7,false,Rx,0,4,AA,A0,FF,C0,00,00,00,00,
1582703,000001A1,false,Rx,0,8,B1,85,48,13,95,0C,80,20,
1587837,0000019F,false,Rx,0,8,00,00,7D,07,00,6A,90,FE,
1590826,00000155,false,Rx,0,8,39,87,CE,54,96,E8,02,C5,
1591024,00000157,false,Rx,0,8,D5,D7,09,C4,FF,E0,00,80,
1591219,000001C7,false,Rx,0,4,AA,A0,FF,C0,00,00,00,00,
1592681,000001A1,false,Rx,0,8,B1,45,48,13,95,0C,80,20,
1596029,00000423,false,Rx,0,8,07,1D,00,02,5D,80,B2,D9,
1597837,0000019F,false,Rx,0,8,00,00,7D,0C,00,6A,90,FE,
1600956,00000155,false,Rx,0,8,39,87,CE,54,96,E8,02,C4,
1600965,000001C7,false,Rx,0,4,AA,A0,FF,C0,00,00,00,00,
1601192,00000157,false,Rx,0,8,D5,27,09,C4,FF,E0,00,80,
1601422,00000424,false,Rx,0,8,11,40,56,C8,33,5E,55,34,
1601670,00000425,false,Rx,0,8,2A,BB,44,9C,42,1A,CD,0C,
1601872,00000426,false,Rx,0,8,00,60,01,00,53,18,00,40,
1602511,00000445,false,Rx,0,7,80,55,AA,65,04,82,00,00,
1602711,000001A1,false,Rx,0,8,B1,05,48,13,95,0C,80,20,
1607837,0000019F,false,Rx,0,8,00,00,7D,01,00,6A,90,FE,
1610756,00000155,false,Rx,0,8,39,87,CE,54,96,E8,02,C5,
1611061,00000157,false,Rx,0,8,D5,77,09,C4,FF,E0,00,80,
1611212,000001C7,false,Rx,0,4,AA,A0,FF,C0,00,00,00,00,
1612839,000001A1,false,Rx,0,8,B1,45,48,13,95,0C,80,20,
1616211,00000435,false,Rx,0,8,FF,FF,1E,0B,2E,00,00,00,
1617837,0000019F,false,Rx,0,8,00,00,7D,06,00,6A,90,FE,
1617997,00000419,false,Rx,0,6,5E,09,2A,E6,3E,00,00,00,
1621025,00000155,false,Rx,0,8,39,87,CE,54,96,E8,02,C5,
1621033,000001C7,false,Rx,0,4,AA,A0,FF,C0,00,00,00,00,
1621199,00000157,false,Rx,0,8,D5,C7,09,C4,FF,E0,00,80,
1621426,00000436,false,Rx,0,6,86,16,64,3A,FF,DC,00,00,
1622825,000001A1,false,Rx,0,8,B1,45,48,13,95,0C,80,20,
1627867,0000019F,false,Rx,0,8,00,00,7D,0B,00,6A,90,FE,
1630834,00000155,false,Rx,0,8,39,87,CE,54,96,E8,02,C4,
1631024,00000157,false,Rx,0,8,D5,17,09,C4,FF,E0,00,80,
1631178,000001C7,false,Rx,0,4,AA,A0,FF,C0,00,00,00,00,
1632866,000001A1,false,Rx,0,8,B1,45,48,13,95,0C,80,20,
1637836,0000019F,false,Rx,0,8,00,00,7D,00,00,6A,90,FE,
1641086,00000155,false,Rx,0,8,39,87,CD,54,96,E8,02,C4,
1641095,00000157,false,Rx,0,8,D5,67,09,C4,FF,E0,00,80,
1641392,000004F7,false,Rx,0,8,00,1A,08,00,90,30,06,F0,
1641537,000001C7,false,Rx,0,4,AA,A0,FF,C0,00,00,00,00,
1641886,00000428,false,Rx,0,8,00,00,00,7F,00,00,00,00,
1641893,0000042F,false,Rx,0,2,00,20,00,00,00,00,00,00,
1642680,000001A1,false,Rx,0,8,B1,45,48,13,95,0C,80,20,
1647681,0000019F,false,Rx,0,8,00,00,7D,05,00,6A,90,FE,
1650828,00000155,false,Rx,0,8,39,87,CE,54,96,E8,02,C4,
1651052,00000157,false,Rx,0,8,D5,B7,09,C4,FF,E0,00,80,
1651204,000001C7,false,Rx,0,4,AA,A0,FF,C0,00,00,00,00,
1652669,000001A1,false,Rx,0,8,B1,45,48,13,95,0C,80,20,
1657672,0000019F,false,Rx,0,8,00,00,7D,0A,00,6A,90,FE,
1660802,00000155,false,Rx,0,8,39,87,CE,54,96,E8,02,C5,
1661053,00000157,false,Rx,0,8,D5,07,09,C4,FF,E0,00,80,
1661205,000001C7,false,Rx,0,4,AA,A0,FF,C0,00,00,00,00,
1662669,000001A1,false,Rx,0,8,B1,45,48,13,95,0C,80,20,
1667671,0000019F,false,Rx,0,8,00,00,7D,0F,00,6A,90,FE,
1667949,00000511,false,Rx,0,7,04,D2,AF,1F,F6,B8,1F,00,
1670777,00000155,false,Rx,0,8,39,87,CE,54,96,E8,02,C5,
1671004,00000157,false,Rx,0,8,D5,57,09,C4,FF,E0,00,80,
1671182,000001C7,false,Rx,0,4,AA,A0,FF,C0,00,00,00,00,
1672669,000001A1,false,Rx,0,8,B1,45,48,13,95,0C,80,20,
1677676,0000019F,false,Rx,0,8,00,00,7D,04,00,6A,90,FE,
1680782,00000155,false,Rx,0,8,39,87,CE,54,96,E8,02,C4,
1681001,00000157,false,Rx,0,8,D5,A7,09,C4,FF,E0,00,80,
1681180,000001C7,false,Rx,0,4,AA,A0,FF,C0,00,00,00,00,
1682669,000001A1,false,Rx,0,8,B1,05,48,13,95,0C,80,20,
1687670,0000019F,false,Rx,0,8,00,00,7D,09,00,6A,90,FE,
1690751,00000155,false,Rx,0,8,39,87,CE,54,96,E8,02,C4,
1690978,00000157,false,Rx,0,8,D5,F7,09,C4,FF,E0,00,80,
1691155,000001C7,false,Rx,0,4,AA,A0,FF,C0,00,00,00,00,
1692668,000001A1,false,Rx,0,8,B1,45,48,13,95,0C,80,20,
1695902,00000423,false,Rx,0,8,07,1D,00,02,5D,80,B2,D9,
1697666,0000019F,false,Rx,0,8,00,00,7D,0E,00,6A,90,FE,
1700747,00000155,false,Rx,0,8,39,87,CE,54,96,E8,02,C4,
1700970,00000157,false,Rx,0,8,D5,47,09,C4,FF,E0,00,80,
1701145,000001C7,false,Rx,0,4,AA,A0,FF,C0,00,00,00,00,
1701370,00000424,false,Rx,0,8,11,40,56,C8,33,5E,55,34,
1701594,00000425,false,Rx,0,8,2A,BB,44,9C,42,1A,CD,0C,
1701845,00000426,false,Rx,0,8,00,60,01,00,53,18,00,40,
1702346,00000445,false,Rx,0,7,80,55,AA,65,04,82,00,00,
1702666,000001A1,false,Rx,0,8,B1,45,48,13,95,0C,80,20,
1707681,0000019F,false,Rx,0,8,00,00,7D,03,00,6A,90,FE,
1710753,00000155,false,Rx,0,8,39,87,CE,54,96,E8,02,C5,
1711010,00000157,false,Rx,0,8,D5,97,09,C4,FF,E0,00,80,
1711185,000001C7,false,Rx,0,4,AA,A0,FF,C0,00,00,00,00,
1712679,000001A1,false,Rx,0,8,B1,05,48,13,95,0C,80,20,
1715936,00000435,false,Rx,0,8,FF,FF,1E,0B,2E,00,00,00,
1717680,0000019F,false,Rx,0,8,00,00,7D,08,00,6A,90,FE,
1717934,00000419,false,Rx,0,6,5E,09,2A,E6,3E,00,00,00,
1720752,00000155,false,Rx,0,8,39,87,CE,54,96,E8,02,C4,
1720976,00000157,false,Rx,0,8,D5,E7,09,C4,FF,E0,00,80,
1721149,000001C7,false,Rx,0,4,AA,A0,FF,C0,00,00,00,00,
1721347,00000436,false,Rx,0,6,86,16,64,3A,FF,DC,00,00,
1722668,000001A1,false,Rx,0,8,B1,45,48,13,95,0C,80,20,
1727675,0000019F,false,Rx,0,8,00,00,7D,0D,00,6A,90,FE,
1730754,00000155,false,Rx,0,8,39,87,CE,54,96,E8,02,C5,
1731029,00000157,false,Rx,0,8,D5,37,09,C4,FF,E0,00,80,
1731207,000001C7,false,Rx,0,4,AA,A0,FF,C0,00,00,00,00,
1732670,000001A1,false,Rx,0,8,B1,45,48,13,95,0C,80,20,
1737677,0000019F,false,Rx,0,8,00,00,7D,02,00,6A,90,FE,
1740938,00000155,false,Rx,0,8,39,87,CE,54,96,E8,02,C5,
1741167,00000157,false,Rx,0,8,D5,87,09,C4,FF,E0,00,80,
1741383,000004F7,false,Rx,0,8,00,1A,08,00,90,30,06,F0,
1741586,000001C7,false,Rx,0,4,AA,A0,FF,C0,00,00,00,00,
1741878,00000428,false,Rx,0,8,00,00,00,7F,00,00,00,00,
1742002,0000042F,false,Rx,0,2,00,20,00,00,00,00,00,00,
1742680,000001A1,false,Rx,0,8,B1,05,48,13,95,0C,80,20,
1747682,0000019F,false,Rx,0,8,00,00,7D,07,00,6A,90,FE,
1750788,00000155,false,Rx,0,8,39,87,CE,54,96,E8,02,C4,
1751029,00000157,false,Rx,0,8,D5,D7,09,C4,FF,E0,00,80,
1751206,000001C7,false,Rx,0,4,AA,A0,FF,C0,00,00,00,00,
1752679,000001A1,false,Rx,0,8,B1,45,48,13,95,0C,80,20,
1757674,0000019F,false,Rx,0,8,00,00,7D,0C,00,6A,90,FE,
1760777,00000155,false,Rx,0,8,39,87,CE,54,96,E8,02,C4,
1761012,00000157,false,Rx,0,8,D5,27,09,C4,FF,E0,00,80,
1761180,000001C7,false,Rx,0,4,AA,A0,FF,C0,00,00,00,00,
1762668,000001A1,false,Rx,0,8,B1,45,48,13,95,0C,80,20,
1767673,0000019F,false,Rx,0,8,00,00,7D,01,00,6A,90,FE,
1767949,00000511,false,Rx,0,7,04,11,78,D8,61,C5,02,00,
1770801,00000155,false,Rx,0,8,39,87,CE,54,96,E8,02,C4,
1771046,00000157,false,Rx,0,8,D5,77,09,C4,FF,E0,00,80,
1771221,000001C7,false,Rx,0,4,AA,A0,FF,C0,00,00,00,00,
1772667,000001A1,false,Rx,0,8,B1,45,48,13,95,0C,80,20,
1777667,0000019F,false,Rx,0,8,00,00,7D,06,00,6A,90,FE,
1780799,00000155,false,Rx,0,8,39,87,CE,54,96,E8,02,C4,
1781044,00000157,false,Rx,0,8,D5,C7,09,C4,FF,E0,00,80,
1781192,000001C7,false,Rx,0,4,AA,A0,FF,C0,00,00,00,00,
1782664,000001A1,false,Rx,0,8,B1,45,48,13,95,0C,80,20,
1787668,0000019F,false,Rx,0,8,00,00,7D,0B,00,6A,90,FE,
1790724,00000155,false,Rx,0,8,39,87,CE,54,96,E8,02,C3,
1790969,00000157,false,Rx,0,8,D5,17,09,C4,FF,E0,00,80,
1791143,000001C7,false,Rx,0,4,AA,A0,FF,C0,00,00,00,00,
1792664,000001A1,false,Rx,0,8,B1,45,48,13,95,0C,80,20,
1795878,00000423,false,Rx,0,8,07,1D,00,02,5D,80,B2,D9,
1797668,0000019F,false,Rx,0,8,00,00,7D,00,00,6A,90,FE,
1800728,00000155,false,Rx,0,8,39,87,CE,54,96,E8,02,C3,
1800997,00000157,false,Rx,0,8,D5,67,09,C4,FF,E0,00,80,
1801144,000001C7,false,Rx,0,4,AA,A0,FF,C0,00,00,00,00,
1801369,00000424,false,Rx,0,8,11,40,56,C8,33,5E,55,34,
1801594,00000425,false,Rx,0,8,2A,BB,44,9C,42,1A,CD,0C,
1801819,00000426,false,Rx,0,8,00,60,01,00,53,18,00,40,
1802319,00000445,false,Rx,0,7,80,55,AA,65,04,82,00,00,
1802663,000001A1,false,Rx,0,8,B1,45,48,13,95,0C,80,20,
1807668,0000019F,false,Rx,0,8,00,00,7D,05,00,6A,90,FE,
1810749,00000155,false,Rx,0,8,39,87,CE,54,96,E8,02,C3,
1810968,00000157,false,Rx,0,8,D5,B7,09,C4,FF,E0,00,80,
1811143,000001C7,false,Rx,0,4,AA,A0,FF,C0,00,00,00,00,
1812665,000001A1,false,Rx,0,8,B1,45,48,13,95,0C,80,20,
1815898,00000435,false,Rx,0,8,FF,FF,1E,0B,2E,00,00,00,
1817675,0000019F,false,Rx,0,8,00,00,7D,0A,00,6A,90,FE,
1817936,00000419,false,Rx,0,6,5E,0A,2A,E6,3E,00,00,00,
1820724,00000155,false,Rx,0,8,39,87,CE,54,96,E8,02,C3,
1820994,00000157,false,Rx,0,8,D5,07,09,C4,FF,E0,00,80,
1821168,000001C7,false,Rx,0,4,AA,A0,FF,C0,00,00,00,00,
1821370,00000436,false,Rx,0,6,86,16,64,3A,FF,DC,00,00,
1822666,000001A1,false,Rx,0,8,B1,45,48,13,95,0C,80,20,
1827667,0000019F,false,Rx,0,8,00,00,7D,0F,00,6A,90,FE,
1830748,00000155,false,Rx,0,8,39,87,CE,54,96,E8,02,C3,
1830969,00000157,false,Rx,0,8,D5,57,09,C4,FF,E0,00,80,
1831143,000001C7,false,Rx,0,4,AA,A0,FF,C0,00,00,00,00,
1832664,000001A1,false,Rx,0,8,B1,45,48,13,95,0C,80,20,
1837670,0000019F,false,Rx,0,8,00,00,7D,04,00,6A,90,FE,
1840798,00000155,false,Rx,0,8,39,87,CE,54,96,E8,02,C3,
1841043,00000157,false,Rx,0,8,D5,A7,09,C4,FF,E0,00,80,
1841273,000004F7,false,Rx,0,8,00,1A,08,00,90,30,06,F0,
1841443,000001C7,false,Rx,0,4,AA,A0,FF,C0,00,00,00,00,
1841718,00000428,false,Rx,0,8,00,00,00,7F,00,00,00,00,
1841918,0000042F,false,Rx,0,2,00,20,00,00,00,00,00,00,
1842661,000001A1,false,Rx,0,8,B1,45,48,13,95,0C,80,20,
1847665,0000019F,false,Rx,0,8,00,00,7D,09,00,6A,90,FE,
1850801,00000155,false,Rx,0,8,39,87,CE,54,96,E8,02,C3,
1851043,00000157,false,Rx,0,8,D5,F7,09,C4,FF,E0,00,80,
1851193,000001C7,false,Rx,0,4,AA,A0,FF,C0,00,00,00,00,
1852662,000001A1,false,Rx,0,8,B1,45,48,13,95,0C,80,20,
1857669,0000019F,false,Rx,0,8,00,00,7D,0E,00,6A,90,FE,
1860797,00000155,false,Rx,0,8,39,87,CE,54,96,E8,02,C3,
1861045,00000157,false,Rx,0,8,D5,47,09,C4,FF,E0,00,80,
1861193,000001C7,false,Rx,0,4,AA,A0,FF,C0,00,00,00,00,
1862663,000001A1,false,Rx,0,8,B1,05,34,13,95,0C,80,20,
1867666,0000019F,false,Rx,0,8,00,00,7D,03,00,6A,90,FE,
1867936,00000511,false,Rx,0,7,04,50,41,91,CC,D2,E5,00,
1870799,00000155,false,Rx,0,8,39,87,CE,54,96,E8,02,C3,
1871045,00000157,false,Rx,0,8,D5,97,09,C4,FF,E0,00,80,
1871195,000001C7,false,Rx,0,4,AA,A0,FF,C0,00,00,00,00,
1872667,000001A1,false,Rx,0,8,B1,45,48,13,95,0C,80,20,
1877666,0000019F,false,Rx,0,8,00,00,7D,08,00,6A,90,FE,
1880723,00000155,false,Rx,0,8,39,87,CE,54,96,E8,02,C3,
1880943,00000157,false,Rx,0,8,D5,E7,09,C4,FF,E0,00,80,
1881117,000001C7,false,Rx,0,4,AA,A0,FF,C0,00,00,00,00,
1882663,000001A1,false,Rx,0,8,B1,45,48,13,95,0C,80,20,
1887665,0000019F,false,Rx,0,8,00,00,7D,0D,00,6A,90,FE,
1890722,00000155,false,Rx,0,8,39,87,CE,54,96,E8,02,C3,
1890968,00000157,false,Rx,0,8,D5,37,09,C4,FF,E0,00,80,
1891118,000001C7,false,Rx,0,4,AA,A0,FF,C0,00,00,00,00,
1892664,000001A1,false,Rx,0,8,B1,05,48,13,95,0C,80,20,
1895948,00000423,false,Rx,0,8,07,1D,00,02,5D,80,B2,D9,
1897666,0000019F,false,Rx,0,8,00,00,7D,02,00,6A,90,FE,
1900724,00000155,false,Rx,0,8,39,87,CE,54,96,E8,02,C3,
1900944,00000157,false,Rx,0,8,D5,87,09,C4,FF,E0,00,80,
1901118,000001C7,false,Rx,0,4,AA,A0,FF,C0,00,00,00,00,
1901367,00000424,false,Rx,0,8,11,40,56,C8,33,5E,55,34,
1901568,00000425,false,Rx,0,8,2A,BB,44,9C,42,1A,CD,0C,
1901819,00000426,false,Rx,0,8,00,60,01,00,53,18,00,40,
1902318,00000445,false,Rx,0,7,80,55,AA,65,04,82,00,00,
1902662,000001A1,false,Rx,0,8,B1,45,48,13,95,0C,80,20,
1907666,0000019F,false,Rx,0,8,00,00,7D,07,00,6A,90,FE,
1910725,00000155,false,Rx,0,8,39,87,CE,54,96,E8,02,C3,
1910968,00000157,false,Rx,0,8,D5,D7,09,C4,FF,E0,00,80,
1911142,000001C7,false,Rx,0,4,AA,A0,FF,C0,00,00,00,00,
1912664,000001A1,false,Rx,0,8,B1,45,48,13,95,0C,80,20,
1915950,00000435,false,Rx,0,8,FF,FF,1E,0B,2E,00,00,00,
1917666,0000019F,false,Rx,0,8,00,00,7D,0C,00,6A,90,FE,
1917934,00000419,false,Rx,0,6,5E,09,2A,E6,3E,00,00,00,
1920723,00000155,false,Rx,0,8,39,87,CE,54,96,E8,02,C3,
1920969,00000157,false,Rx,0,8,D5,27,09,C4,FF,E0,00,80,
1921143,000001C7,false,Rx,0,4,AA,A0,FF,C0,00,00,00,00,
1921342,00000436,false,Rx,0,6,86,16,64,3A,FF,DC,00,00,
1922664,000001A1,false,Rx,0,8,B1,05,48,13,95,0C,80,20,
1927666,0000019F,false,Rx,0,8,00,00,7D,01,00,6A,90,FE,
1930750,00000155,false,Rx,0,8,39,87,CE,54,96,E8,02,C3,
1931019,00000157,false,Rx,0,8,D5,77,09,C4,FF,E0,00,80,
1931193,000001C7,false,Rx,0,4,AA,A0,FF,C0,00,00,00,00,
1932666,000001A1,false,Rx,0,8,B1,45,48,13,95,0C,80,20,
1937667,0000019F,false,Rx,0,8,00,00,7D,06,00,6A,90,FE,
1940849,00000155,false,Rx,0,8,39,87,CE,54,96,E8,02,C3,
1941069,00000157,false,Rx,0,8,D5,C7,09,C4,FF,E0,00,80,
1941318,000004F7,false,Rx,0,8,00,1A,08,00,90,30,06,F0,
1941493,000001C7,false,Rx,0,4,AA,A0,FF,C0,00,00,00,00,
1941793,00000428,false,Rx,0,8,00,00,00,7F,00,00,00,00,
1941968,0000042F,false,Rx,0,2,00,20,00,00,00,00,00,00,
1942662,000001A1,false,Rx,0,8,B1,45,34,13,95,0C,80,20,
1947668,0000019F,false,Rx,0,8,00,00,7D,0B,00,6A,90,FE,
1950774,00000155,false,Rx,0,8,39,87,CE,54,96,E8,02,C3,
1950995,00000157,false,Rx,0,8,D5,17,09,C4,FF,E0,00,80,
1951172,000001C7,false,Rx,0,4,AA,A0,FF,C0,00,00,00,00,
1952666,000001A1,false,Rx,0,8,B1,45,48,13,95,0C,80,20,
1957667,0000019F,false,Rx,0,8,00,00,7D,00,00,6A,90,FE,
1960774,00000155,false,Rx,0,8,39,87,CE,54,96,E8,02,C3,
1961019,00000157,false,Rx,0,8,D5,67,09,C4,FF,E0,00,80,
1961169,000001C7,false,Rx,0,4,AA,A0,FF,C0,00,00,00,00,
1962663,000001A1,false,Rx,0,8,B1,45,48,13,95,0C,80,20,
1967668,0000019F,false,Rx,0,8,00,00,7D,05,00,6A,90,FE,
1967936,00000511,false,Rx,0,7,04,8F,0A,4A,37,DF,C8,00,
1970795,00000155,false,Rx,0,8,39,87,CE,54,96,E8,02,C3,
1971019,00000157,false,Rx,0,8,D5,B7,09,C4,FF,E0,00,80,
1971194,000001C7,false,Rx,0,4,AA,A0,FF,C0,00,00,00,00,
1972663,000001A1,false,Rx,0,8,B1,45,48,13,95,0C,80,20,
1977666,0000019F,false,Rx,0,8,00,00,7D,0A,00,6A,90,FE,
1980797,00000155,false,Rx,0,8,39,87,CE,54,96,E8,02,C3,
1981019,00000157,false,Rx,0,8,D5,07,09,C4,FF,E0,00,80,
1981193,000001C7,false,Rx,0,4,AA,A0,FF,C0,00,00,00,00,
1982665,000001A1,false,Rx,0,8,B1,45,48,13,95,0C,80,20,
1987667,0000019F,false,Rx,0,8,00,00,7D,0F,00,6A,90,FE,
1990721,00000155,false,Rx,0,8,39,87,CE,54,96,E8,02,C3,
1990945,00000157,false,Rx,0,8,D5,57,09,C4,FF,E0,00,80,
1991144,000001C7,false,Rx,0,4,AA,A0,FF,C0,00,00,00,00,
1992662,000001A1,false,Rx,0,8,B1,45,48,13,95,0C,80,20,
1995847,00000423,false,Rx,0,8,07,1D,00,02,B2,80,5D,D9,
1997665,0000019F,false,Rx,0,8,00,00,7D,04,00,6A,90,FE,
2000725,00000155,false,Rx,0,8,39,87,CE,54,96,E8,02,C3,
2000946,00000424,false,Rx,0,8,11,40,56,C8,33,5E,AA,34,
2001206,00000157,false,Rx,0,8,D5,A7,09,C4,FF,E0,00,80,
2001346,000001C7,false,Rx,0,4,AA,A0,FF,C0,00,00,00,00,
2001572,00000425,false,Rx,0,8,2A,BB,44,9C,42,1A,CD,0C,
2001822,00000426,false,Rx,0,8,00,60,01,00,53,18,00,40,
2002322,00000445,false,Rx,0,7,80,55,55,65,04,82,00,00,
2002663,000001A1,false,Rx,0,8,B1,45,48,13,95,0C,80,20,
2007685,0000019F,false,Rx,0,8,00,00,7D,09,00,6A,90,FE,
2010781,00000155,false,Rx,0,8,39,87,CE,54,96,E8,02,C3,
2011025,00000157,false,Rx,0,8,D5,F7,09,C4,FF,E0,00,80,
2011199,000001C7,false,Rx,0,4,AA,A0,FF,C0,00,00,00,00,
2012692,000001A1,false,Rx,0,8,B1,45,34,13,95,0C,80,20,
2015899,00000435,false,Rx,0,8,FF,FF,1E,0B,2E,00,00,00,
2017692,0000019F,false,Rx,0,8,00,00,7D,0E,00,6A,90,FE,
2017965,00000419,false,Rx,0,6,5E,0A,2A,E6,3E,00,00,00,
2020749,00000155,false,Rx,0,8,39,87,CE,54,96,E8,02,C3,
2020999,00000157,false,Rx,0,8,D5,47,09,C4,FF,E0,00,80,
2021173,00000436,false,Rx,0,6,86,16,64,3A,FF,DC,00,00,
2021346,000001C7,false,Rx,0,4,AA,A0,FF,C0,00,00,00,00,
2022666,000001A1,false,Rx,0,8,B1,45,48,13,95,0C,80,20,
2027742,0000019F,false,Rx,0,8,00,00,7D,03,00,6A,90,FE,
2030787,00000155,false,Rx,0,8,39,87,CE,54,96,E8,02,C3,
2031041,00000157,false,Rx,0,8,D5,97,09,C4,FF,E0,00,80,
2031232,000001C7,false,Rx,0,4,AA,A0,FF,C0,00,00,00,00,
2032736,000001A1,false,Rx,0,8,B1,05,48,13,95,0C,80,20,
2037722,0000019F,false,Rx,0,8,00,00,7D,08,00,6A,90,FE,
2041039,00000155,false,Rx,0,8,39,87,CE,54,96,E8,02,C3,
2041077,00000157,false,Rx,0,8,D5,E7,09,C4,FF,E0,00,80,
2041374,000004F7,false,Rx,0,8,00,1A,08,00,90,30,06,F0,
2041512,000001C7,false,Rx,0,4,AA,A0,FF,C0,00,00,00,00,
2041957,00000428,false,Rx,0,8,00,00,00,7F,00,00,00,00,
2041962,0000042F,false,Rx,0,2,00,20,00,00,00,00,00,00,
2042728,000001A1,false,Rx,0,8,B1,45,48,13,95,0C,80,20,
2047821,0000019F,false,Rx,0,8,00,00,7D,0D,00,6A,90,FE,
2050887,00000155,false,Rx,0,8,39,87,CE,54,96,E8,02,C3,
2051052,00000157,false,Rx,0,8,D5,37,09,C4,FF,E0,00,80,
2051279,000001C7,false,Rx,0,4,AA,A0,FF,C0,00,00,00,00,
2052823,000001A1,false,Rx,0,8,B1,45,48,13,95,0C,80,20,
2057842,0000019F,false,Rx,0,8,00,00,7D,02,00,6A,90,FE,
2060936,00000155,false,Rx,0,8,39,87,CE,54,96,E8,02,C3,
2061083,00000157,false,Rx,0,8,D5,87,09,C4,FF,E0,00,80,
2061265,000001C7,false,Rx,0,4,AA,A0,FF,C0,00,00,00,00,
2062733,000001A1,false,Rx,0,8,B1,45,48,13,95,0C,80,20,
2067841,0000019F,false,Rx,0,8,00,00,7D,07,00,6A,90,FE,
2068001,00000511,false,Rx,0,7,04,CE,D3,03,A2,EC,AB,00,
2070821,00000155,false,Rx,0,8,39,87,CE,54,96,E8,02,C3,
2071056,00000157,false,Rx,0,8,D5,D7,09,C4,FF,E0,00,80,
2071211,000001C7,false,Rx,0,4,AA,A0,FF,C0,00,00,00,00,
2072749,000001A1,false,Rx,0,8,B1,45,48,13,95,0C,80,20,
2077706,0000019F,false,Rx,0,8,00,00,7D,0C,00,6A,90,FE,
2081019,00000155,false,Rx,0,8,39,87,CE,54,96,E8,02,C3,
2081028,00000157,false,Rx,0,8,D5,27,09,C4,FF,E0,00,80,
2081161,000001C7,false,Rx,0,4,AA,A0,FF,C0,00,00,00,00,
2082741,000001A1,false,Rx,0,8,B1,45,48,13,95,0C,80,20,
2087847,0000019F,false,Rx,0,8,00,00,7D,01,00,6A,90,FE,
2090751,00000155,false,Rx,0,8,39,87,CB,54,96,E8,02,C3,
2091103,00000157,false,Rx,0,8,D5,77,09,C4,FF,E0,00,80,
2091260,000001C7,false,Rx,0,4,AA,A0,FF,C0,00,00,00,00,
2092748,000001A1,false,Rx,0,8,B1,45,48,13,95,0C,80,20,
2096189,00000423,false,Rx,0,8,07,1D,00,02,B2,80,5D,D9,
2097748,0000019F,false,Rx,0,8,00,00,7D,06,00,6A,90,FE,
2100823,00000155,false,Rx,0,8,39,87,C9,54,96,E8,02,C3,
2101008,00000424,false,Rx,0,8,11,40,56,C8,33,5E,AA,34,
2101348,00000157,false,Rx,0,8,D5,C7,09,C4,FF,E0,00,80,
2101380,000001C7,false,Rx,0,4,AA,A0,FF,C0,00,00,00,00,
2101643,00000425,false,Rx,0,8,2A,BB,44,9C,42,1A,CD,0C,
2101877,00000426,false,Rx,0,8,00,60,01,00,53,18,00,40,
2102469,00000445,false,Rx,0,7,80,55,55,65,04,82,00,00,
2102684,000001A1,false,Rx,0,8,B1,45,48,13,95,0C,80,20,
2107739,0000019F,false,Rx,0,8,00,00,7D,0B,00,6A,90,FE,
2110746,00000155,false,Rx,0,8,39,87,CA,54,96,E8,02,C3,
2111037,00000157,false,Rx,0,8,D5,17,09,C4,FF,E0,00,80,
2111214,000001C7,false,Rx,0,4,AA,A0,FF,C0,00,00,00,00,
2112844,000001A1,false,Rx,0,8,B1,45,48,13,95,0C,80,20,
2116123,00000435,false,Rx,0,8,FF,FF,1E,0B,2E,00,00,00,
2117753,0000019F,false,Rx,0,8,00,00,7D,00,00,6A,90,FE,
2118007,00000419,false,Rx,0,6,5E,0A,2A,E6,3E,00,00,00,
2120798,00000155,false,Rx,0,8,39,87,CA,54,96,E8,02,C3,
2120970,00000157,false,Rx,0,8,D5,67,09,C4,FF,E0,00,80,
2121238,00000436,false,Rx,0,6,86,16,64,3A,FF,DC,00,00,
2121396,000001C7,false,Rx,0,4,AA,A0,FF,C0,00,00,00,00,
2122766,000001A1,false,Rx,0,8,B1,45,48,13,95,0C,80,20,
2127851,0000019F,false,Rx,0,8,00,00,7D,05,00,6A,90,FE,
2130821,00000155,false,Rx,0,8,39,87,CA,54,96,E8,02,C3,
2130995,00000157,false,Rx,0,8,D5,B7,09,C4,FF,E0,00,80,
2131271,000001C7,false,Rx,0,4,AA,A0,FF,C0,00,00,00,00,
2132848,000001A1,false,Rx,0,8,B1,45,48,13,95,0C,80,20,
2137754,0000019F,false,Rx,0,8,00,00,7D,0A,00,6A,90,FE,
2140999,00000155,false,Rx,0,8,39,87,CA,54,96,E8,02,C3,
2141080,00000157,false,Rx,0,8,D5,07,09,C4,FF,E0,00,80,
2141486,000004F7,false,Rx,0,8,00,1A,08,00,90,30,06,F0,
2141495,000001C7,false,Rx,0,4,AA,A0,FF,C0,00,00,00,00,
2141834,00000428,false,Rx,0,8,00,00,00,7F,00,00,00,00,
2141919,0000042F,false,Rx,0,2,00,20,00,00,00,00,00,00,
2142622,000001A1,false,Rx,0,8,B1,05,48,13,95,0C,80,20,
2147622,0000019F,false,Rx,0,8,00,00,7D,0F,00,6A,90,FE,
2150765,00000155,false,Rx,0,8,39,87,CA,54,96,E8,02,C3,
2151017,00000157,false,Rx,0,8,D5,57,09,C4,FF,E0,00,80,
2151195,000001C7,false,Rx,0,4,AA,A0,FF,C0,00,00,00,00,
2152590,000001A1,false,Rx,0,8,B1,05,48,13,95,0C,80,20,
2157616,0000019F,false,Rx,0,8,00,00,7D,04,00,6A,90,FE,
2160815,00000155,false,Rx,0,8,39,87,CB,54,96,E8,02,C3,
2161042,00000157,false,Rx,0,8,D5,A7,09,C4,FF,E0,00,80,
2161220,000001C7,false,Rx,0,4,AA,A0,FF,C0,00,00,00,00,
2162589,000001A1,false,Rx,0,8,B1,45,48,13,95,0C,80,20,
2167616,0000019F,false,Rx,0,8,00,00,7D,09,00,6A,90,FE,
2167862,00000511,false,Rx,0,7,04,0D,9C,BC,0D,F9,8E,00,
2170815,00000155,false,Rx,0,8,39,87,CA,54,96,E8,02,C3,
2171042,00000157,false,Rx,0,8,D5,F7,09,C4,FF,E0,00,80,
2171220,000001C7,false,Rx,0,4,AA,A0,FF,C0,00,00,00,00,
2172590,000001A1,false,Rx,0,8,B1,45,48,13,95,0C,80,20,
2177615,0000019F,false,Rx,0,8,00,00,7D,0E,00,6A,90,FE,
2180765,00000155,false,Rx,0,8,39,87,CA,54,96,E8,02,C3,
2180989,00000157,false,Rx,0,8,D5,47,09,C4,FF,E0,00,80,
2181219,000001C7,false,Rx,0,4,AA,A0,FF,C0,00,00,00,00,
2182591,000001A1,false,Rx,0,8,B1,05,48,13,95,0C,80,20,
2187617,0000019F,false,Rx,0,8,00,00,7D,03,00,6A,90,FE,
2190738,00000155,false,Rx,0,8,39,87,CA,54,96,E8,02,C3,
2190965,00000157,false,Rx,0,8,D5,97,09,C4,FF,E0,00,80,
2191218,000001C7,false,Rx,0,4,AA,A0,FF,C0,00,00,00,00,
2192614,000001A1,false,Rx,0,8,B1,45,48,13,95,0C,80,20,
2195884,00000423,false,Rx,0,8,07,1D,00,02,B2,80,5D,D6,
2197605,0000019F,false,Rx,0,8,00,00,7D,08,00,6A,90,FE,
2200769,00000155,false,Rx,0,8,39,87,CA,54,96,E8,02,C3,
2200991,00000424,false,Rx,0,8,11,40,56,C8,33,5E,AA,34,
2201218,00000157,false,Rx,0,8,D5,E7,09,C4,FF,E0,00,80,
2201395,000001C7,false,Rx,0,4,AA,A0,FF,C0,00,00,00,00,
2201590,00000425,false,Rx,0,8,2A,BB,44,9C,42,1A,CD,0C,
2201798,00000426,false,Rx,0,8,00,60,01,00,53,18,00,40,
2202336,00000445,false,Rx,0,7,80,55,55,65,04,82,00,00,
2202616,000001A1,false,Rx,0,8,B1,45,48,13,95,0C,80,20,
2207615,0000019F,false,Rx,0,8,00,00,7D,0D,00,6A,90,FE,
2210733,00000155,false,Rx,0,8,39,87,CB,54,96,E8,02,C3,
2210957,00000157,false,Rx,0,8,D5,37,09,C4,FF,E0,00,80,
2211231,000001C7,false,Rx,0,4,AA,A0,FF,C0,00,00,00,00,
2212576,000001A1,false,Rx,0,8,B1,05,48,13,95,0C,80,20,
2215917,00000435,false,Rx,0,8,FF,FF,1E,0B,2E,00,00,00,
2217615,0000019F,false,Rx,0,8,00,00,7D,02,00,6A,90,FE,
2217838,00000419,false,Rx,0,6,5E,0A,2A,E6,3E,00,00,00,
2220741,00000155,false,Rx,0,8,39,87,CB,54,96,E8,02,C3,
2220968,00000157,false,Rx,0,8,D5,87,09,C4,FF,E0,00,80,
2221170,00000436,false,Rx,0,6,86,16,64,3A,FF,DC,00,00,
2221323,000001C7,false,Rx,0,4,AA,A0,FF,C0,00,00,00,00,
2222589,000001A1,false,Rx,0,8,B1,05,48,13,95,0C,80,20,
2227610,0000019F,false,Rx,0,8,00,00,7D,07,00,6A,90,FE,
2230741,00000155,false,Rx,0,8,39,87,CA,54,96,E8,02,C3,
2231043,00000157,false,Rx,0,8,D5,D7,09,C4,FF,E0,00,80,
2231247,000001C7,false,Rx,0,4,AA,A0,FF,C0,00,00,00,00,
2232591,000001A1,false,Rx,0,8,B1,45,48,13,95,0C,80,20,
2237617,0000019F,false,Rx,0,8,00,00,7D,0C,00,6A,90,FE,
2240917,00000155,false,Rx,0,8,39,87,CA,54,96,E8,02,C3,
2241140,00000157,false,Rx,0,8,D5,27,09,C4,FF,E0,00,80,
2241393,000004F7,false,Rx,0,8,00,1A,08,00,90,30,06,F0,
2241548,000001C7,false,Rx,0,4,AA,A0,FF,C0,00,00,00,00,
2241813,00000428,false,Rx,0,8,00,00,00,7F,00,00,00,00,
2241991,0000042F,false,Rx,0,2,00,20,00,00,00,00,00,00,
2242595,000001A1,false,Rx,0,8,B1,05,48,13,95,0C,80,20,
2247619,0000019F,false,Rx,0,8,00,00,7D,01,00,6A,90,FE,
2250817,00000155,false,Rx,0,8,39,87,CB,54,96,E8,02,C3,
2251047,00000157,false,Rx,0,8,D5,77,09,C4,FF,E0,00,80,
2251244,000001C7,false,Rx,0,4,AA,A0,FF,C0,00,00,00,00,
2252588,000001A1,false,Rx,0,8,B1,05,48,13,95,0C,80,20,
2257623,0000019F,false,Rx,0,8,00,00,7D,06,00,6A,90,FE,
2260797,00000155,false,Rx,0,8,39,87,CB,54,96,E8,02,C3,
2261042,00000157,false,Rx,0,8,D5,C7,09,C4,FF,E0,00,80,
2261238,000001C7,false,Rx,0,4,AA,A0,FF,C0,00,00,00,00,
2262621,000001A1,false,Rx,0,8,B1,45,48,13,95,0C,80,20,
2267644,0000019F,false,Rx,0,8,00,00,7D,0B,00,6A,90,FE,
2267891,00000511,false,Rx,0,7,04,4C,65,75,78,06,71,00,
2270853,00000155,false,Rx,0,8,39,87,CC,54,96,E8,02,C3,
2271105,00000157,false,Rx,0,8,D5,17,09,C4,FF,E0,00,80,
2271335,000001C7,false,Rx,0,4,AA,A0,FF,C0,00,00,00,00,
2272747,000001A1,false,Rx,0,8,B1,45,48,13,95,0C,80,20,
2277706,0000019F,false,Rx,0,8,00,00,7D,00,00,6A,90,FE,
2280811,00000155,false,Rx,0,8,39,87,CB,54,96,E8,02,C3,
2281028,00000157,false,Rx,0,8,D5,67,09,C4,FF,E0,00,80,
2281309,000001C7,false,Rx,0,4,AA,A0,FF,C0,00,00,00,00,
2282598,000001A1,false,Rx,0,8,B1,45,48,13,95,0C,80,20,
2287708,0000019F,false,Rx,0,8,00,00,7D,05,00,6A,90,FE,
2290778,00000155,false,Rx,0,8,39,87,CA,54,96,E8,02,C3,
2291090,00000157,false,Rx,0,8,D5,B7,09,C4,FF,E0,00,80,
2291340,000001C7,false,Rx,0,4,AA,A0,FF,C0,00,00,00,00,
2292711,000001A1,false,Rx,0,8,B1,05,48,13,95,0C,80,20,
2296028,00000423,false,Rx,0,8,07,1D,00,02,B2,80,5D,D8,
2297703,0000019F,false,Rx,0,8,00,00,7D,0A,00,6A,90,FE,
2300732,00000155,false,Rx,0,8,39,87,CA,54,96,E8,02,C3,
2300964,00000157,false,Rx,0,8,D5,07,09,C4,FF,E0,00,80,
2301336,00000424,false,Rx,0,8,11,40,56,C8,33,5E,AA,34,
2301343,000001C7,false,Rx,0,4,AA,A0,FF,C0,00,00,00,00,
2301660,00000425,false,Rx,0,8,2A,BB,44,9C,42,1A,CD,0C,
2301908,00000426,false,Rx,0,8,00,60,01,00,53,18,00,40,
2302086,000004AE,false,Rx,0,8,D2,B2,3C,A0,92,5A,88,84,
2302264,00000659,false,Rx,0,4,26,00,03,36,00,00,00,00,
2302484,00000445,false,Rx,0,7,80,55,55,65,04,82,00,00,
2302682,000001A1,false,Rx,0,8,B1,45,48,13,95,0C,80,20,
2302903,000004AF,false,Rx,0,5,65,3B,4B,3A,40,00,00,00,
2307808,0000019F,false,Rx,0,8,00,00,7D,0F,00,6A,90,FE,
2310778,00000155,false,Rx,0,8,39,87,CB,54,96,E8,02,C3,
2311074,00000157,false,Rx,0,8,D5,57,09,C4,FF,E0,00,80,
2311368,000001C7,false,Rx,0,4,AA,A0,FF,C0,00,00,00,00,
2312778,000001A1,false,Rx,0,8,B1,45,48,13,95,0C,80,20,
2316121,00000435,false,Rx,0,8,FF,FF,1E,0B,2E,00,00,00,
2317659,0000019F,false,Rx,0,8,00,00,7D,04,00,6A,90,FE,
2317905,00000419,false,Rx,0,6,5E,21,32,E6,3E,00,00,00,
2320898,00000155,false,Rx,0,8,39,87,CB,54,96,E8,02,C3,
2320996,00000157,false,Rx,0,8,D5,A7,09,C4,FF,E0,00,80,
2321242,00000436,false,Rx,0,6,86,16,64,3A,FF,DC,00,00,
2321396,000001C7,false,Rx,0,4,AA,A0,FF,C0,00,00,00,00,
2322582,000001A1,false,Rx,0,8,B1,45,48,13,95,0C,80,20,
2327806,0000019F,false,Rx,0,8,00,00,7D,09,00,6A,90,FE,
2330745,00000155,false,Rx,0,8,39,87,CB,54,96,E8,02,C3,
2330987,00000157,false,Rx,0,8,D5,F7,09,C4,FF,E0,00,80,
2331300,000001C7,false,Rx,0,4,AA,A0,FF,C0,00,00,00,00,
2332766,000001A1,false,Rx,0,8,B1,05,48,13,95,0C,80,20,
2337776,0000019F,false,Rx,0,8,00,00,7D,0E,00,6A,90,FE,
2341085,00000155,false,Rx,0,8,39,87,CA,54,96,E8,02,C3,
2341094,00000157,false,Rx,0,8,D5,47,09,C4,FF,E0,00,80,
2341438,000004F7,false,Rx,0,8,00,1A,08,00,90,30,06,F0,
2341560,000001C7,false,Rx,0,4,AA,A0,FF,C0,00,00,00,00,
2342019,00000428,false,Rx,0,8,00,00,00,7F,00,00,00,00,
2342028,0000042F,false,Rx,0,2,00,20,00,00,00,00,00,00,
2342707,000001A1,false,Rx,0,8,B1,45,48,13,95,0C,80,20,
2347808,0000019F,false,Rx,0,8,00,00,7D,03,00,6A,90,FE,
2350837,00000155,false,Rx,0,8,39,87,CA,54,96,E8,02,C3,
2351035,00000157,false,Rx,0,8,D5,97,09,C4,FF,E0,00,80,
2351481,000001C7,false,Rx,0,4,AA,A0,FF,C0,00,00,00,00,
2352776,000001A1,false,Rx,0,8,B1,45,48,13,95,0C,80,20,
2357824,0000019F,false,Rx,0,8,00,00,7D,08,00,6A,90,FE,
2360843,00000155,false,Rx,0,8,39,87,CB,54,96,E8,02,C3,
2361038,00000157,false,Rx,0,8,D5,E7,09,C4,FF,E0,00,80,
2361509,000001C7,false,Rx,0,4,AA,A0,FF,C0,00,00,00,00,
2362634,000001A1,false,Rx,0,8,B1,05,48,13,95,0C,80,20,
2367814,0000019F,false,Rx,0,8,00,00,7D,0D,00,6A,90,FE,
2367862,00000511,false,Rx,0,7,04,8B,2E,2E,E3,13,54,00,
2370866,00000155,false,Rx,0,8,39,87,CB,54,96,E8,02,C3,
2371058,00000157,false,Rx,0,8,D5,37,09,C4,FF,E0,00,80,
2371492,000001C7,false,Rx,0,4,AA,A0,FF,C0,00,00,00,00,
2372750,000001A1,false,Rx,0,8,B1,45,48,13,95,0C,80,20,
2377810,0000019F,false,Rx,0,8,00,00,7D,02,00,6A,90,FE,
2381048,00000155,false,Rx,0,8,39,87,CC,54,96,E8,02,C3,
2381057,00000157,false,Rx,0,8,D5,87,09,C4,FF,E0,00,80,
2381394,000001C7,false,Rx,0,4,AA,A0,FF,C0,00,00,00,00,
2382608,000001A1,false,Rx,0,8,B1,45,48,13,95,0C,80,20,
2387629,0000019F,false,Rx,0,8,00,00,7D,07,00,6A,90,FE,
2390823,00000155,false,Rx,0,8,39,87,CB,54,96,E8,02,C3,
2391067,00000157,false,Rx,0,8,D5,D7,09,C4,FF,E0,00,80,
2391384,000001C7,false,Rx,0,4,AA,A0,FF,C0,00,00,00,00,
2392687,000001A1,false,Rx,0,8,B1,05,48,13,95,0C,80,20,
2395874,00000423,false,Rx,0,8,07,1D,00,02,B2,80,5D,D8,
2397623,0000019F,false,Rx,0,8,00,00,7D,0C,00,6A,90,FE,
2400745,00000155,false,Rx,0,8,39,87,CB,54,96,E8,02,C3,
2400944,00000424,false,Rx,0,8,11,40,56,C8,33,5E,AA,34,
2401196,00000157,false,Rx,0,8,D5,27,09,C4,FF,E0,00,80,
2401349,000001C7,false,Rx,0,4,AA,A0,FF,C0,00,00,00,00,
2401582,00000425,false,Rx,0,8,2A,BB,44,9C,42,1A,CD,0C,
2401814,00000426,false,Rx,0,8,00,60,01,00,53,18,00,40,
2402318,00000445,false,Rx,0,7,80,55,55,65,04,82,00,00,
2402595,000001A1,false,Rx,0,8,B1,05,48,13,95,0C,80,20,
2407619,0000019F,false,Rx,0,8,00,00,7D,01,00,6A,90,FE,
2410732,00000155,false,Rx,0,8,39,87,CA,54,96,E8,02,C3,
2410966,00000157,false,Rx,0,8,D5,77,09,C4,FF,E0,00,80,
2411344,000001C7,false,Rx,0,4,AA,A0,FF,C0,00,00,00,00,
2412591,000001A1,false,Rx,0,8,B1,45,48,13,95,0C,80,20,
2415943,00000435,false,Rx,0,8,FF,FF,1E,0B,2E,00,00,00,
2417618,0000019F,false,Rx,0,8,00,00,7D,06,00,6A,90,FE,
2417865,00000419,false,Rx,0,6,5F,18,32,E6,3E,00,00,00,
2420719,00000155,false,Rx,0,8,39,87,CA,54,96,E8,02,C3,
2420971,00000157,false,Rx,0,8,D5,C7,09,C4,FF,E0,00,80,
2421174,00000436,false,Rx,0,6,86,16,64,3A,FF,DC,00,00,
2421351,000001C7,false,Rx,0,4,AA,A0,FF,C0,00,00,00,00,
2422591,000001A1,false,Rx,0,8,B1,45,48,13,95,0C,80,20,
2427618,0000019F,false,Rx,0,8,00,00,7D,0B,00,6A,90,FE,
2430742,00000155,false,Rx,0,8,39,87,CA,54,96,E8,02,C3,
2430994,00000157,false,Rx,0,8,D5,17,09,C4,FF,E0,00,80,
2431347,000001C7,false,Rx,0,4,AA,A0,FF,C0,00,00,00,00,
2432591,000001A1,false,Rx,0,8,B1,05,48,13,95,0C,80,20,
2437619,0000019F,false,Rx,0,8,00,00,7D,00,00,6A,90,FE,
2440818,00000155,false,Rx,0,8,39,87,CA,54,96,E8,02,C3,
2441046,00000157,false,Rx,0,8,D5,67,09,C4,FF,E0,00,80,
2441422,000004F7,false,Rx,0,8,00,1A,08,00,90,30,06,F0,
2441600,000001C7,false,Rx,0,4,AA,A0,FF,C0,00,00,00,00,
2441841,00000428,false,Rx,0,8,00,00,00,7F,00,00,00,00,
2442017,0000042F,false,Rx,0,2,00,20,00,00,00,00,00,00,
2442596,000001A1,false,Rx,0,8,B1,45,48,13,95,0C,80,20,
2447617,0000019F,false,Rx,0,8,00,00,7D,05,00,6A,90,FE,
2450798,00000155,false,Rx,0,8,39,87,CA,54,96,E8,02,C3,
2451007,00000157,false,Rx,0,8,D5,B7,09,C4,FF,E0,00,80,
2451356,000001C7,false,Rx,0,4,AA,A0,FF,C0,00,00,00,00,
2452586,000001A1,false,Rx,0,8,B1,05,48,13,95,0C,80,20,
2457624,0000019F,false,Rx,0,8,00,00,7D,0A,00,6A,90,FE,
2460797,00000155,false,Rx,0,8,39,87,CA,54,96,E8,02,C3,
2461045,00000157,false,Rx,0,8,D5,07,09,C4,FF,E0,00,80,
2461373,000001C7,false,Rx,0,4,AA,A0,FF,C0,00,00,00,00,
2462592,000001A1,false,Rx,0,8,B1,05,48,13,95,0C,80,20,
2467593,0000019F,false,Rx,0,8,00,00,7D,0F,00,6A,90,FE,
2467866,00000511,false,Rx,0,7,04,CA,F7,E7,4E,20,37,00,
2470793,00000155,false,Rx,0,8,39,87,CA,54,96,E8,02,C3,
2471021,00000157,false,Rx,0,8,D5,57,09,C4,FF,E0,00,80,
2471373,000001C7,false,Rx,0,4,AA,A0,FF,C0,00,00,00,00,
2472593,000001A1,false,Rx,0,8,B1,45,48,13,95,0C,80,20,
2477632,0000019F,false,Rx,0,8,00,00,7D,04,00,6A,90,FE,
2480718,00000155,false,Rx,0,8,39,87,CA,54,96,E8,02,C3,
2480994,00000157,false,Rx,0,8,D5,A7,09,C4,FF,E0,00,80,
2481373,000001C7,false,Rx,0,4,AA,A0,FF,C0,00,00,00,00,
2482593,000001A1,false,Rx,0,8,B1,05,48,13,95,0C,80,20,
2487616,0000019F,false,Rx,0,8,00,00,7D,09,00,6A,90,FE,
2490709,00000155,false,Rx,0,8,39,87,CA,54,96,E8,02,C3,
2490958,00000157,false,Rx,0,8,D5,F7,09,C4,FF,E0,00,80,
2491384,000001C7,false,Rx,0,4,AA,A0,FF,C0,00,00,00,00,
2492584,000001A1,false,Rx,0,8,B1,45,48,13,95,0C,80,20,
2495494,0000069F,false,Rx,0,4,71,30,28,2F,00,00,00,00,
2495942,00000423,false,Rx,0,8,07,1D,00,02,5D,80,B2,D7,
2497622,0000019F,false,Rx,0,8,00,00,7D,0E,00,6A,90,FE,
2500718,00000155,false,Rx,0,8,39,87,CA,54,96,E8,02,C3,
2500946,00000424,false,Rx,0,8,11,40,56,C8,33,5E,55,34,
2501199,00000157,false,Rx,0,8,D5,47,09,C4,FF,E0,00,80,
2501401,00000425,false,Rx,0,8,2A,BB,44,9C,42,1A,CD,0C,
2501581,000001C7,false,Rx,0,4,AA,A0,FF,C0,00,00,00,00,
2501817,00000426,false,Rx,0,8,00,60,01,00,53,18,00,40,
2502295,00000445,false,Rx,0,7,80,55,AA,65,04,82,00,00,
2502598,000001A1,false,Rx,0,8,B1,45,48,13,95,0C,80,20,
2507618,0000019F,false,Rx,0,8,00,00,7D,03,00,6A,90,FE,
2510719,00000155,false,Rx,0,8,39,87,CA,54,96,E8,02,C3,
2510971,00000157,false,Rx,0,8,D5,97,09,C4,FF,E0,00,80,
2511398,000001C7,false,Rx,0,4,AA,A0,FF,C0,00,00,00,00,
2512592,000001A1,false,Rx,0,8,B1,05,48,13,95,0C,80,20,
2515988,00000435,false,Rx,0,8,FF,FF,1E,0B,2E,00,00,00,
2517640,0000019F,false,Rx,0,8,00,00,7D,08,00,6A,90,FE,
2517862,00000419,false,Rx,0,6,5E,1C,32,E6,3E,00,00,00,
2520743,00000155,false,Rx,0,8,39,87,CA,54,96,E8,02,C3,
2521039,00000157,false,Rx,0,8,D5,E7,09,C4,FF,E0,00,80,
2521238,00000436,false,Rx,0,6,86,16,64,3A,FF,DC,00,00,
2521412,000001C7,false,Rx,0,4,AA,A0,FF,C0,00,00,00,00,
2522612,000001A1,false,Rx,0,8,B1,45,34,13,95,0C,80,20,
2527586,0000019F,false,Rx,0,8,00,00,7D,0D,00,6A,90,FE,
2530734,00000155,false,Rx,0,8,39,87,CA,54,96,E8,02,C3,
2531084,00000157,false,Rx,0,8,D5,37,09,C4,FF,E0,00,80,
2531576,000001C7,false,Rx,0,4,AA,A0,FF,C0,00,00,00,00,
2532759,000001A1,false,Rx,0,8,B1,45,48,13,95,0C,80,20,
2537808,0000019F,false,Rx,0,8,00,00,7D,02,00,6A,90,FE,
2540983,00000155,false,Rx,0,8,39,87,CA,54,96,E8,02,C3,
2541130,00000157,false,Rx,0,8,D5,87,09,C4,FF,E0,00,80,
2541544,000004F7,false,Rx,0,8,00,1A,08,00,90,30,06,F0,
2541719,000001C7,false,Rx,0,4,AA,A0,FF,C0,00,00,00,00,
2541977,00000428,false,Rx,0,8,00,00,00,7F,00,00,00,00,
2542120,0000042F,false,Rx,0,2,00,20,00,00,00,00,00,00,
2542634,000001A1,false,Rx,0,8,B1,05,48,13,95,0C,80,20,
2547765,0000019F,false,Rx,0,8,00,00,7D,07,00,6A,90,FE,
2550824,00000155,false,Rx,0,8,39,87,CA,54,96,E8,02,C3,
2551035,00000157,false,Rx,0,8,D5,D7,09,C4,FF,E0,00,80,
2551557,000001C7,false,Rx,0,4,AA,A0,FF,C0,00,00,00,00,
2552770,000001A1,false,Rx,0,8,B1,45,48,13,95,0C,80,20,
2557800,0000019F,false,Rx,0,8,00,00,7D,0C,00,6A,90,FE,
2561023,00000155,false,Rx,0,8,39,87,CA,54,96,E8,02,C3,
2561032,00000157,false,Rx,0,8,D5,27,09,C4,FF,E0,00,80,
2561621,000001C7,false,Rx,0,4,AA,A0,FF,C0,00,00,00,00,
2562701,000001A1,false,Rx,0,8,B1,45,48,13,95,0C,80,20,
2567802,0000019F,false,Rx,0,8,00,00,7D,01,00,6A,90,FE,
2567859,00000511,false,Rx,0,7,04,09,C0,A0,B9,2D,1A,00,
2570836,00000155,false,Rx,0,8,39,87,CA,54,96,E8,02,C3,
2571067,00000157,false,Rx,0,8,D5,77,09,C4,FF,E0,00,80,
2571502,000001C7,false,Rx,0,4,AA,A0,FF,C0,00,00,00,00,
2572750,000001A1,false,Rx,0,8,B1,05,48,13,95,0C,80,20,
2577662,0000019F,false,Rx,0,8,00,00,7D,06,00,6A,90,FE,
2581046,00000155,false,Rx,0,8,39,87,CA,54,96,E8,02,C3,
2581055,00000157,false,Rx,0,8,D5,C7,09,C4,FF,E0,00,80,
2581643,000001C7,false,Rx,0,4,AA,A0,FF,C0,00,00,00,00,
2582670,000001A1,false,Rx,0,8,B1,05,48,13,95,0C,80,20,
2587662,0000019F,false,Rx,0,8,00,00,7D,0B,00,6A,90,FE,
2590823,00000155,false,Rx,0,8,39,87,CA,54,96,E8,02,C3,
2591013,00000157,false,Rx,0,8,D5,17,09,C4,FF,E0,00,80,
2591704,000001C7,false,Rx,0,4,AA,A0,FF,C0,00,00,00,00,
2592733,000001A1,false,Rx,0,8,B1,45,48,13,95,0C,80,20,
2595887,00000423,false,Rx,0,8,07,1D,00,02,5D,80,B2,D9,
2597692,0000019F,false,Rx,0,8,00,00,7D,00,00,6A,90,FE,
2600886,00000155,false,Rx,0,8,39,87,CA,54,96,E8,02,C3,
2600934,00000157,false,Rx,0,8,D5,67,09,C4,FF,E0,00,80,
2601252,00000424,false,Rx,0,8,11,40,56,C8,33,5E,55,34,
2601443,00000425,false,Rx,0,8,2A,BB,44,9C,42,1A,CD,0B,
2601630,000001C7,false,Rx,0,4,AA,A0,FF,C0,00,00,00,00,
2601877,00000426,false,Rx,0,8,00,60,01,00,53,18,00,40,
2602471,00000445,false,Rx,0,7,80,55,AA,65,04,82,00,00,
2602608,000001A1,false,Rx,0,8,B1,05,48,13,95,0C,80,20,
2607806,0000019F,false,Rx,0,8,00,00,7D,05,00,6A,90,FE,
2610746,00000155,false,Rx,0,8,39,87,CA,54,96,E8,02,C3,
2611076,00000157,false,Rx,0,8,D5,B7,09,C4,FF,E0,00,80,
2611648,000001C7,false,Rx,0,4,AA,A0,FF,C0,00,00,00,00,
2612752,000001A1,false,Rx,0,8,B1,05,48,13,95,0C,80,20,
2616078,00000435,false,Rx,0,8,FF,FF,1E,0B,2E,00,00,00,
2617752,0000019F,false,Rx,0,8,00,00,7D,0A,00,6A,90,FE,
2617913,00000419,false,Rx,0,6,5E,1E,32,E6,3E,00,00,00,
2620927,00000155,false,Rx,0,8,39,87,CA,54,96,E8,02,C3,
2620946,00000157,false,Rx,0,8,D5,07,09,C4,FF,E0,00,80,
2621209,00000436,false,Rx,0,6,86,16,64,3A,FF,DC,00,00,
2621533,000001C7,false,Rx,0,4,AA,A0,FF,C0,00,00,00,00,
2622770,000001A1,false,Rx,0,8,B1,45,48,13,95,0C,80,20,
2627644,0000019F,false,Rx,0,8,00,00,7D,0F,00,6A,90,FE,
2630825,00000155,false,Rx,0,8,39,87,CA,54,96,E8,02,C3,
2631014,00000157,false,Rx,0,8,D5,57,09,C4,FF,E0,00,80,
2631631,000001C7,false,Rx,0,4,AA,A0,FF,C0,00,00,00,00,
2632768,000001A1,false,Rx,0,8,B1,05,48,13,95,0C,80,20,
2637787,0000019F,false,Rx,0,8,00,00,7D,04,00,6A,90,FE,
2640882,00000155,false,Rx,0,8,39,87,CA,54,96,E8,02,C3,
2641092,00000157,false,Rx,0,8,D5,A7,09,C4,FF,E0,00,80,
2641616,000004F7,false,Rx,0,8,00,1A,08,00,90,30,06,F0,
2641774,000001C7,false,Rx,0,4,AA,A0,FF,C0,00,00,00,00,
2642125,00000428,false,Rx,0,8,00,00,00,7F,00,00,00,00,
2642143,0000042F,false,Rx,0,2,00,20,00,00,00,00,00,00,
2642578,000001A1,false,Rx,0,8,B1,45,48,13,95,0C,80,20,
2647619,0000019F,false,Rx,0,8,00,00,7D,09,00,6A,90,FE,
2650795,00000155,false,Rx,0,8,39,87,CA,54,96,E8,02,C3,
2651012,00000157,false,Rx,0,8,D5,F7,09,C4,FF,E0,00,80,
2651499,000001C7,false,Rx,0,4,AA,A0,FF,C0,00,00,00,00,
2652598,000001A1,false,Rx,0,8,B1,45,48,13,95,0C,80,20,
2657647,0000019F,false,Rx,0,8,00,00,7D,0E,00,6A,90,FE,
2660831,00000155,false,Rx,0,8,39,87,CA,54,96,E8,02,C3,
2661059,00000157,false,Rx,0,8,D5,47,09,C4,FF,E0,00,80,
2661538,000001C7,false,Rx,0,4,AA,A0,FF,C0,00,00,00,00,
2662632,000001A1,false,Rx,0,8,B1,45,48,13,95,0C,80,20,
2667656,0000019F,false,Rx,0,8,00,00,7D,03,00,6A,90,FE,
2667905,00000511,false,Rx,0,7,04,48,89,59,24,3A,FD,00,
2670831,00000155,false,Rx,0,8,39,87,CA,54,96,E8,02,C3,
2671059,00000157,false,Rx,0,8,D5,97,09,C4,FF,E0,00,80,
2671538,000001C7,false,Rx,0,4,AA,A0,FF,C0,00,00,00,00,
2672630,000001A1,false,Rx,0,8,B1,45,48,13,95,0C,80,20,
2677657,0000019F,false,Rx,0,8,00,00,7D,08,00,6A,90,FE,
2680756,00000155,false,Rx,0,8,39,87,CA,54,96,E8,02,C3,
2680985,00000157,false,Rx,0,8,D5,E7,09,C4,FF,E0,00,80,
2681537,000001C7,false,Rx,0,4,AA,A0,FF,C0,00,00,00,00,
2682632,000001A1,false,Rx,0,8,B1,05,48,13,95,0C,80,20,
2687634,0000019F,false,Rx,0,8,00,00,7D,0D,00,6A,90,FE,
2690727,00000155,false,Rx,0,8,39,87,CA,54,96,E8,02,C3,
2690984,00000157,false,Rx,0,8,D5,37,09,C4,FF,E0,00,80,
2691530,000001C7,false,Rx,0,4,AA,A0,FF,C0,00,00,00,00,
2692632,000001A1,false,Rx,0,8,B1,45,48,13,95,0C,80,20,
2695889,00000423,false,Rx,0,8,07,1D,00,02,5D,80,B2,D9,
2697630,0000019F,false,Rx,0,8,00,00,7D,02,00,6A,90,FE,
2700710,00000155,false,Rx,0,8,39,87,CB,54,96,E8,02,C3,
2700928,00000424,false,Rx,0,8,11,40,56,C8,33,5E,55,34,
2701153,00000157,false,Rx,0,8,D5,87,09,C4,FF,E0,00,80,
2701377,00000425,false,Rx,0,8,2A,BB,44,9C,42,1A,CD,0C,
2701552,000001C7,false,Rx,0,4,AA,A0,FF,C0,00,00,00,00,
2701802,00000426,false,Rx,0,8,00,60,01,00,53,18,00,40,
2702253,00000445,false,Rx,0,7,80,55,AA,65,04,82,00,00,
2702603,000001A1,false,Rx,0,8,B1,45,48,13,95,0C,80,20,
2707599,0000019F,false,Rx,0,8,00,00,7D,07,00,6A,90,FE,
2710725,00000155,false,Rx,0,8,39,87,CA,54,96,E8,02,C3,
2710975,00000157,false,Rx,0,8,D5,D7,09,C4,FF,E0,00,80,
2711527,000001C7,false,Rx,0,4,AA,A0,FF,C0,00,00,00,00,
2712587,000001A1,false,Rx,0,8,B1,45,48,13,95,0C,80,20,
2715988,00000435,false,Rx,0,8,FF,FF,1E,0B,2E,00,00,00,
2717657,0000019F,false,Rx,0,8,00,00,7D,0C,00,6A,90,FE,
2717881,00000419,false,Rx,0,6,5E,1D,32,E6,3E,00,00,00,
2720720,00000155,false,Rx,0,8,39,87,CA,54,96,E8,02,C3,
2720939,00000157,false,Rx,0,8,D5,27,09,C4,FF,E0,00,80,
2721142,00000436,false,Rx,0,6,86,16,64,3A,FF,DC,00,00,
2721521,000001C7,false,Rx,0,4,AA,A0,FF,C0,00,00,00,00,
2722585,000001A1,false,Rx,0,8,B1,05,48,13,95,0C,80,20,
2727613,0000019F,false,Rx,0,8,00,00,7D,01,00,6A,90,FE,
2730715,00000155,false,Rx,0,8,39,87,CA,54,96,E8,02,C3,
2730941,00000157,false,Rx,0,8,D5,77,09,C4,FF,E0,00,80,
2731516,000001C7,false,Rx,0,4,AA,A0,FF,C0,00,00,00,00,
2732583,000001A1,false,Rx,0,8,B1,45,48,13,95,0C,80,20,
2737623,0000019F,false,Rx,0,8,00,00,7D,06,00,6A,90,FE,
2740841,00000155,false,Rx,0,8,39,87,CA,54,96,E8,02,C3,
2741062,00000157,false,Rx,0,8,D5,C7,09,C4,FF,E0,00,80,
2741616,000004F7,false,Rx,0,8,00,1A,08,00,90,30,06,F0,
2741784,000001C7,false,Rx,0,4,AA,A0,FF,C0,00,00,00,00,
2742037,00000428,false,Rx,0,8,00,00,00,7F,00,00,00,00,
2742215,0000042F,false,Rx,0,2,00,20,00,00,00,00,00,00,
2742593,000001A1,false,Rx,0,8,B1,45,48,13,95,0C,80,20,
2747626,0000019F,false,Rx,0,8,00,00,7D,0B,00,6A,90,FE,
2750740,00000155,false,Rx,0,8,39,87,CA,54,96,E8,02,C3,
2751025,00000157,false,Rx,0,8,D5,17,09,C4,FF,E0,00,80,
2751543,000001C7,false,Rx,0,4,AA,A0,FF,C0,00,00,00,00,
2752595,000001A1,false,Rx,0,8,B1,05,48,13,95,0C,80,20,
2757625,0000019F,false,Rx,0,8,00,00,7D,00,00,6A,90,FE,
2760767,00000155,false,Rx,0,8,39,87,CA,54,96,E8,02,C3,
2760999,00000157,false,Rx,0,8,D5,67,09,C4,FF,E0,00,80,
2761552,000001C7,false,Rx,0,4,AA,A0,FF,C0,00,00,00,00,
2762597,000001A1,false,Rx,0,8,B1,05,48,13,95,0C,80,20,
2767619,0000019F,false,Rx,0,8,00,00,7D,05,00,6A,90,FE,
2767858,00000511,false,Rx,0,7,04,87,52,12,8F,47,E0,00,
2770816,00000155,false,Rx,0,8,39,87,CB,54,96,E8,02,C3,
2771013,00000157,false,Rx,0,8,D5,B7,09,C4,FF,E0,00,80,
2771564,000001C7,false,Rx,0,4,AA,A0,FF,C0,00,00,00,00,
2772585,000001A1,false,Rx,0,8,B1,45,48,13,95,0C,80,20,
2777621,0000019F,false,Rx,0,8,00,00,7D,0A,00,6A,90,FE,
2780772,00000155,false,Rx,0,8,39,87,CA,54,96,E8,02,C3,
2781016,00000157,false,Rx,0,8,D5,07,09,C4,FF,E0,00,80,
2781568,000001C7,false,Rx,0,4,AA,A0,FF,C0,00,00,00,00,
2782588,000001A1,false,Rx,0,8,B1,05,48,13,95,0C,80,20,
2787623,0000019F,false,Rx,0,8,00,00,7D,0F,00,6A,90,FE,
2790716,00000155,false,Rx,0,8,39,87,CB,54,96,E8,02,C3,
2790948,00000157,false,Rx,0,8,D5,57,09,C4,FF,E0,00,80,
2791570,000001C7,false,Rx,0,4,AA,A0,FF,C0,00,00,00,00,
2792586,000001A1,false,Rx,0,8,B1,05,48,13,95,0C,80,20,
2795964,00000423,false,Rx,0,8,07,1D,00,02,5D,80,B2,D9,
2797613,0000019F,false,Rx,0,8,00,00,7D,04,00,6A,90,FE,
2800708,00000155,false,Rx,0,8,39,87,CA,54,96,E8,02,C3,
2800932,00000157,false,Rx,0,8,D5,A7,09,C4,FF,E0,00,80,
2801153,00000424,false,Rx,0,8,11,40,56,C8,33,5E,55,34,
2801382,00000425,false,Rx,0,8,2A,BB,44,9C,42,1A,CD,0C,
2801672,00000426,false,Rx,0,8,00,60,01,00,53,18,00,40,
2801795,000001C7,false,Rx,0,4,AA,A0,FF,C0,00,00,00,00,
2802245,00000445,false,Rx,0,7,80,55,AA,65,04,82,00,00,
2802595,000001A1,false,Rx,0,8,B1,45,48,13,95,0C,80,20,
2807600,0000019F,false,Rx,0,8,00,00,7D,09,00,6A,90,FE,
2810717,00000155,false,Rx,0,8,39,87,CB,54,96,E8,02,C3,
2810964,00000157,false,Rx,0,8,D5,F7,09,C4,FF,E0,00,80,
2811592,000001C7,false,Rx,0,4,AA,A0,FF,C0,00,00,00,00,
2812587,000001A1,false,Rx,0,8,B1,05,48,13,75,0C,80,20,
2815969,00000435,false,Rx,0,8,FF,FF,1E,0B,2E,00,00,00,
2817596,0000019F,false,Rx,0,8,00,00,7D,0E,00,6A,90,FE,
2817859,00000419,false,Rx,0,6,5E,1D,32,E6,3E,00,00,00,
2820714,00000155,false,Rx,0,8,39,87,CA,54,96,E8,02,C3,
2820930,00000157,false,Rx,0,8,D5,47,09,C4,FF,E0,00,80,
2821133,00000436,false,Rx,0,6,86,16,64,3A,FF,DC,00,00,
2821583,000001C7,false,Rx,0,4,AA,A0,FF,C0,00,00,00,00,
2822584,000001A1,false,Rx,0,8,B1,05,48,13,75,0C,80,20,
2827621,0000019F,false,Rx,0,8,00,00,7D,03,00,6A,90,FE,
2830723,00000155,false,Rx,0,8,39,87,CA,54,96,E8,02,C3,
2830940,00000157,false,Rx,0,8,D5,97,09,C4,FF,E0,00,80,
2831595,000001C7,false,Rx,0,4,AA,A0,FF,C0,00,00,00,00,
2832582,000001A1,false,Rx,0,8,B1,45,34,13,75,0C,80,20,
2837635,0000019F,false,Rx,0,8,00,00,7D,08,00,6A,90,FE,
2840848,00000155,false,Rx,0,8,39,87,CA,54,96,E8,02,C3,
2841053,00000157,false,Rx,0,8,D5,E7,09,C4,FF,E0,00,80,
2841683,000004F7,false,Rx,0,8,00,1A,08,00,90,30,06,F0,
2841863,000001C7,false,Rx,0,4,AA,A0,FF,C0,00,00,00,00,
2842088,00000428,false,Rx,0,8,00,00,00,7F,00,00,00,00,
2842273,0000042F,false,Rx,0,2,00,20,00,00,00,00,00,00,
2842596,000001A1,false,Rx,0,8,B1,45,48,13,75,0C,80,20,
2847603,0000019F,false,Rx,0,8,00,00,7D,0D,00,6A,90,FE,
2850799,00000155,false,Rx,0,8,39,87,CA,54,96,E8,02,C4,
2851018,00000157,false,Rx,0,8,D5,37,09,C4,FF,E0,00,80,
2851620,000001C7,false,Rx,0,4,AA,A0,FF,C0,00,00,00,00,
2852589,000001A1,false,Rx,0,8,B1,45,48,13,75,0C,80,20,
2857616,0000019F,false,Rx,0,8,00,00,7D,02,00,6A,90,FE,
2860792,00000155,false,Rx,0,8,39,87,CA,54,96,E8,02,C4,
2861013,00000157,false,Rx,0,8,D5,87,09,C4,FF,E0,00,80,
2861620,000001C7,false,Rx,0,4,AA,A0,FF,C0,00,00,00,00,
2862589,000001A1,false,Rx,0,8,B1,45,48,13,75,0C,80,20,
2867623,0000019F,false,Rx,0,8,00,00,7D,07,00,6A,90,FE,
2867863,00000511,false,Rx,0,7,04,C6,1B,CB,FA,54,C3,00,
2870796,00000155,false,Rx,0,8,39,87,CA,54,96,E8,02,C4,
2871013,00000157,false,Rx,0,8,D5,D7,09,C4,FF,E0,00,80,
2871620,000001C7,false,Rx,0,4,AA,A0,FF,C0,00,00,00,00,
2872614,000001A1,false,Rx,0,8,B1,05,48,13,75,0C,80,20,
2877621,0000019F,false,Rx,0,8,00,00,7D,0C,00,6A,90,FE,
2880746,00000155,false,Rx,0,8,39,87,CA,54,96,E8,02,C4,
2880964,00000157,false,Rx,0,8,D5,27,09,C4,FF,E0,00,80,
2881616,000001C7,false,Rx,0,4,AA,A0,FF,C0,00,00,00,00,
2882586,000001A1,false,Rx,0,8,B1,45,34,13,75,0C,80,20,
2887621,0000019F,false,Rx,0,8,00,00,7D,01,00,6A,90,FE,
2890717,00000155,false,Rx,0,8,39,87,CA,54,96,E8,02,C4,
2890991,00000157,false,Rx,0,8,D5,77,09,C4,FF,E0,00,80,
2891619,000001C7,false,Rx,0,4,AA,A0,FF,C0,00,00,00,00,
2892613,000001A1,false,Rx,0,8,B1,05,48,13,75,0C,80,20,
2895924,00000423,false,Rx,0,8,07,1D,00,02,5D,80,B2,D9,
2897626,0000019F,false,Rx,0,8,00,00,7D,06,00,6A,90,FE,
2900724,00000155,false,Rx,0,8,39,87,CA,54,96,E8,02,C4,
2900948,00000157,false,Rx,0,8,D5,C7,09,C4,FF,E0,00,80,
2901171,00000424,false,Rx,0,8,11,40,56,C8,33,5E,55,34,
2901396,00000425,false,Rx,0,8,2A,BB,44,9C,42,1A,CD,0C,
2901629,00000426,false,Rx,0,8,00,60,01,00,53,18,00,40,
2901785,000001C7,false,Rx,0,4,AA,A0,FF,C0,00,00,00,00,
2902240,00000445,false,Rx,0,7,80,55,AA,65,04,82,00,00,
2902593,000001A1,false,Rx,0,8,B1,05,48,13,75,0C,80,20,
2907616,0000019F,false,Rx,0,8,00,00,7D,0B,00,6A,90,FE,
2910714,00000155,false,Rx,0,8,39,87,CA,54,96,E8,02,C4,
2910965,00000157,false,Rx,0,8,D5,17,09,C4,FF,E0,00,80,
2911592,000001C7,false,Rx,0,4,AA,A0,FF,C0,00,00,00,00,
2912586,000001A1,false,Rx,0,8,B1,45,48,13,75,0C,80,20,
2915887,00000435,false,Rx,0,8,FF,FF,1E,0B,2E,00,00,00,
2917612,0000019F,false,Rx,0,8,00,00,7D,00,00,6A,90,FE,
2917857,00000419,false,Rx,0,6,5E,1E,32,E6,3E,00,00,00,
2920713,00000155,false,Rx,0,8,39,87,CA,54,96,E8,02,C4,
2920962,00000157,false,Rx,0,8,D5,67,09,C4,FF,E0,00,80,
2921166,00000436,false,Rx,0,6,86,16,64,3A,FF,DC,00,00,
2921593,000001C7,false,Rx,0,4,AA,A0,FF,C0,00,00,00,00,
2922610,000001A1,false,Rx,0,8,B1,45,48,13,75,0C,80,20,
2927613,0000019F,false,Rx,0,8,00,00,7D,05,00,6A,90,FE,
2930712,00000155,false,Rx,0,8,39,87,CA,54,96,E8,02,C4,
2930961,00000157,false,Rx,0,8,D5,B7,09,C4,FF,E0,00,80,
2931615,000001C7,false,Rx,0,4,AA,A0,FF,C0,00,00,00,00,
