Time Stamp,ID,Extended,Dir,Bus,LEN,D1,D2,D3,D4,D5,D6,D7,D8
1249081,0000019F,false,Rx,0,8,E1,E1,7D,0B,00,6A,50,FE,
1249595,00000155,false,Rx,0,8,47,87,C5,54,96,50,02,C3,
1250096,00000445,false,Rx,0,7,80,55,AA,65,04,82,00,00,
1253262,00000157,false,Rx,0,8,D5,1B,09,C4,FF,E0,00,80,
1254072,000001A1,false,Rx,0,8,B1,05,70,10,15,8C,80,20,
1254244,000001C7,false,Rx,0,4,AA,A0,FF,C0,00,00,00,00,
1258123,00000423,false,Rx,0,8,0B,1D,00,02,B2,80,5D,D8,
1259071,0000019F,false,Rx,0,8,E1,E1,7D,00,00,6A,50,FE,
1259646,00000155,false,Rx,0,8,47,87,C4,54,96,50,02,C3,
1259866,00000424,false,Rx,0,8,11,40,56,C8,33,5E,55,34,
1260092,00000425,false,Rx,0,8,2A,BA,44,9C,42,1A,CD,0B,
1263148,00000157,false,Rx,0,8,D5,6B,09,C4,FF,E0,00,80,
1263393,00000426,false,Rx,0,8,00,60,01,00,53,18,00,40,
1264068,000001A1,false,Rx,0,8,B1,05,70,10,15,8C,80,20,
1264242,000001C7,false,Rx,0,4,AA,A0,FF,C0,00,00,00,00,
1269046,0000019F,false,Rx,0,8,E1,E1,7D,05,00,6A,50,FE,
1269618,00000155,false,Rx,0,8,47,87,C5,54,96,50,02,C3,
1273222,00000157,false,Rx,0,8,D5,BB,09,C4,FF,E0,00,80,
1274073,000001A1,false,Rx,0,8,B0,C5,70,10,15,8C,80,20,
1274218,000001C7,false,Rx,0,4,AA,A0,FF,C0,00,00,00,00,
1278146,00000435,false,Rx,0,8,FF,FF,1E,0B,2E,10,00,00,
1279069,0000019F,false,Rx,0,8,E1,E1,7D,0A,00,6A,50,FE,
1279342,00000419,false,Rx,0,6,5E,22,32,E6,44,00,00,00,
1279642,00000155,false,Rx,0,8,47,87,C5,54,96,50,02,C3,
1283220,00000157,false,Rx,0,8,D5,0B,09,C4,FF,E0,00,80,
1283417,00000436,false,Rx,0,6,86,16,64,3E,FF,DC,00,00,
1284066,000001A1,false,Rx,0,8,B0,C5,70,10,15,8C,80,20,
1284217,000001C7,false,Rx,0,4,AA,A0,FF,C0,00,00,00,00,
1289046,0000019F,false,Rx,0,8,E1,E1,7D,0F,00,6A,50,FE,
1289620,00000155,false,Rx,0,8,47,87,C5,54,96,50,02,C3,
1293144,00000157,false,Rx,0,8,D5,5B,09,C4,FF,E0,00,80,
1294065,000001A1,false,Rx,0,8,B1,05,70,10,15,8C,80,20,
1294240,000001C7,false,Rx,0,4,AA,A0,FF,C0,00,00,00,00,
1299073,0000019F,false,Rx,0,8,E1,E1,7D,04,00,6A,50,FE,
1299717,00000155,false,Rx,0,8,47,87,C5,54,96,50,02,C3,
1303221,00000157,false,Rx,0,8,D5,AB,09,C4,FF,E0,00,80,
1304068,000001A1,false,Rx,0,8,B0,C5,70,10,15,8C,80,20,
1304217,000001C7,false,Rx,0,4,AA,A0,FF,C0,00,00,00,00,
1309070,0000019F,false,Rx,0,8,E1,E1,7D,09,00,6A,50,FE,
1309668,00000155,false,Rx,0,8,47,87,C5,54,96,50,02,C3,
1313172,00000157,false,Rx,0,8,D5,FB,09,C4,FF,E0,00,80,
1314068,000001A1,false,Rx,0,8,B0,C5,70,10,15,8C,80,20,
1314217,000001C7,false,Rx,0,4,AA,A0,FF,C0,00,00,00,00,
1319073,0000019F,false,Rx,0,8,E1,E1,7D,0E,00,6A,50,FE,
1319668,00000155,false,Rx,0,8,47,87,C4,54,96,50,02,C3,
1323223,00000157,false,Rx,0,8,D5,4B,09,C4,FF,E0,00,80,
1324071,000001A1,false,Rx,0,8,B1,05,70,10,15,8C,80,20,
1324217,000001C7,false,Rx,0,4,AA,A0,FF,C0,00,00,00,00,
1329077,0000019F,false,Rx,0,8,E1,E1,7D,03,00,6A,50,FE,
1329351,00000511,false,Rx,0,7,00,B6,15,01,47,A7,09,00,
1329653,00000155,false,Rx,0,8,47,87,C5,54,96,50,02,C3,
1332626,00000500,false,Rx,0,5,02,30,EE,DC,54,00,00,00,
1333123,00000157,false,Rx,0,8,D5,9B,09,C4,FF,E0,00,80,
1334073,000001A1,false,Rx,0,8,B0,C5,70,10,15,8C,80,20,
1334225,000001C7,false,Rx,0,4,AA,A0,FF,C0,00,00,00,00,
1339077,0000019F,false,Rx,0,8,E1,E1,7D,08,00,6A,50,FE,
1339627,00000155,false,Rx,0,8,47,87,C5,54,96,50,02,C3,
1343153,00000157,false,Rx,0,8,D5,EB,09,C4,FF,E0,00,80,
1344073,000001A1,false,Rx,0,8,B0,C5,5C,10,15,8C,80,20,
1344300,000004F7,false,Rx,0,8,00,1A,08,00,90,2C,06,F0,
1344504,000001C7,false,Rx,0,4,AA,A0,FF,C0,00,00,00,00,
1344781,00000428,false,Rx,0,8,00,00,00,7F,00,00,00,00,
1344931,0000042F,false,Rx,0,2,00,20,00,00,00,00,00,00,
1349052,0000019F,false,Rx,0,8,E1,E1,7D,0D,00,6A,50,FE,
1349601,00000155,false,Rx,0,8,47,87,C5,54,96,50,02,C3,
1350100,00000445,false,Rx,0,7,80,55,55,65,04,82,00,00,
1353125,00000157,false,Rx,0,8,D5,3B,09,C4,FF,E0,00,80,
1354074,000001A1,false,Rx,0,8,B0,C5,70,10,15,8C,80,20,
1354227,000001C7,false,Rx,0,4,AA,A0,FF,C0,00,00,00,00,
1358101,00000423,false,Rx,0,8,0B,1D,00,02,B2,80,5D,D8,
1359073,0000019F,false,Rx,0,8,E1,E1,7D,02,00,6A,50,FE,
1359650,00000155,false,Rx,0,8,47,87,C5,54,96,50,02,C3,
1359867,00000424,false,Rx,0,8,11,40,56,C8,33,5E,AA,34,
1360097,00000425,false,Rx,0,8,2A,BA,44,9C,42,1A,CD,0B,
1363151,00000157,false,Rx,0,8,D5,8B,09,C4,FF,E0,00,80,
1363376,00000426,false,Rx,0,8,00,60,01,00,53,18,00,40,
1364073,000001A1,false,Rx,0,8,B0,C5,70,10,15,8C,80,20,
1364228,000001C7,false,Rx,0,4,AA,A0,FF,C0,00,00,00,00,
1369078,0000019F,false,Rx,0,8,E1,E1,7D,07,00,6A,50,FE,
1369601,00000155,false,Rx,0,8,47,87,C5,54,96,50,02,C3,
1373129,00000157,false,Rx,0,8,D5,DB,09,C4,FF,E0,00,80,
1374074,000001A1,false,Rx,0,8,B1,05,70,10,15,8C,80,20,
1374225,000001C7,false,Rx,0,4,AA,A0,FF,C0,00,00,00,00,
1378074,00000435,false,Rx,0,8,FF,FF,1E,0B,2E,10,00,00,
1379073,0000019F,false,Rx,0,8,E1,E1,7D,0C,00,6A,50,FE,
1379350,00000419,false,Rx,0,6,5E,22,32,E6,44,00,00,00,
1379628,00000155,false,Rx,0,8,47,87,C4,54,96,50,02,C3,
1383200,00000157,false,Rx,0,8,D5,2B,09,C4,FF,E0,00,80,
1383400,00000436,false,Rx,0,6,86,16,64,3E,FF,DC,00,00,
1384067,000001A1,false,Rx,0,8,B0,C5,70,10,15,8C,80,20,
1384247,000001C7,false,Rx,0,4,AA,A0,FF,C0,00,00,00,00,
1389075,0000019F,false,Rx,0,8,E1,E1,7D,01,00,6A,50,FE,
1389625,00000155,false,Rx,0,8,47,87,C4,54,96,50,02,C3,
1393150,00000157,false,Rx,0,8,D5,7B,09,C4,FF,E0,00,80,
1394074,000001A1,false,Rx,0,8,B0,C5,70,10,15,8C,80,20,
1394250,000001C7,false,Rx,0,4,AA,A0,FF,C0,00,00,00,00,
1399075,0000019F,false,Rx,0,8,E1,E1,7D,06,00,6A,50,FE,
1399728,00000155,false,Rx,0,8,47,87,C5,54,96,50,02,C3,
1403340,00000157,false,Rx,0,8,D5,CB,09,C4,FF,E0,00,80,
1404240,000001A1,false,Rx,0,8,B1,05,70,10,15,8C,80,20,
1404242,000001C7,false,Rx,0,4,AA,A0,FF,C0,00,00,00,00,
1409176,0000019F,false,Rx,0,8,E1,E1,7D,0B,00,6A,50,FE,
1409683,00000155,false,Rx,0,8,47,87,C5,54,96,50,02,C3,
1413211,00000157,false,Rx,0,8,D5,1B,09,C4,FF,E0,00,80,
1414112,000001A1,false,Rx,0,8,B0,C5,70,10,15,8C,80,20,
1414261,000001C7,false,Rx,0,4,AA,A0,FF,C0,00,00,00,00,
1419112,0000019F,false,Rx,0,8,E1,E1,7D,00,00,6A,50,FE,
1419713,00000155,false,Rx,0,8,47,87,C5,54,96,50,02,C3,
1423243,00000157,false,Rx,0,8,D5,6B,09,C4,FF,E0,00,80,
1424109,000001A1,false,Rx,0,8,B0,C5,5C,10,15,8C,80,20,
1424261,000001C7,false,Rx,0,4,AA,A0,FF,C0,00,00,00,00,
1429111,0000019F,false,Rx,0,8,E1,E1,7D,05,00,6A,50,FE,
1429389,00000511,false,Rx,0,7,00,F5,DE,BA,B2,B4,EC,00,
1429682,00000155,false,Rx,0,8,47,87,C5,54,96,50,02,C3,
1432684,00000500,false,Rx,0,5,02,53,71,F4,A9,00,00,00,
1433258,00000157,false,Rx,0,8,D5,BB,09,C4,FF,E0,00,80,
1434099,000001A1,false,Rx,0,8,B0,C5,70,10,15,8C,80,20,
1434219,000001C7,false,Rx,0,4,AA,A0,FF,C0,00,00,00,00,
1439105,0000019F,false,Rx,0,8,E1,E1,7D,0A,00,6A,50,FE,
1439703,00000155,false,Rx,0,8,47,87,C5,54,96,50,02,C3,
1443210,00000157,false,Rx,0,8,D5,0B,09,C4,FF,E0,00,80,
1444087,000001A1,false,Rx,0,8,B1,05,70,10,15,8C,80,20,
1444303,000004F7,false,Rx,0,8,00,1A,08,00,90,2C,06,F0,
1444514,000001C7,false,Rx,0,4,AA,A0,FF,C0,00,00,00,00,
1444768,00000428,false,Rx,0,8,00,00,00,7F,00,00,00,00,
1444959,0000042F,false,Rx,0,2,00,20,00,00,00,00,00,00,
1449102,0000019F,false,Rx,0,8,E1,E1,7D,0F,00,6A,50,FE,
1449624,00000155,false,Rx,0,8,47,87,C4,54,96,50,02,C3,
1450099,00000445,false,Rx,0,7,80,55,55,65,04,82,00,00,
1453258,00000157,false,Rx,0,8,D5,5B,09,C4,FF,E0,00,80,
1454109,000001A1,false,Rx,0,8,B0,C5,70,10,15,8C,80,20,
1454263,000001C7,false,Rx,0,4,AA,A0,FF,C0,00,00,00,00,
1458187,00000423,false,Rx,0,8,0B,1D,00,02,B2,80,5D,D8,
1459109,0000019F,false,Rx,0,8,E1,E1,7D,04,00,6A,50,FE,
1459691,00000155,false,Rx,0,8,47,87,C5,54,96,50,02,C3,
1459902,00000424,false,Rx,0,8,11,40,56,C8,33,5E,AA,34,
1460132,00000425,false,Rx,0,8,2A,BA,44,9C,42,1A,CD,0C,
1463187,00000157,false,Rx,0,8,D5,AB,09,C4,FF,E0,00,80,
1463412,00000426,false,Rx,0,8,00,60,01,00,53,18,00,40,
1464111,000001A1,false,Rx,0,8,B1,05,70,10,15,8C,80,20,
1464262,000001C7,false,Rx,0,4,AA,A0,FF,C0,00,00,00,00,
1469076,0000019F,false,Rx,0,8,E1,E1,7D,09,00,6A,50,FE,
1469598,00000155,false,Rx,0,8,47,87,C5,54,96,50,02,C3,
1473123,00000157,false,Rx,0,8,D5,FB,09,C4,FF,E0,00,80,
1474072,000001A1,false,Rx,0,8,B1,05,5C,10,15,8C,80,20,
1474254,000001C7,false,Rx,0,4,AA,A0,FF,C0,00,00,00,00,
1478130,00000435,false,Rx,0,8,FF,FF,1E,0B,2E,10,00,00,
1479077,0000019F,false,Rx,0,8,E1,E1,7D,0E,00,6A,50,FE,
1479353,00000419,false,Rx,0,6,5E,22,32,E6,44,00,00,00,
1479632,00000155,false,Rx,0,8,47,87,C5,54,96,50,02,C3,
1483157,00000157,false,Rx,0,8,D5,4B,09,C4,FF,E0,00,80,
1483356,00000436,false,Rx,0,6,86,16,64,3E,FF,DC,00,00,
1484076,000001A1,false,Rx,0,8,B0,C5,70,10,15,8C,80,20,
1484229,000001C7,false,Rx,0,4,AA,A0,FF,C0,00,00,00,00,
1489079,0000019F,false,Rx,0,8,E1,E1,7D,03,00,6A,50,FE,
1489605,00000155,false,Rx,0,8,47,87,C5,54,96,50,02,C3,
1493204,00000157,false,Rx,0,8,D5,9B,09,C4,FF,E0,00,80,
1494072,000001A1,false,Rx,0,8,B0,C5,70,10,15,8C,80,20,
1494252,000001C7,false,Rx,0,4,AA,A0,FF,C0,00,00,00,00,
1499106,0000019F,false,Rx,0,8,E1,E1,7D,08,00,6A,50,FE,
1500002,00000155,false,Rx,0,8,47,87,C5,54,96,50,02,C3,
1503199,00000157,false,Rx,0,8,D5,EB,09,C4,FF,E0,00,80,
1504097,000001A1,false,Rx,0,8,B1,05,70,10,15,8C,80,20,
1504268,000001C7,false,Rx,0,4,AA,A0,FF,C0,00,00,00,00,
1509179,0000019F,false,Rx,0,8,E1,E1,7D,0D,00,6A,50,FE,
1509742,00000155,false,Rx,0,8,47,87,C4,54,96,50,02,C3,
1513198,00000157,false,Rx,0,8,D5,3B,09,C4,FF,E0,00,80,
1514140,000001A1,false,Rx,0,8,B0,C5,70,10,15,8C,80,20,
1514258,000001C7,false,Rx,0,4,AA,A0,FF,C0,00,00,00,00,
1519107,0000019F,false,Rx,0,8,E1,E1,7D,02,00,6A,50,FE,
1519676,00000155,false,Rx,0,8,47,87,C4,54,96,50,02,C3,
1523286,00000157,false,Rx,0,8,D5,8B,09,C4,FF,E0,00,80,
1524157,000001A1,false,Rx,0,8,B0,C5,70,0F,E5,8C,80,20,
1524288,000001C7,false,Rx,0,4,AA,A0,FF,C0,00,00,00,00,
1529138,0000019F,false,Rx,0,8,E1,E1,7D,07,00,6A,50,FE,
1529439,00000511,false,Rx,0,7,00,34,A7,73,1D,C1,CF,00,
1529687,00000155,false,Rx,0,8,47,87,C5,54,96,50,02,C3,
1532978,00000500,false,Rx,0,5,02,1F,F6,CE,CD,00,00,00,
1533196,00000157,false,Rx,0,8,D5,DB,09,C4,FF,E0,00,80,
1534329,000001A1,false,Rx,0,8,B1,05,70,0F,E5,8C,80,20,
1534335,000001C7,false,Rx,0,4,AA,A0,FF,C0,00,00,00,00,
1539295,0000019F,false,Rx,0,8,E1,E1,7D,0C,00,6A,50,FE,
1539824,00000155,false,Rx,0,8,47,87,C5,54,96,50,02,C3,
1543389,00000157,false,Rx,0,8,D5,2B,09,C4,FF,E0,00,80,
1544162,000001A1,false,Rx,0,8,B0,C5,70,0F,E5,8C,80,20,
1544389,000004F7,false,Rx,0,8,00,1A,08,00,90,2C,06,F0,
1544586,000001C7,false,Rx,0,4,AA,A0,FF,C0,00,00,00,00,
1545028,00000428,false,Rx,0,8,00,00,00,7F,00,00,00,00,
1545034,0000042F,false,Rx,0,2,00,20,00,00,00,00,00,00,
1549336,0000019F,false,Rx,0,8,E1,E1,7D,01,00,6A,50,FE,
1549819,00000155,false,Rx,0,8,47,87,C5,54,96,50,02,C3,
1550127,00000445,false,Rx,0,7,80,55,55,65,04,82,00,00,
1553425,00000157,false,Rx,0,8,D5,7B,09,C4,FF,E0,00,80,
1554239,000001A1,false,Rx,0,8,B0,C5,70,0F,E5,8C,80,20,
1554246,000001C7,false,Rx,0,4,AA,A0,FF,C0,00,00,00,00,
1558231,00000423,false,Rx,0,8,0B,1D,00,02,B2,80,5D,D8,
1559244,0000019F,false,Rx,0,8,E1,E1,7D,06,00,6A,50,FE,
1559732,00000155,false,Rx,0,8,47,87,C5,54,96,50,02,C3,
1559920,00000424,false,Rx,0,8,11,40,56,C8,33,5E,AA,34,
1560266,00000425,false,Rx,0,8,2A,BA,44,9C,42,18,CD,0B,
1560325,000004AE,false,Rx,0,8,D2,B2,3C,A0,92,5A,88,84,
1560553,00000659,false,Rx,0,4,26,00,03,36,00,00,00,00,
1560666,000004AF,false,Rx,0,5,65,3B,4B,3A,40,00,00,00,
1563180,00000157,false,Rx,0,8,D5,CB,09,C4,FF,E0,00,80,
1563407,00000426,false,Rx,0,8,00,60,01,00,53,18,00,40,
1564123,000001A1,false,Rx,0,8,B1,05,70,0F,E5,8C,80,20,
1564259,000001C7,false,Rx,0,4,AA,A0,FF,C0,00,00,00,00,
1569134,0000019F,false,Rx,0,8,E1,E1,7D,0B,00,6A,50,FE,
1569705,00000155,false,Rx,0,8,47,87,C4,54,96,50,02,C3,
1573295,00000157,false,Rx,0,8,D5,1B,09,C4,FF,E0,00,80,
1574337,000001A1,false,Rx,0,8,B1,05,70,0F,E5,8C,80,20,
1574347,000001C7,false,Rx,0,4,AA,A0,FF,C0,00,00,00,00,
1578399,00000435,false,Rx,0,8,FF,FF,1E,0B,2E,10,00,00,
1579340,0000019F,false,Rx,0,8,E1,E1,7D,00,00,6A,50,FE,
1579348,00000419,false,Rx,0,6,5E,22,32,E6,44,00,00,00,
1579789,00000155,false,Rx,0,8,47,87,C4,54,96,50,02,C3,
1583439,00000157,false,Rx,0,8,D5,6B,09,C4,FF,E0,00,80,
1583448,00000436,false,Rx,0,6,86,16,64,3E,FF,DC,00,00,
1584239,000001A1,false,Rx,0,8,B0,C5,5C,0F,E5,8C,80,20,
1584246,000001C7,false,Rx,0,4,AA,A0,FF,C0,00,00,00,00,
1589159,0000019F,false,Rx,0,8,E1,E1,7D,05,00,6A,50,FE,
1589700,00000155,false,Rx,0,8,47,87,C5,54,96,50,02,C3,
1593288,00000157,false,Rx,0,8,D5,BB,09,C4,FF,E0,00,80,
1594253,000001A1,false,Rx,0,8,B0,C5,70,0F,E5,8C,80,20,
1594260,000001C7,false,Rx,0,4,AA,A0,FF,C0,00,00,00,00,
1599256,0000019F,false,Rx,0,8,E1,E1,7D,0A,00,6A,50,FE,
1599946,00000155,false,Rx,0,8,47,87,C5,54,96,50,02,C3,
1603293,00000157,false,Rx,0,8,D5,0B,09,C4,FF,E0,00,80,
1604265,000001A1,false,Rx,0,8,B0,C5,70,0F,E5,8C,80,20,
1604274,000001C7,false,Rx,0,4,AA,A0,FF,C0,00,00,00,00,
1609349,0000019F,false,Rx,0,8,E1,E1,7D,0F,00,6A,50,FE,
1609747,00000155,false,Rx,0,8,46,87,C6,54,96,50,02,C3,
1613467,00000157,false,Rx,0,8,D5,5B,09,C4,FF,E0,00,80,
1614329,000001A1,false,Rx,0,8,B1,05,70,0F,E5,8C,80,20,
1614340,000001C7,false,Rx,0,4,AA,A0,FF,C0,00,00,00,00,
1619246,0000019F,false,Rx,0,8,E1,E1,7D,04,00,6A,50,FE,
1619834,00000155,false,Rx,0,8,46,87,C5,54,96,50,02,C3,
1623320,00000157,false,Rx,0,8,D5,AB,09,C4,FF,E0,00,80,
1624241,000001A1,false,Rx,0,8,B0,C5,70,0F,E5,8C,80,20,
1624247,000001C7,false,Rx,0,4,AA,A0,FF,C0,00,00,00,00,
1629179,0000019F,false,Rx,0,8,E1,E1,7D,09,00,6A,50,FE,
1629411,00000511,false,Rx,0,7,00,73,70,2C,88,CE,B2,00,
1629748,00000155,false,Rx,0,8,46,87,C5,54,96,50,02,C3,
1632831,00000500,false,Rx,0,5,02,CD,AD,F9,95,00,00,00,
1633284,00000157,false,Rx,0,8,D5,FB,09,C4,FF,E0,00,80,
1634290,000001A1,false,Rx,0,8,B0,C5,70,0F,E5,8C,80,20,
1634300,000001C7,false,Rx,0,4,AA,A0,FF,C0,00,00,00,00,
1639345,0000019F,false,Rx,0,8,E1,E1,7D,0E,00,6A,50,FE,
1639712,00000155,false,Rx,0,8,46,87,C4,54,96,50,02,C3,
1643271,00000157,false,Rx,0,8,D5,4B,09,C4,FF,E0,00,80,
1644352,000001A1,false,Rx,0,8,B1,05,5C,0F,E5,8C,80,20,
1644362,000004F7,false,Rx,0,8,00,1A,08,00,90,2C,06,F0,
1644491,000001C7,false,Rx,0,4,AA,A0,FF,C0,00,00,00,00,
1644881,00000428,false,Rx,0,8,00,00,00,7F,00,00,00,00,
1644963,0000042F,false,Rx,0,2,00,20,00,00,00,00,00,00,
1649158,0000019F,false,Rx,0,8,E1,E1,7D,03,00,6A,50,FE,
1649711,00000155,false,Rx,0,8,46,87,C5,54,96,50,02,C3,
1650218,00000445,false,Rx,0,7,80,55,55,65,04,82,00,00,
1653397,00000157,false,Rx,0,8,D5,9B,09,C4,FF,E0,00,80,
1654245,000001A1,false,Rx,0,8,B1,05,70,0F,E5,8C,80,20,
1654254,000001C7,false,Rx,0,4,AA,A0,FF,C0,00,00,00,00,
1658218,00000423,false,Rx,0,8,0B,1D,00,02,B2,80,5D,D8,
1659153,0000019F,false,Rx,0,8,E1,E1,7D,08,00,6A,50,FE,
1659652,00000155,false,Rx,0,8,46,87,C5,54,96,50,02,C3,
1659884,00000424,false,Rx,0,8,11,40,56,C8,33,5E,AA,34,
1660095,00000425,false,Rx,0,8,2A,BA,44,9C,42,18,CD,0B,
1663184,00000157,false,Rx,0,8,D5,EB,09,C4,FF,E0,00,80,
1663367,00000426,false,Rx,0,8,00,60,01,00,53,18,00,40,
1664091,000001A1,false,Rx,0,8,B0,C5,5C,0F,E5,8C,80,20,
1664267,000001C7,false,Rx,0,4,AA,A0,FF,C0,00,00,00,00,
1669093,0000019F,false,Rx,0,8,E1,E1,7D,0D,00,6A,50,FE,
1669617,00000155,false,Rx,0,8,46,87,C6,54,96,50,02,C3,
1673169,00000157,false,Rx,0,8,D5,3B,09,C4,FF,E0,00,80,
1674090,000001A1,false,Rx,0,8,B1,05,70,0F,E5,8C,80,20,
1674267,000001C7,false,Rx,0,4,AA,A0,FF,C0,00,00,00,00,
1678116,00000435,false,Rx,0,8,FF,FF,1E,0B,2E,10,00,00,
1679090,0000019F,false,Rx,0,8,E1,E1,7D,02,00,6A,50,FE,
1679367,00000419,false,Rx,0,6,5E,22,32,E6,44,00,00,00,
1679643,00000155,false,Rx,0,8,46,87,C6,54,96,50,02,C3,
1683141,00000157,false,Rx,0,8,D5,8B,09,C4,FF,E0,00,80,
1683341,00000436,false,Rx,0,6,86,16,64,3E,FF,DC,00,00,
1684090,000001A1,false,Rx,0,8,B1,05,70,0F,E5,8C,80,20,
1684234,000001C7,false,Rx,0,4,AA,A0,FF,C0,00,00,00,00,
1689092,0000019F,false,Rx,0,8,E1,E1,7D,07,00,6A,50,FE,
1689618,00000155,false,Rx,0,8,46,87,C5,54,96,50,02,C3,
1693165,00000157,false,Rx,0,8,D5,DB,09,C4,FF,E0,00,80,
1694092,000001A1,false,Rx,0,8,B0,C5,70,0F,E5,8C,80,20,
1694239,000001C7,false,Rx,0,4,AA,A0,FF,C0,00,00,00,00,
1699090,0000019F,false,Rx,0,8,E1,E1,7D,0C,00,6A,50,FE,
1699693,00000155,false,Rx,0,8,46,87,C4,54,96,50,02,C3,
1703166,00000157,false,Rx,0,8,D5,2B,09,C4,FF,E0,00,80,
1704090,000001A1,false,Rx,0,8,B0,C5,70,0F,E5,8C,80,20,
1704267,000001C7,false,Rx,0,4,AA,A0,FF,C0,00,00,00,00,
1709104,0000019F,false,Rx,0,8,E1,E1,7D,01,00,6A,50,FE,
1709672,00000155,false,Rx,0,8,46,87,C5,54,96,50,02,C3,
1713191,00000157,false,Rx,0,8,D5,7B,09,C4,FF,E0,00,80,
1714090,000001A1,false,Rx,0,8,B1,05,70,0F,E5,8C,80,20,
1714241,000001C7,false,Rx,0,4,AA,A0,FF,C0,00,00,00,00,
1719085,0000019F,false,Rx,0,8,E1,E1,7D,06,00,6A,50,FE,
1719655,00000155,false,Rx,0,8,46,87,C5,54,96,50,02,C3,
1723156,00000157,false,Rx,0,8,D5,CB,09,C4,FF,E0,00,80,
1724080,000001A1,false,Rx,0,8,B0,C5,70,0F,E5,8C,80,20,
1724266,000001C7,false,Rx,0,4,AA,A0,FF,C0,00,00,00,00,
1729094,0000019F,false,Rx,0,8,E1,E1,7D,0B,00,6A,50,FE,
1729369,00000511,false,Rx,0,7,00,B2,39,E5,F3,DB,95,00,
1729694,00000155,false,Rx,0,8,46,87,C6,54,96,50,02,C3,
1732795,00000500,false,Rx,0,5,02,AC,58,8C,26,00,00,00,
1733193,00000157,false,Rx,0,8,D5,1B,09,C4,FF,E0,00,80,
1734090,000001A1,false,Rx,0,8,B1,05,70,0F,E5,8C,80,20,
1734268,000001C7,false,Rx,0,4,AA,A0,FF,C0,00,00,00,00,
1739092,0000019F,false,Rx,0,8,E1,E1,7D,00,00,6A,50,FE,
1739645,00000155,false,Rx,0,8,46,87,C6,54,96,50,02,C3,
1743133,00000157,false,Rx,0,8,D5,6B,09,C4,FF,E0,00,80,
1744082,000001A1,false,Rx,0,8,B1,05,70,0F,E5,8C,80,20,
1744331,000004F7,false,Rx,0,8,00,1A,08,00,90,2C,06,F0,
1744506,000001C7,false,Rx,0,4,AA,A0,FF,C0,00,00,00,00,
1744756,00000428,false,Rx,0,8,00,00,00,7F,00,00,00,00,
1744931,0000042F,false,Rx,0,2,00,20,00,00,00,00,00,00,
1749083,0000019F,false,Rx,0,8,E1,E1,7D,05,00,6A,50,FE,
1749598,00000155,false,Rx,0,8,46,87,C5,54,96,50,02,C3,
1750080,00000445,false,Rx,0,7,80,55,55,65,04,82,00,00,
1753216,00000157,false,Rx,0,8,D5,BB,09,C4,FF,E0,00,80,
1754091,000001A1,false,Rx,0,8,B0,C5,70,0F,E5,8C,80,20,
1754268,000001C7,false,Rx,0,4,AA,A0,FF,C0,00,00,00,00,
1758142,00000423,false,Rx,0,8,0B,1D,00,02,5D,80,B2,D8,
1759087,0000019F,false,Rx,0,8,E1,E1,7D,0A,00,6A,50,FE,
1759640,00000155,false,Rx,0,8,46,87,C5,54,96,50,02,C3,
1759882,00000424,false,Rx,0,8,11,40,56,C8,33,5E,AA,34,
1760085,00000425,false,Rx,0,8,2A,BA,44,9C,42,18,CD,0B,
1763216,00000157,false,Rx,0,8,D5,0B,09,C4,FF,E0,00,80,
1763443,00000426,false,Rx,0,8,00,60,01,00,53,18,00,40,
1764086,000001A1,false,Rx,0,8,B0,C5,70,0F,E5,8C,80,20,
1764290,000001C7,false,Rx,0,4,AA,A0,FF,C0,00,00,00,00,
1769092,0000019F,false,Rx,0,8,E1,E1,7D,0F,00,6A,50,FE,
1769619,00000155,false,Rx,0,8,46,87,C4,54,96,50,02,C3,
1773217,00000157,false,Rx,0,8,D5,5B,09,C4,FF,E0,00,80,
1774091,000001A1,false,Rx,0,8,B1,05,5C,0F,E5,8C,80,20,
1774293,000001C7,false,Rx,0,4,AA,A0,FF,C0,00,00,00,00,
1778091,00000435,false,Rx,0,8,FF,FF,1E,0B,2E,10,00,00,
1779091,0000019F,false,Rx,0,8,E1,E1,7D,04,00,6A,50,FE,
1779370,00000419,false,Rx,0,6,5E,22,32,E6,44,00,00,00,
1779648,00000155,false,Rx,0,8,46,87,C5,54,96,50,02,C3,
1783162,00000157,false,Rx,0,8,D5,AB,09,C4,FF,E0,00,80,
1783358,00000436,false,Rx,0,6,86,16,64,3E,FF,DC,00,00,
1784086,000001A1,false,Rx,0,8,B0,C5,70,0F,E5,8C,80,20,
1784289,000001C7,false,Rx,0,4,AA,A0,FF,C0,00,00,00,00,
1789081,0000019F,false,Rx,0,8,E1,E1,7D,09,00,6A,50,FE,
1789633,00000155,false,Rx,0,8,46,87,C5,54,96,50,02,C3,
1793185,00000157,false,Rx,0,8,D5,FB,09,C4,FF,E0,00,80,
1794092,000001A1,false,Rx,0,8,B1,05,70,0F,E5,8C,80,20,
1794308,000001C7,false,Rx,0,4,AA,A0,FF,C0,00,00,00,00,
1799082,0000019F,false,Rx,0,8,E1,E1,7D,0E,00,6A,50,FE,
1799711,00000155,false,Rx,0,8,46,87,C6,54,96,50,02,C3,
1803189,00000157,false,Rx,0,8,D5,4B,09,C4,FF,E0,00,80,
1804087,000001A1,false,Rx,0,8,B0,C5,70,0F,E5,8C,80,20,
1804289,000001C7,false,Rx,0,4,AA,A0,FF,C0,00,00,00,00,
1809079,0000019F,false,Rx,0,8,E1,E1,7D,03,00,6A,50,FE,
1809626,00000155,false,Rx,0,8,46,87,C5,54,96,50,02,C3,
1813182,00000157,false,Rx,0,8,D5,9B,09,C4,FF,E0,00,80,
1814082,000001A1,false,Rx,0,8,B0,C5,70,0F,E5,8C,80,20,
1814308,000001C7,false,Rx,0,4,AA,A0,FF,C0,00,00,00,00,
1819082,0000019F,false,Rx,0,8,E1,E1,7D,08,00,6A,50,FE,
1819633,00000155,false,Rx,0,8,46,87,C5,54,96,50,02,C3,
1823278,00000157,false,Rx,0,8,D5,EB,09,C4,FF,E0,00,80,
1824101,000001A1,false,Rx,0,8,B1,05,70,0F,E5,8C,80,20,
1824326,000001C7,false,Rx,0,4,AA,A0,FF,C0,00,00,00,00,
1829248,0000019F,false,Rx,0,8,E1,E1,7D,0D,00,6A,50,FE,
1829431,00000511,false,Rx,0,7,00,F1,02,9E,5E,E8,78,00,
1829718,00000155,false,Rx,0,8,46,87,C4,54,96,50,02,C3,
1833189,00000500,false,Rx,0,5,02,3F,E3,1B,1B,00,00,00,
1833309,00000157,false,Rx,0,8,D5,3B,09,C4,FF,E0,00,80,
1834285,000001A1,false,Rx,0,8,B0,C5,70,0F,E5,8C,80,20,
1834289,000001C7,false,Rx,0,4,AA,A0,FF,C0,00,00,00,00,
1839149,0000019F,false,Rx,0,8,E1,E1,7D,02,00,6A,50,FE,
1839699,00000155,false,Rx,0,8,46,87,C5,54,96,50,02,C3,
1843394,00000157,false,Rx,0,8,D5,8B,09,C4,FF,E0,00,80,
1844341,000001A1,false,Rx,0,8,B0,C5,70,0F,E5,8C,80,20,
1844381,000004F7,false,Rx,0,8,00,1A,08,00,90,2C,06,F0,
1844793,000001C7,false,Rx,0,4,AA,A0,FF,C0,00,00,00,00,
1844807,00000428,false,Rx,0,8,00,00,00,7F,00,00,00,00,
1845018,0000042F,false,Rx,0,2,00,20,00,00,00,00,00,00,
1849112,0000019F,false,Rx,0,8,E1,E1,7D,07,00,6A,50,FE,
1849653,00000155,false,Rx,0,8,46,87,C5,54,96,50,02,C3,
1850090,00000445,false,Rx,0,7,80,55,AA,65,04,82,00,00,
1853045,0000069F,false,Rx,0,4,71,30,28,2F,00,00,00,00,
1853129,00000157,false,Rx,0,8,D5,DB,09,C4,FF,E0,00,80,
1854185,000001A1,false,Rx,0,8,B1,05,5C,0F,E5,8C,80,20,
1854383,000001C7,false,Rx,0,4,AA,A0,FF,C0,00,00,00,00,
1858334,00000423,false,Rx,0,8,0B,1D,00,02,5D,80,B2,D8,
1859337,0000019F,false,Rx,0,8,E1,E1,7D,0C,00,6A,50,FE,
1859809,00000155,false,Rx,0,8,46,87,C5,54,96,50,02,C3,
1859873,00000424,false,Rx,0,8,11,40,56,C8,33,5E,55,34,
1860250,00000425,false,Rx,0,8,2A,BA,44,9C,42,18,CD,0B,
1863394,00000157,false,Rx,0,8,D5,2B,09,C4,FF,E0,00,80,
1863399,00000426,false,Rx,0,8,00,60,01,00,53,18,00,40,
1864335,000001A1,false,Rx,0,8,B0,C5,70,0F,E5,8C,80,20,
1864340,000001C7,false,Rx,0,4,AA,A0,FF,C0,00,00,00,00,
1869337,0000019F,false,Rx,0,8,E1,E1,7D,01,00,6A,50,FE,
1869701,00000155,false,Rx,0,8,46,87,C5,54,96,50,02,C3,
1873447,00000157,false,Rx,0,8,D5,7B,09,C4,FF,E0,00,80,
1874244,000001A1,false,Rx,0,8,B0,C5,5C,0F,E5,8C,80,20,
1874390,000001C7,false,Rx,0,4,AA,A0,FF,C0,00,00,00,00,
1878157,00000435,false,Rx,0,8,FF,FF,1E,0B,2E,10,00,00,
1879162,0000019F,false,Rx,0,8,E1,E1,7D,06,00,6A,50,FE,
1879435,00000419,false,Rx,0,6,5E,22,32,E6,44,00,00,00,
1879718,00000155,false,Rx,0,8,46,87,C5,54,96,50,02,C3,
1883284,00000157,false,Rx,0,8,D5,CB,09,C4,FF,E0,00,80,
1883367,00000436,false,Rx,0,6,86,16,64,3E,FF,DC,00,00,
1884344,000001A1,false,Rx,0,8,B1,05,70,0F,E5,8C,80,20,
1884351,000001C7,false,Rx,0,4,AA,A0,FF,C0,00,00,00,00,
1889343,0000019F,false,Rx,0,8,E1,E1,7D,0B,00,6A,50,FE,
1889648,00000155,false,Rx,0,8,46,87,C4,54,96,50,02,C3,
1893339,00000157,false,Rx,0,8,D5,1B,09,C4,FF,E0,00,80,
1894088,000001A1,false,Rx,0,8,B1,05,5C,0F,E5,8C,80,20,
1894531,000001C7,false,Rx,0,4,AA,A0,FF,C0,00,00,00,00,
1899344,0000019F,false,Rx,0,8,E1,E1,7D,00,00,6A,50,FE,
1899849,00000155,false,Rx,0,8,46,87,C5,54,96,50,02,C3,
1903340,00000157,false,Rx,0,8,D5,6B,09,C4,FF,E0,00,80,
1904347,000001A1,false,Rx,0,8,B0,C5,5C,0F,E5,8C,80,20,
1904356,000001C7,false,Rx,0,4,AA,A0,FF,C0,00,00,00,00,
1909163,0000019F,false,Rx,0,8,E1,E1,7D,05,00,6A,50,FE,
1909673,00000155,false,Rx,0,8,46,87,C5,54,96,50,02,C3,
1913184,00000157,false,Rx,0,8,D5,BB,09,C4,FF,E0,00,80,
1914131,000001A1,false,Rx,0,8,B1,05,70,0F,E5,8C,80,20,
1914402,000001C7,false,Rx,0,4,AA,A0,FF,C0,00,00,00,00,
1919131,0000019F,false,Rx,0,8,E1,E1,7D,0A,00,6A,50,FE,
1919711,00000155,false,Rx,0,8,46,87,C5,54,96,50,02,C3,
1923255,00000157,false,Rx,0,8,D5,0B,09,C4,FF,E0,00,80,
1924130,000001A1,false,Rx,0,8,B1,05,70,0F,E5,8C,80,20,
1924408,000001C7,false,Rx,0,4,AA,A0,FF,C0,00,00,00,00,
1929130,0000019F,false,Rx,0,8,E1,E1,7D,0F,00,6A,50,FE,
1929432,00000511,false,Rx,0,7,00,30,CB,57,C9,F5,5B,00,
1929637,00000155,false,Rx,0,8,46,87,C6,54,96,50,02,C3,
1932925,00000500,false,Rx,0,5,02,64,28,70,06,00,00,00,
1933203,00000157,false,Rx,0,8,D5,5B,09,C4,FF,E0,00,80,
1934128,000001A1,false,Rx,0,8,B0,C5,70,0F,E5,8C,80,20,
1934410,000001C7,false,Rx,0,4,AA,A0,FF,C0,00,00,00,00,
1939130,0000019F,false,Rx,0,8,E1,E1,7D,04,00,6A,50,FE,
1939664,00000155,false,Rx,0,8,46,87,C5,54,96,50,02,C3,
1943230,00000157,false,Rx,0,8,D5,AB,09,C4,FF,E0,00,80,
1944129,000001A1,false,Rx,0,8,B1,05,70,0F,E5,8C,80,20,
1944508,000004F7,false,Rx,0,8,00,1A,08,00,90,2C,06,F0,
1944622,000001C7,false,Rx,0,4,AA,A0,FF,C0,00,00,00,00,
1944922,00000428,false,Rx,0,8,00,00,00,7F,00,00,00,00,
1945110,0000042F,false,Rx,0,2,00,20,00,00,00,00,00,00,
1949132,0000019F,false,Rx,0,8,E1,E1,7D,09,00,6A,50,FE,
1949631,00000155,false,Rx,0,8,46,87,C4,54,96,50,02,C3,
1950079,00000445,false,Rx,0,7,80,55,AA,65,04,82,00,00,
1953206,00000157,false,Rx,0,8,D5,FB,09,C4,FF,E0,00,80,
1954130,000001A1,false,Rx,0,8,B1,05,70,0F,E5,8C,80,20,
1954432,000001C7,false,Rx,0,4,AA,A0,FF,C0,00,00,00,00,
1958204,00000423,false,Rx,0,8,0B,1D,00,02,5D,80,B2,D8,
1959129,0000019F,false,Rx,0,8,E1,E1,7D,0E,00,6A,50,FE,
1959682,00000155,false,Rx,0,8,46,87,C5,54,96,50,02,C3,
1959924,00000424,false,Rx,0,8,11,40,56,C8,33,5E,55,34,
1960128,00000425,false,Rx,0,8,2A,BA,44,9C,42,1A,CD,0B,
1963180,00000157,false,Rx,0,8,D5,4B,09,C4,FF,E0,00,80,
1963431,00000426,false,Rx,0,8,00,60,01,00,53,18,00,40,
1964128,000001A1,false,Rx,0,8,B0,C5,70,0F,E5,8C,80,20,
1964433,000001C7,false,Rx,0,4,AA,A0,FF,C0,00,00,00,00,
1969131,0000019F,false,Rx,0,8,E1,E1,7D,03,00,6A,50,FE,
1969588,00000155,false,Rx,0,8,46,87,C5,54,96,50,02,C3,
1973129,00000157,false,Rx,0,8,D5,9B,09,C4,FF,E0,00,80,
1974076,000001A1,false,Rx,0,8,B0,C5,70,0F,E5,8C,80,20,
1974401,000001C7,false,Rx,0,4,AA,A0,FF,C0,00,00,00,00,
1978123,00000435,false,Rx,0,8,FF,FF,1E,0B,2E,10,00,00,
1979103,0000019F,false,Rx,0,8,E1,E1,7D,08,00,6A,50,FE,
1979371,00000419,false,Rx,0,6,5E,22,32,E6,44,00,00,00,
1979644,00000155,false,Rx,0,8,46,87,C5,54,96,50,02,C3,
1983233,00000157,false,Rx,0,8,D5,EB,09,C4,FF,E0,00,80,
1983430,00000436,false,Rx,0,6,86,16,64,3E,FF,DC,00,00,
1984130,000001A1,false,Rx,0,8,B1,05,5C,0F,E5,8C,80,20,
1984460,000001C7,false,Rx,0,4,AA,A0,FF,C0,00,00,00,00,
1989094,0000019F,false,Rx,0,8,E1,E1,7D,0D,00,6A,50,FE,
1989585,00000155,false,Rx,0,8,46,87,C5,54,96,50,02,C3,
1993236,00000157,false,Rx,0,8,D5,3B,09,C4,FF,E0,00,80,
1994080,000001A1,false,Rx,0,8,B0,C5,70,0F,E5,8C,80,20,
1994405,000001C7,false,Rx,0,4,AA,A0,FF,C0,00,00,00,00,
1999086,0000019F,false,Rx,0,8,E1,E1,7D,02,00,6A,50,FE,
1999759,00000155,false,Rx,0,8,46,87,C5,54,96,50,02,C3,
2003136,00000157,false,Rx,0,8,D5,8B,09,C4,FF,E0,00,80,
2004085,000001A1,false,Rx,0,8,B0,C5,70,0F,E5,8C,80,20,
2004412,000001C7,false,Rx,0,4,AA,A0,FF,C0,00,00,00,00,
2009091,0000019F,false,Rx,0,8,E1,E1,7D,07,00,6A,50,FE,
2009611,00000155,false,Rx,0,8,46,87,C5,54,96,50,02,C3,
2013260,00000157,false,Rx,0,8,D5,DB,09,C4,FF,E0,00,80,
2014130,000001A1,false,Rx,0,8,B0,C5,5C,0F,E5,8C,80,20,
2014445,000001C7,false,Rx,0,4,AA,A0,FF,C0,00,00,00,00,
2019128,0000019F,false,Rx,0,8,E1,E1,7D,0C,00,6A,50,FE,
2019641,00000155,false,Rx,0,8,46,87,C4,54,96,50,02,C3,
2023258,00000157,false,Rx,0,8,D5,2B,09,C4,FF,E0,00,80,
2024131,000001A1,false,Rx,0,8,B0,C5,70,0F,E5,8C,80,20,
2024486,000001C7,false,Rx,0,4,AA,A0,FF,C0,00,00,00,00,
2029137,0000019F,false,Rx,0,8,E1,E1,7D,01,00,6A,50,FE,
2029395,00000511,false,Rx,0,7,00,6F,94,10,34,02,3E,00,
2029702,00000155,false,Rx,0,8,46,87,C5,54,96,50,02,C3,
2032925,00000500,false,Rx,0,5,02,DC,23,56,64,00,00,00,
2033279,00000157,false,Rx,0,8,D5,7B,09,C4,FF,E0,00,80,
2034133,000001A1,false,Rx,0,8,B0,C5,70,0F,E5,8C,80,20,
2034484,000001C7,false,Rx,0,4,AA,A0,FF,C0,00,00,00,00,
2039133,0000019F,false,Rx,0,8,E1,E1,7D,06,00,6A,50,FE,
2039708,00000155,false,Rx,0,8,46,87,C5,54,96,50,02,C2,
2043197,00000157,false,Rx,0,8,D5,CB,09,C4,FF,E0,00,80,
2044080,000001A1,false,Rx,0,8,B0,C5,70,0F,E5,8C,80,20,
2044502,000004F7,false,Rx,0,8,00,1A,08,00,90,2C,06,F0,
2044675,000001C7,false,Rx,0,4,AA,A0,FF,C0,00,00,00,00,
2044926,00000428,false,Rx,0,8,00,00,00,7F,00,00,00,00,
2045099,0000042F,false,Rx,0,2,00,20,00,00,00,00,00,00,
2049084,0000019F,false,Rx,0,8,E1,E1,7D,0B,00,6A,50,FE,
2049576,00000155,false,Rx,0,8,46,87,C5,54,96,50,02,C2,
2050051,00000445,false,Rx,0,7,80,55,AA,65,04,82,00,00,
2053179,00000157,false,Rx,0,8,D5,1B,09,C4,FF,E0,00,80,
2054075,000001A1,false,Rx,0,8,B1,05,5C,0F,E5,8C,80,20,
2054450,000001C7,false,Rx,0,4,AA,A0,FF,C0,00,00,00,00,
2058104,00000423,false,Rx,0,8,0B,1D,00,02,5D,80,B2,D8,
2059075,0000019F,false,Rx,0,8,E1,E1,7D,00,00,6A,50,FE,
2059625,00000155,false,Rx,0,8,46,87,C5,54,96,50,02,C2,
2059867,00000424,false,Rx,0,8,11,40,56,C8,33,5E,55,34,
2060065,00000425,false,Rx,0,8,2A,BA,44,9C,42,1A,CD,0B,
2063206,00000157,false,Rx,0,8,D5,6B,09,C4,FF,E0,00,80,
2063425,00000426,false,Rx,0,8,00,60,01,00,53,18,00,40,
2064075,000001A1,false,Rx,0,8,B1,05,70,0F,E5,8C,80,20,
2064449,000001C7,false,Rx,0,4,AA,A0,FF,C0,00,00,00,00,
2069081,0000019F,false,Rx,0,8,E1,E1,7D,05,00,6A,50,FE,
2069601,00000155,false,Rx,0,8,46,87,C4,54,96,50,02,C2,
2073129,00000157,false,Rx,0,8,D5,BB,09,C4,FF,E0,00,80,
2074077,000001A1,false,Rx,0,8,B0,C5,5C,0F,E5,8C,80,20,
2074450,000001C7,false,Rx,0,4,AA,A0,FF,C0,00,00,00,00,
2078083,00000435,false,Rx,0,8,FF,FF,1E,0B,2E,10,00,00,
2079078,0000019F,false,Rx,0,8,E1,E1,7D,0A,00,6A,50,FE,
2079351,00000419,false,Rx,0,6,5E,22,32,E6,44,00,00,00,
2079625,00000155,false,Rx,0,8,46,87,C4,54,96,50,02,C2,
2083133,00000157,false,Rx,0,8,D5,0B,09,C4,FF,E0,00,80,
2083328,00000436,false,Rx,0,6,86,16,64,3E,FF,DC,00,00,
2084079,000001A1,false,Rx,0,8,B0,C5,70,0F,E5,8C,80,20,
2084476,000001C7,false,Rx,0,4,AA,A0,FF,C0,00,00,00,00,
2089081,0000019F,false,Rx,0,8,E1,E1,7D,0F,00,6A,50,FE,
2089577,00000155,false,Rx,0,8,46,87,C5,54,96,50,02,C2,
2093206,00000157,false,Rx,0,8,D5,5B,09,C4,FF,E0,00,80,
2094077,000001A1,false,Rx,0,8,B1,05,70,0F,E5,8C,80,20,
2094475,000001C7,false,Rx,0,4,AA,A0,FF,C0,00,00,00,00,
2099082,0000019F,false,Rx,0,8,E1,E1,7D,04,00,6A,50,FE,
2099651,00000155,false,Rx,0,8,46,87,C5,54,96,50,02,C2,
2103156,00000157,false,Rx,0,8,D5,AB,09,C4,FF,E0,00,80,
2104076,000001A1,false,Rx,0,8,B1,05,5C,0F,E5,8C,80,20,
2104475,000001C7,false,Rx,0,4,AA,A0,FF,C0,00,00,00,00,
2109080,0000019F,false,Rx,0,8,E1,E1,7D,09,00,6A,50,FE,
2109652,00000155,false,Rx,0,8,46,87,C5,54,96,50,02,C2,
2113131,00000157,false,Rx,0,8,D5,FB,09,C4,FF,E0,00,80,
2114077,000001A1,false,Rx,0,8,B0,C5,5C,0F,E5,8C,80,20,
2114475,000001C7,false,Rx,0,4,AA,A0,FF,C0,00,00,00,00,
2119080,0000019F,false,Rx,0,8,E1,E1,7D,0E,00,6A,50,FE,
2119651,00000155,false,Rx,0,8,46,87,C6,54,96,50,02,C2,
2123234,00000157,false,Rx,0,8,D5,4B,09,C4,FF,E0,00,80,
2124079,000001A1,false,Rx,0,8,B1,05,70,0F,E5,8C,80,20,
2124479,000001C7,false,Rx,0,4,AA,A0,FF,C0,00,00,00,00,
2129081,0000019F,false,Rx,0,8,E1,E1,7D,03,00,6A,50,FE,
2129376,00000511,false,Rx,0,7,00,AE,5D,C9,9F,0F,21,00,
2129676,00000155,false,Rx,0,8,46,87,C5,54,96,50,02,C2,
2133181,00000157,false,Rx,0,8,D5,9B,09,C4,FF,E0,00,80,
2133376,00000500,false,Rx,0,5,02,0E,3A,2B,ED,00,00,00,
2134076,000001A1,false,Rx,0,8,B1,05,70,0F,E5,8C,80,20,
2134500,000001C7,false,Rx,0,4,AA,A0,FF,C0,00,00,00,00,
2139079,0000019F,false,Rx,0,8,E1,E1,7D,08,00,6A,50,FE,
2139602,00000155,false,Rx,0,8,46,87,C4,54,96,50,02,C2,
2143230,00000157,false,Rx,0,8,D5,EB,09,C4,FF,E0,00,80,
2144077,000001A1,false,Rx,0,8,B0,C5,5C,0F,E5,8C,80,20,
2144575,000004F7,false,Rx,0,8,00,1A,08,00,90,2C,06,F0,
2144750,000001C7,false,Rx,0,4,AA,A0,FF,C0,00,00,00,00,
2145000,00000428,false,Rx,0,8,00,00,00,7F,00,00,00,00,
2145174,0000042F,false,Rx,0,2,00,20,00,00,00,00,00,00,
2149080,0000019F,false,Rx,0,8,E1,E1,7D,0D,00,6A,50,FE,
2149577,00000155,false,Rx,0,8,46,87,C5,54,96,50,02,C1,
2150026,00000445,false,Rx,0,7,80,55,AA,65,04,82,00,00,
2153205,00000157,false,Rx,0,8,D5,3B,09,C4,FF,E0,00,80,
2154079,000001A1,false,Rx,0,8,B1,05,70,0F,E5,8C,80,20,
2154503,000001C7,false,Rx,0,4,AA,A0,FF,C0,00,00,00,00,
2158106,00000423,false,Rx,0,8,0B,1D,00,02,5D,80,B2,D8,
2159080,0000019F,false,Rx,0,8,E1,E1,7D,02,00,6A,50,FE,
2159629,00000155,false,Rx,0,8,46,87,C5,54,96,50,02,C2,
2159869,00000424,false,Rx,0,8,11,40,56,C8,33,5E,55,34,
2160067,00000425,false,Rx,0,8,2A,BA,44,9C,42,18,CD,0B,
2163206,00000157,false,Rx,0,8,D5,8B,09,C4,FF,E0,00,80,
2163425,00000426,false,Rx,0,8,00,60,01,00,53,18,00,40,
2164077,000001A1,false,Rx,0,8,B1,05,5C,0F,E5,8C,80,20,
2164502,000001C7,false,Rx,0,4,AA,A0,FF,C0,00,00,00,00,
2169083,0000019F,false,Rx,0,8,E1,E1,7D,07,00,6A,50,FE,
2169577,00000155,false,Rx,0,8,46,87,C5,54,96,50,02,C2,
2173207,00000157,false,Rx,0,8,D5,DB,09,C4,FF,E0,00,80,
2174091,000001A1,false,Rx,0,8,B0,C5,70,0F,E5,8C,80,20,
2174503,000001C7,false,Rx,0,4,AA,A0,FF,C0,00,00,00,00,
2178082,00000435,false,Rx,0,8,FF,FF,1E,0B,2E,10,00,00,
2179079,0000019F,false,Rx,0,8,E1,E1,7D,0C,00,6A,50,FE,
2179354,00000419,false,Rx,0,6,5E,22,32,E6,44,00,00,00,
2179604,00000155,false,Rx,0,8,46,87,C5,54,96,50,02,C2,
2183134,00000157,false,Rx,0,8,D5,2B,09,C4,FF,E0,00,80,
2183328,00000436,false,Rx,0,6,86,16,64,3E,FF,DC,00,00,
2184079,000001A1,false,Rx,0,8,B1,05,5C,0F,E5,8C,80,20,
2184477,000001C7,false,Rx,0,4,AA,A0,FF,C0,00,00,00,00,
2189082,0000019F,false,Rx,0,8,E1,E1,7D,01,00,6A,50,FE,
2189582,00000155,false,Rx,0,8,46,87,C5,54,96,50,02,C2,
2193185,00000157,false,Rx,0,8,D5,7B,09,C4,FF,E0,00,80,
2194078,000001A1,false,Rx,0,8,B1,05,5C,0F,E5,8C,80,20,
2194501,000001C7,false,Rx,0,4,AA,A0,FF,C0,00,00,00,00,
2199081,0000019F,false,Rx,0,8,E1,E1,7D,06,00,6A,50,FE,
2199676,00000155,false,Rx,0,8,46,87,C4,54,96,50,02,C2,
2203130,00000157,false,Rx,0,8,D5,CB,09,C4,FF,E0,00,80,
2204076,000001A1,false,Rx,0,8,B0,C5,70,0F,E5,8C,80,20,
2204501,000001C7,false,Rx,0,4,AA,A0,FF,C0,00,00,00,00,
2209083,0000019F,false,Rx,0,8,E1,E1,7D,0B,00,6A,50,FE,
2209606,00000155,false,Rx,0,8,46,87,C4,54,96,50,02,C2,
2213156,00000157,false,Rx,0,8,D5,1B,09,C4,FF,E0,00,80,
2214095,000001A1,false,Rx,0,8,B1,05,70,0F,E5,8C,80,20,
2214505,000001C7,false,Rx,0,4,AA,A0,FF,C0,00,00,00,00,
2219082,0000019F,false,Rx,0,8,E1,E1,7D,00,00,6A,50,FE,
2219628,00000155,false,Rx,0,8,46,87,C5,54,96,50,02,C2,
2223132,00000157,false,Rx,0,8,D5,6B,09,C4,FF,E0,00,80,
2224079,000001A1,false,Rx,0,8,B1,05,70,0F,E5,8C,80,20,
2224503,000001C7,false,Rx,0,4,AA,A0,FF,C0,00,00,00,00,
2229082,0000019F,false,Rx,0,8,E1,E1,7D,05,00,6A,50,FE,
2229377,00000511,false,Rx,0,7,00,ED,26,82,0A,1C,04,00,
2229657,00000155,false,Rx,0,8,46,87,C5,54,96,50,02,C2,
2232960,00000500,false,Rx,0,5,02,72,C7,2A,23,00,00,00,
2233178,00000157,false,Rx,0,8,D5,BB,09,C4,FF,E0,00,80,
2234078,000001A1,false,Rx,0,8,B0,C5,70,0F,E5,8C,80,20,
2234503,000001C7,false,Rx,0,4,AA,A0,FF,C0,00,00,00,00,
2239084,0000019F,false,Rx,0,8,E1,E1,7D,0A,00,6A,50,FE,
2239657,00000155,false,Rx,0,8,46,87,C5,54,96,50,02,C2,
2243209,00000157,false,Rx,0,8,D5,0B,09,C4,FF,E0,00,80,
2244080,000001A1,false,Rx,0,8,B0,C5,5C,0F,E5,8C,80,20,
2244602,000004F7,false,Rx,0,8,00,1A,08,00,90,2C,06,F0,
2244784,000001C7,false,Rx,0,4,AA,A0,FF,C0,00,00,00,00,
2245052,00000428,false,Rx,0,8,00,00,00,7F,00,00,00,00,
2245176,0000042F,false,Rx,0,2,00,20,00,00,00,00,00,00,
2249084,0000019F,false,Rx,0,8,E1,E1,7D,0F,00,6A,50,FE,
2249576,00000155,false,Rx,0,8,46,87,C5,54,96,50,02,C2,
2250001,00000445,false,Rx,0,7,80,55,AA,65,04,82,00,00,
2253132,00000157,false,Rx,0,8,D5,5B,09,C4,FF,E0,00,80,
2254079,000001A1,false,Rx,0,8,B0,C5,70,0F,E5,8C,80,20,
2254531,000001C7,false,Rx,0,4,AA,A0,FF,C0,00,00,00,00,
2258156,00000423,false,Rx,0,8,0B,1D,00,02,B2,80,5D,D8,
2259099,0000019F,false,Rx,0,8,E1,E1,7D,04,00,6A,50,FE,
2259599,00000155,false,Rx,0,8,46,87,C5,54,96,50,02,C2,
2259868,00000424,false,Rx,0,8,11,40,56,C8,33,5E,55,34,
2260067,00000425,false,Rx,0,8,2A,BA,44,9C,42,18,CD,0B,
2263250,00000157,false,Rx,0,8,D5,AB,09,C4,FF,E0,00,80,
2263449,00000426,false,Rx,0,8,00,60,01,00,53,18,00,40,
2264074,000001A1,false,Rx,0,8,B0,C5,70,0F,E5,8C,80,20,
2264526,000001C7,false,Rx,0,4,AA,A0,FF,C0,00,00,00,00,
2269078,0000019F,false,Rx,0,8,E1,E1,7D,09,00,6A,50,FE,
2269575,00000155,false,Rx,0,8,46,87,C4,54,96,50,02,C2,
2273154,00000157,false,Rx,0,8,D5,FB,09,C4,FF,E0,00,80,
2274076,000001A1,false,Rx,0,8,B1,05,70,0F,E5,8C,80,20,
2274526,000001C7,false,Rx,0,4,AA,A0,FF,C0,00,00,00,00,
2278076,00000435,false,Rx,0,8,FF,FF,1E,0B,2E,10,00,00,
2279095,0000019F,false,Rx,0,8,E1,E1,7D,0E,00,6A,50,FE,
2279349,00000419,false,Rx,0,6,5E,22,32,E6,44,00,00,00,
2279599,00000155,false,Rx,0,8,46,87,C5,54,96,50,02,C2,
2283181,00000157,false,Rx,0,8,D5,4B,09,C4,FF,E0,00,80,
2283397,00000436,false,Rx,0,6,86,16,64,3E,FF,DC,00,00,
2284076,000001A1,false,Rx,0,8,B0,C5,70,0F,E5,8C,80,20,
2284550,000001C7,false,Rx,0,4,AA,A0,FF,C0,00,00,00,00,
2289078,0000019F,false,Rx,0,8,E1,E1,7D,03,00,6A,50,FE,
2289574,00000155,false,Rx,0,8,46,87,C5,54,96,50,02,C2,
2293157,00000157,false,Rx,0,8,D5,9B,09,C4,FF,E0,00,80,
2294107,000001A1,false,Rx,0,8,B0,C5,70,0F,E5,8C,80,20,
2294557,000001C7,false,Rx,0,4,AA,A0,FF,C0,00,00,00,00,
2299109,0000019F,false,Rx,0,8,E1,E1,7D,08,00,6A,50,FE,
2299670,00000155,false,Rx,0,8,46,87,C5,54,96,50,02,C2,
2303355,00000157,false,Rx,0,8,D5,EB,09,C4,FF,E0,00,80,
2304208,000001A1,false,Rx,0,8,B1,05,5C,0F,E5,8C,80,20,
2304611,000001C7,false,Rx,0,4,AA,A0,FF,C0,00,00,00,00,
2309209,0000019F,false,Rx,0,8,E1,E1,7D,0D,00,6A,50,FE,
2309694,00000155,false,Rx,0,8,46,87,C5,54,96,50,02,C2,
2313185,00000157,false,Rx,0,8,D5,3B,09,C4,FF,E0,00,80,
2314213,000001A1,false,Rx,0,8,B0,C5,70,0F,E5,8C,80,20,
2314593,000001C7,false,Rx,0,4,AA,A0,FF,C0,00,00,00,00,
2319261,0000019F,false,Rx,0,8,E1,E1,7D,02,00,6A,50,FE,
2319866,00000155,false,Rx,0,8,46,87,C5,54,96,50,02,C1,
2323420,00000157,false,Rx,0,8,D5,8B,09,C4,FF,E0,00,80,
2324180,000001A1,false,Rx,0,8,B0,C5,5C,0F,E5,8C,80,20,
2324690,000001C7,false,Rx,0,4,AA,A0,FF,C0,00,00,00,00,
2329298,0000019F,false,Rx,0,8,E1,E1,7D,07,00,6A,50,FE,
2329358,00000511,false,Rx,0,7,00,2C,EF,3B,75,29,E7,00,
2329731,00000155,false,Rx,0,8,46,87,C4,54,96,50,02,C2,
2333197,00000500,false,Rx,0,5,02,C1,96,E2,39,00,00,00,
2333208,00000157,false,Rx,0,8,D5,DB,09,C4,FF,E0,00,80,
2334203,000001A1,false,Rx,0,8,B1,05,70,0F,E5,8C,80,20,
2334642,000001C7,false,Rx,0,4,AA,A0,FF,C0,00,00,00,00,
2339242,0000019F,false,Rx,0,8,E1,E1,7D,0C,00,6A,50,FE,
2339695,00000155,false,Rx,0,8,46,87,C4,54,96,50,02,C2,
2343399,00000157,false,Rx,0,8,D5,2B,09,C4,FF,E0,00,80,
2344158,000001A1,false,Rx,0,8,B1,05,70,0F,E5,8C,80,20,
2344819,000004F7,false,Rx,0,8,00,1A,08,00,90,2C,06,F0,
2344973,000001C7,false,Rx,0,4,AA,A0,FF,C0,00,00,00,00,
2345180,00000428,false,Rx,0,8,00,00,00,7F,00,00,00,00,
2345332,0000042F,false,Rx,0,2,00,20,00,00,00,00,00,00,
2349348,0000019F,false,Rx,0,8,E1,E1,7D,01,00,6A,50,FE,
2349635,00000155,false,Rx,0,8,46,87,C5,54,96,50,02,C1,
2350299,00000445,false,Rx,0,7,80,55,55,65,04,82,00,00,
2353245,00000157,false,Rx,0,8,D5,7B,09,C4,FF,E0,00,80,
2354351,000001A1,false,Rx,0,8,B0,C5,70,0F,E5,8C,80,20,
2354667,000001C7,false,Rx,0,4,AA,A0,FF,C0,00,00,00,00,
2358418,00000423,false,Rx,0,8,0B,1D,00,02,B2,80,5D,D8,
2359341,0000019F,false,Rx,0,8,E1,E1,7D,06,00,6A,50,FE,
2359683,00000155,false,Rx,0,8,46,87,C5,54,96,50,02,C2,
2359967,00000424,false,Rx,0,8,11,40,56,C8,33,5E,AA,34,
2360112,00000425,false,Rx,0,8,2A,BA,44,9C,42,1A,CD,0B,
2363347,00000157,false,Rx,0,8,D5,CB,09,C4,FF,E0,00,80,
2363495,00000426,false,Rx,0,8,00,60,01,00,53,18,00,40,
2364245,000001A1,false,Rx,0,8,B1,05,5C,0F,E5,8C,80,20,
2364713,000001C7,false,Rx,0,4,AA,A0,FF,C0,00,00,00,00,
2369347,0000019F,false,Rx,0,8,E1,E1,7D,0B,00,6A,50,FE,
2369628,00000155,false,Rx,0,8,46,87,C5,54,96,50,02,C2,
2373377,00000157,false,Rx,0,8,D5,1B,09,C4,FF,E0,00,80,
2374252,000001A1,false,Rx,0,8,B1,05,5C,0F,E5,8C,80,20,
2374623,000001C7,false,Rx,0,4,AA,A0,FF,C0,00,00,00,00,
2378190,00000435,false,Rx,0,8,FF,FF,1E,0B,2E,10,00,00,
2379162,0000019F,false,Rx,0,8,E1,E1,7D,00,00,6A,50,FE,
2379433,00000419,false,Rx,0,6,5E,22,32,E6,44,00,00,00,
2379697,00000155,false,Rx,0,8,46,87,C5,54,96,50,02,C2,
2383231,00000157,false,Rx,0,8,D5,6B,09,C4,FF,E0,00,80,
2383405,00000436,false,Rx,0,6,86,16,64,3E,FF,DC,00,00,
2384174,000001A1,false,Rx,0,8,B0,C5,70,0F,E5,8C,80,20,
2384756,000001C7,false,Rx,0,4,AA,A0,FF,C0,00,00,00,00,
2389356,0000019F,false,Rx,0,8,E1,E1,7D,05,00,6A,50,FE,
2389671,00000155,false,Rx,0,8,46,87,C4,54,96,50,02,C1,
2393427,00000157,false,Rx,0,8,D5,BB,09,C4,FF,E0,00,80,
2394346,000001A1,false,Rx,0,8,B1,05,5C,0F,E5,8C,80,20,
2394681,000001C7,false,Rx,0,4,AA,A0,FF,C0,00,00,00,00,
2399352,0000019F,false,Rx,0,8,E1,E1,7D,0A,00,6A,50,FE,
2399737,00000155,false,Rx,0,8,46,87,C4,54,96,50,02,C2,
2403403,00000157,false,Rx,0,8,D5,0B,09,C4,FF,E0,00,80,
2404175,000001A1,false,Rx,0,8,B1,05,70,0F,E5,8C,80,20,
2404719,000001C7,false,Rx,0,4,AA,A0,FF,C0,00,00,00,00,
2409176,0000019F,false,Rx,0,8,E1,E1,7D,0F,00,6A,50,FE,
2409710,00000155,false,Rx,0,8,46,87,C5,54,96,50,02,C1,
2413168,00000157,false,Rx,0,8,D5,5B,09,C4,FF,E0,00,80,
2414133,000001A1,false,Rx,0,8,B0,C5,70,0F,E5,8C,80,20,
2414660,000001C7,false,Rx,0,4,AA,A0,FF,C0,00,00,00,00,
2419137,0000019F,false,Rx,0,8,E1,E1,7D,04,00,6A,50,FE,
2419659,00000155,false,Rx,0,8,46,87,C5,54,96,50,02,C2,
2423184,00000157,false,Rx,0,8,D5,AB,09,C4,FF,E0,00,80,
2424132,000001A1,false,Rx,0,8,B0,C5,70,0F,E5,8C,80,20,
2424661,000001C7,false,Rx,0,4,AA,A0,FF,C0,00,00,00,00,
2429136,0000019F,false,Rx,0,8,E1,E1,7D,09,00,6A,50,FE,
2429440,00000511,false,Rx,0,7,00,6B,B8,F4,E0,36,CA,00,
2429668,00000155,false,Rx,0,8,46,87,C5,54,96,50,02,C2,
2433210,00000157,false,Rx,0,8,D5,FB,09,C4,FF,E0,00,80,
2433354,00000500,false,Rx,0,5,02,3A,73,7A,9C,00,00,00,
2434133,000001A1,false,Rx,0,8,B1,05,5C,0F,E5,8C,80,20,
2434688,000001C7,false,Rx,0,4,AA,A0,FF,C0,00,00,00,00,
2439136,0000019F,false,Rx,0,8,E1,E1,7D,0E,00,6A,50,FE,
2439685,00000155,false,Rx,0,8,46,87,C5,54,96,50,02,C2,
2443184,00000157,false,Rx,0,8,D5,4B,09,C4,FF,E0,00,80,
2444135,000001A1,false,Rx,0,8,B0,C5,70,0F,E5,8C,80,20,
2444761,000004F7,false,Rx,0,8,00,1A,08,00,90,2C,06,F0,
2444958,000001C7,false,Rx,0,4,AA,A0,FF,C0,00,00,00,00,
2445236,00000428,false,Rx,0,8,00,00,00,7F,00,00,00,00,
2445315,0000042F,false,Rx,0,2,00,20,00,00,00,00,00,00,
2449134,0000019F,false,Rx,0,8,E1,E1,7D,03,00,6A,50,FE,
2449636,00000155,false,Rx,0,8,46,87,C5,54,96,50,02,C1,
2450058,00000445,false,Rx,0,7,80,55,55,65,04,82,00,00,
2453209,00000157,false,Rx,0,8,D5,9B,09,C4,FF,E0,00,80,
2454133,000001A1,false,Rx,0,8,B0,C5,70,0F,E5,8C,80,20,
2454687,000001C7,false,Rx,0,4,AA,A0,FF,C0,00,00,00,00,
2458133,00000423,false,Rx,0,8,0B,1D,00,02,B2,80,5D,D8,
2459137,0000019F,false,Rx,0,8,E1,E1,7D,08,00,6A,50,FE,
2459660,00000155,false,Rx,0,8,46,87,C4,54,96,50,02,C2,
2459927,00000424,false,Rx,0,8,11,40,56,C8,33,5E,AA,34,
2460109,00000425,false,Rx,0,8,2A,BA,44,9C,42,1A,CD,0B,
2463186,00000157,false,Rx,0,8,D5,EB,09,C4,FF,E0,00,80,
2463438,00000426,false,Rx,0,8,00,60,01,00,53,18,00,40,
2464135,000001A1,false,Rx,0,8,B1,05,70,0F,E5,8C,80,20,
2464686,000001C7,false,Rx,0,4,AA,A0,FF,C0,00,00,00,00,
2469091,0000019F,false,Rx,0,8,E1,E1,7D,0D,00,6A,50,FE,
2469582,00000155,false,Rx,0,8,46,87,C5,54,96,50,02,C2,
2473108,00000157,false,Rx,0,8,D5,3B,09,C4,FF,E0,00,80,
2474108,000001A1,false,Rx,0,8,B0,C5,70,0F,E5,8C,80,20,
2474653,000001C7,false,Rx,0,4,AA,A0,FF,C0,00,00,00,00,
2478113,00000435,false,Rx,0,8,FF,FF,1E,0B,2E,10,00,00,
2479125,0000019F,false,Rx,0,8,E1,E1,7D,02,00,6A,50,FE,
2479401,00000419,false,Rx,0,6,5E,22,32,E6,44,00,00,00,
2479648,00000155,false,Rx,0,8,46,87,C5,54,96,50,02,C2,
2483175,00000157,false,Rx,0,8,D5,8B,09,C4,FF,E0,00,80,
2483372,00000436,false,Rx,0,6,86,16,64,3E,FF,DC,00,00,
2484134,000001A1,false,Rx,0,8,B0,C5,70,0F,E5,8C,80,20,
2484668,000001C7,false,Rx,0,4,AA,A0,FF,C0,00,00,00,00,
2489100,0000019F,false,Rx,0,8,E1,E1,7D,07,00,6A,50,FE,
2489644,00000155,false,Rx,0,8,46,87,C5,54,96,50,02,C2,
2493139,00000157,false,Rx,0,8,D5,DB,09,C4,FF,E0,00,80,
2494134,000001A1,false,Rx,0,8,B1,05,70,0F,E5,8C,80,20,
2494714,000001C7,false,Rx,0,4,AA,A0,FF,C0,00,00,00,00,
2499126,0000019F,false,Rx,0,8,E1,E1,7D,0C,00,6A,50,FE,
2499824,00000155,false,Rx,0,8,46,87,C6,54,96,50,02,C2,
2503186,00000157,false,Rx,0,8,D5,2B,09,C4,FF,E0,00,80,
2504134,000001A1,false,Rx,0,8,B0,C5,70,0F,E5,8C,80,20,
2504715,000001C7,false,Rx,0,4,AA,A0,FF,C0,00,00,00,00,
2509137,0000019F,false,Rx,0,8,E1,E1,7D,01,00,6A,50,FE,
2509702,00000155,false,Rx,0,8,46,87,C5,54,96,50,02,C1,
2513167,00000157,false,Rx,0,8,D5,7B,09,C4,FF,E0,00,80,
2514088,000001A1,false,Rx,0,8,B0,C5,70,0F,E5,8C,80,20,
2514662,000001C7,false,Rx,0,4,AA,A0,FF,C0,00,00,00,00,
2519127,0000019F,false,Rx,0,8,E1,E1,7D,06,00,6A,50,FE,
2519645,00000155,false,Rx,0,8,46,87,C4,54,96,50,02,C2,
2523124,00000157,false,Rx,0,8,D5,CB,09,C4,FF,E0,00,80,
2524093,000001A1,false,Rx,0,8,B0,C5,70,0F,E5,8C,80,20,
2524677,000001C7,false,Rx,0,4,AA,A0,FF,C0,00,00,00,00,
2529099,0000019F,false,Rx,0,8,E1,E1,7D,0B,00,6A,50,FE,
2529430,00000511,false,Rx,0,7,00,AA,81,AD,4B,43,AD,00,
2529683,00000155,false,Rx,0,8,46,87,C5,54,96,50,02,C2,
2533109,00000500,false,Rx,0,5,02,B5,58,13,E8,00,00,00,
2533332,00000157,false,Rx,0,8,D5,1B,09,C4,FF,E0,00,80,
2534134,000001A1,false,Rx,0,8,B0,C5,70,0F,E5,8C,80,20,
2534705,000001C7,false,Rx,0,4,AA,A0,FF,C0,00,00,00,00,
2539119,0000019F,false,Rx,0,8,E1,E1,7D,00,00,6A,50,FE,
2539640,00000155,false,Rx,0,8,46,87,C5,54,96,50,02,C2,
2543239,00000157,false,Rx,0,8,D5,6B,09,C4,FF,E0,00,80,
2544114,000001A1,false,Rx,0,8,B1,05,70,0F,E5,8C,80,20,
2544792,000004F7,false,Rx,0,8,00,1A,08,00,90,2C,06,F0,
2544939,000001C7,false,Rx,0,4,AA,A0,FF,C0,00,00,00,00,
2545216,00000428,false,Rx,0,8,00,00,00,7F,00,00,00,00,
2545364,0000042F,false,Rx,0,2,00,20,00,00,00,00,00,00,
2549251,0000019F,false,Rx,0,8,E1,E1,7D,05,00,6A,50,FE,
2549621,00000155,false,Rx,0,8,46,87,C5,54,96,50,02,C1,
2550245,00000445,false,Rx,0,7,80,55,55,65,04,82,00,00,
2553376,00000157,false,Rx,0,8,D5,BB,09,C4,FF,E0,00,80,
2554152,000001A1,false,Rx,0,8,B0,C5,70,0F,E5,8C,80,20,
2554700,000001C7,false,Rx,0,4,AA,A0,FF,C0,00,00,00,00,
2558224,00000423,false,Rx,0,8,0B,1D,00,02,B2,80,5D,D8,
2559125,0000019F,false,Rx,0,8,E1,E1,7D,0A,00,6A,50,FE,
2559771,00000155,false,Rx,0,8,46,87,C5,54,96,50,02,C2,
2559826,00000424,false,Rx,0,8,11,40,56,C8,33,5E,AA,34,
2560142,00000425,false,Rx,0,8,2A,BA,44,9C,42,1A,CD,0B,
2563110,00000157,false,Rx,0,8,D5,0B,09,C4,FF,E0,00,80,
2563395,00000426,false,Rx,0,8,00,60,01,00,53,18,00,40,
2564137,000001A1,false,Rx,0,8,B0,C5,70,0F,E5,8C,80,20,
2564705,000001C7,false,Rx,0,4,AA,A0,FF,C0,00,00,00,00,
2569251,0000019F,false,Rx,0,8,E1,E1,7D,0F,00,6A,50,FE,
2569702,00000155,false,Rx,0,8,46,87,C5,54,96,50,02,C2,
2573189,00000157,false,Rx,0,8,D5,5B,09,C4,FF,E0,00,80,
2574350,000001A1,false,Rx,0,8,B1,05,70,0F,E5,8C,80,20,
2574899,000001C7,false,Rx,0,4,AA,A0,FF,C0,00,00,00,00,
2578252,00000435,false,Rx,0,8,FF,FF,1E,0B,2E,10,00,00,
2579246,0000019F,false,Rx,0,8,E1,E1,7D,04,00,6A,50,FE,
2579387,00000419,false,Rx,0,6,5E,22,32,E6,44,00,00,00,
2579683,00000155,false,Rx,0,8,46,87,C4,54,96,50,02,C2,
2583372,00000157,false,Rx,0,8,D5,AB,09,C4,FF,E0,00,80,
2583378,00000436,false,Rx,0,6,86,16,64,3E,FF,DC,00,00,
2584248,000001A1,false,Rx,0,8,B1,05,70,0F,E5,8C,80,20,
2584816,000001C7,false,Rx,0,4,AA,A0,FF,C0,00,00,00,00,
2589360,0000019F,false,Rx,0,8,E1,E1,7D,09,00,6A,50,FE,
2589633,00000155,false,Rx,0,8,46,87,C4,54,96,50,02,C2,
2593478,00000157,false,Rx,0,8,D5,FB,09,C4,FF,E0,00,80,
2594248,000001A1,false,Rx,0,8,B0,C5,70,0F,E5,8C,80,20,
2594775,000001C7,false,Rx,0,4,AA,A0,FF,C0,00,00,00,00,
2599142,0000019F,false,Rx,0,8,E1,E1,7D,0E,00,6A,50,FE,
2599759,00000155,false,Rx,0,8,46,87,C5,54,96,50,02,C2,
2603319,00000157,false,Rx,0,8,D5,4B,09,C4,FF,E0,00,80,
2604347,000001A1,false,Rx,0,8,B1,05,70,0F,E5,8C,80,20,
2604929,000001C7,false,Rx,0,4,AA,A0,FF,C0,00,00,00,00,
2609349,0000019F,false,Rx,0,8,E1,E1,7D,03,00,6A,50,FE,
2609656,00000155,false,Rx,0,8,46,87,C5,54,96,50,02,C2,
2613473,00000157,false,Rx,0,8,D5,9B,09,C4,FF,E0,00,80,
2614182,000001A1,false,Rx,0,8,B1,05,70,0F,E5,8C,80,20,
2614951,000001C7,false,Rx,0,4,AA,A0,FF,C0,00,00,00,00,
2619351,0000019F,false,Rx,0,8,E1,E1,7D,08,00,6A,50,FE,
2619686,00000155,false,Rx,0,8,46,87,C5,54,96,50,02,C2,
2623459,00000157,false,Rx,0,8,D5,EB,09,C4,FF,E0,00,80,
2624348,000001A1,false,Rx,0,8,B0,85,70,0F,E5,8C,80,20,
2624811,000001C7,false,Rx,0,4,AA,A0,FF,C0,00,00,00,00,
2629158,0000019F,false,Rx,0,8,E1,E1,7D,0D,00,6A,50,FE,
2629440,00000511,false,Rx,0,7,00,E9,4A,66,B6,50,90,00,
2629722,00000155,false,Rx,0,8,46,87,C5,54,96,50,02,C2,
2633354,00000500,false,Rx,0,5,02,E2,B0,F7,44,00,00,00,
2633364,00000157,false,Rx,0,8,D5,3B,09,C4,FF,E0,00,80,
2634302,000001A1,false,Rx,0,8,B0,C5,70,0F,E5,8C,80,20,
2634938,000001C7,false,Rx,0,4,AA,A0,FF,C0,00,00,00,00,
2639349,0000019F,false,Rx,0,8,E1,E1,7D,02,00,6A,50,FE,
2639707,00000155,false,Rx,0,8,46,87,C4,54,96,50,02,C2,
2643374,00000157,false,Rx,0,8,D5,8B,09,C4,FF,E0,00,80,
2644346,000001A1,false,Rx,0,8,B1,05,70,0F,E5,8C,80,20,
2645005,000004F7,false,Rx,0,8,00,1A,08,00,90,2C,06,F0,
2645014,000001C7,false,Rx,0,4,AA,A0,FF,C0,00,00,00,00,
2645323,00000428,false,Rx,0,8,00,00,00,7F,00,00,00,00,
2645476,0000042F,false,Rx,0,2,00,20,00,00,00,00,00,00,
2649219,0000019F,false,Rx,0,8,E1,E1,7D,07,00,6A,50,FE,
2649740,00000155,false,Rx,0,8,46,87,C4,54,96,50,02,C2,
2650051,00000445,false,Rx,0,7,80,55,55,65,04,82,00,00,
2653461,00000157,false,Rx,0,8,D5,DB,09,C4,FF,E0,00,80,
2654350,000001A1,false,Rx,0,8,B0,C5,70,0F,E5,8C,80,20,
2654821,000001C7,false,Rx,0,4,AA,A0,FF,C0,00,00,00,00,
2658243,00000423,false,Rx,0,8,0B,1D,00,02,B2,80,5D,D8,
2659280,0000019F,false,Rx,0,8,E1,E1,7D,0C,00,6A,50,FE,
2659619,00000155,false,Rx,0,8,46,87,C5,54,96,50,02,C2,
2659841,00000424,false,Rx,0,8,11,40,56,C8,33,5E,AA,34,
2660074,00000425,false,Rx,0,8,2A,BA,44,9C,42,1A,CD,0B,
2663139,00000157,false,Rx,0,8,D5,2B,09,C4,FF,E0,00,80,
2663376,00000426,false,Rx,0,8,00,60,01,00,53,18,00,40,
2664124,000001A1,false,Rx,0,8,B0,C5,70,0F,E5,8C,80,20,
2664751,000001C7,false,Rx,0,4,AA,A0,FF,C0,00,00,00,00,
2669100,0000019F,false,Rx,0,8,E1,E1,7D,01,00,6A,50,FE,
2669575,00000155,false,Rx,0,8,46,87,C5,54,96,50,02,C2,
2673124,00000157,false,Rx,0,8,D5,7B,09,C4,FF,E0,00,80,
2674097,000001A1,false,Rx,0,8,B1,05,70,0F,E5,8C,80,20,
2674778,000001C7,false,Rx,0,4,AA,A0,FF,C0,00,00,00,00,
2678149,00000435,false,Rx,0,8,FF,FF,1E,0B,2E,10,00,00,
2679123,0000019F,false,Rx,0,8,E1,E1,7D,06,00,6A,50,FE,
2679375,00000419,false,Rx,0,6,5E,22,32,E6,44,00,00,00,
2679628,00000155,false,Rx,0,8,46,87,C5,54,96,50,02,C2,
2683127,00000157,false,Rx,0,8,D5,CB,09,C4,FF,E0,00,80,
2683326,00000436,false,Rx,0,6,86,16,64,3E,FF,DC,00,00,
2684098,000001A1,false,Rx,0,8,B0,C5,5C,0F,E5,8C,80,20,
2684776,000001C7,false,Rx,0,4,AA,A0,FF,C0,00,00,00,00,
2689100,0000019F,false,Rx,0,8,E1,E1,7D,0B,00,6A,50,FE,
2689600,00000155,false,Rx,0,8,46,87,C5,54,96,50,02,C2,
2693200,00000157,false,Rx,0,8,D5,1B,09,C4,FF,E0,00,80,
2694099,000001A1,false,Rx,0,8,B0,C5,70,0F,E5,8C,80,20,
2694776,000001C7,false,Rx,0,4,AA,A0,FF,C0,00,00,00,00,
2699124,0000019F,false,Rx,0,8,E1,E1,7D,00,00,6A,50,FE,
2699651,00000155,false,Rx,0,8,46,87,C5,54,96,50,02,C2,
2703124,00000157,false,Rx,0,8,D5,6B,09,C4,FF,E0,00,80,
2704098,000001A1,false,Rx,0,8,B1,05,5C,0F,E5,8C,80,20,
2704776,000001C7,false,Rx,0,4,AA,A0,FF,C0,00,00,00,00,
2709100,0000019F,false,Rx,0,8,E1,E1,7D,05,00,6A,50,FE,
2709654,00000155,false,Rx,0,8,46,87,C4,54,96,50,02,C2,
2713149,00000157,false,Rx,0,8,D5,BB,09,C4,FF,E0,00,80,
2714088,000001A1,false,Rx,0,8,B0,C5,70,0F,E5,8C,80,20,
2714785,000001C7,false,Rx,0,4,AA,A0,FF,C0,00,00,00,00,
2719088,0000019F,false,Rx,0,8,E1,E1,7D,0A,00,6A,50,FE,
2719635,00000155,false,Rx,0,8,46,87,C5,54,96,50,02,C2,
2723204,00000157,false,Rx,0,8,D5,0B,09,C4,FF,E0,00,80,
2724103,000001A1,false,Rx,0,8,B0,C5,70,0F,E5,8C,80,20,
2724807,000001C7,false,Rx,0,4,AA,A0,FF,C0,00,00,00,00,
2729104,0000019F,false,Rx,0,8,E1,E1,7D,0F,00,6A,50,FE,
2729395,00000511,false,Rx,0,7,00,28,13,1F,21,5D,73,00,
2729674,00000155,false,Rx,0,8,46,87,C5,54,96,50,02,C2,
2733201,00000157,false,Rx,0,8,D5,5B,09,C4,FF,E0,00,80,
2734124,000001A1,false,Rx,0,8,B0,C5,70,0F,E5,8C,80,20,
2734476,00000500,false,Rx,0,5,02,97,2B,EA,BF,00,00,00,
2734804,000001C7,false,Rx,0,4,AA,A0,FF,C0,00,00,00,00,
2739100,0000019F,false,Rx,0,8,E1,E1,7D,04,00,6A,50,FE,
2739592,00000155,false,Rx,0,8,46,87,C5,54,96,50,02,C2,
2743118,00000157,false,Rx,0,8,D5,AB,09,C4,FF,E0,00,80,
2744089,000001A1,false,Rx,0,8,B0,C5,5C,0F,E5,8C,80,20,
2744893,000004F7,false,Rx,0,8,00,1A,08,00,90,2C,06,F0,
2745047,000001C7,false,Rx,0,4,AA,A0,FF,C0,00,00,00,00,
2745298,00000428,false,Rx,0,8,00,00,00,7F,00,00,00,00,
2745476,0000042F,false,Rx,0,2,00,20,00,00,00,00,00,00,
2749100,0000019F,false,Rx,0,8,E1,E1,7D,09,00,6A,50,FE,
2749576,00000155,false,Rx,0,8,46,87,C5,54,96,50,02,C2,
2749973,00000445,false,Rx,0,7,80,55,55,65,04,82,00,00,
2753150,00000157,false,Rx,0,8,D5,FB,09,C4,FF,E0,00,80,
2754099,000001A1,false,Rx,0,8,B1,05,5C,0F,E5,8C,80,20,
2754827,000001C7,false,Rx,0,4,AA,A0,FF,C0,00,00,00,00,
2758100,00000423,false,Rx,0,8,0B,1D,00,02,5D,80,B2,D8,
2759099,0000019F,false,Rx,0,8,E1,E1,7D,0E,00,6A,50,FE,
2759628,00000155,false,Rx,0,8,46,87,C5,54,96,50,02,C2,
2759890,00000424,false,Rx,0,8,11,40,56,C8,33,5E,AA,34,
2760072,00000425,false,Rx,0,8,2A,BA,44,9C,42,18,CD,0B,
2763150,00000157,false,Rx,0,8,D5,4B,09,C4,FF,E0,00,80,
2763376,00000426,false,Rx,0,8,00,60,01,00,53,18,00,40,
2764123,000001A1,false,Rx,0,8,B0,C5,70,0F,E5,8C,80,20,
2764826,000001C7,false,Rx,0,4,AA,A0,FF,C0,00,00,00,00,
2769112,0000019F,false,Rx,0,8,E1,E1,7D,03,00,6A,50,FE,
2769577,00000155,false,Rx,0,8,46,87,C4,54,96,50,02,C2,
2773151,00000157,false,Rx,0,8,D5,9B,09,C4,FF,E0,00,80,
2774100,000001A1,false,Rx,0,8,B0,C5,70,0F,E5,8C,80,20,
2774827,000001C7,false,Rx,0,4,AA,A0,FF,C0,00,00,00,00,
2778100,00000435,false,Rx,0,8,FF,FF,1E,0B,2E,10,00,00,
2779100,0000019F,false,Rx,0,8,E1,E1,7D,08,00,6A,50,FE,
2779401,00000419,false,Rx,0,6,5E,22,32,E6,44,00,00,00,
2779606,00000155,false,Rx,0,8,46,87,C5,54,96,50,02,C2,
2783171,00000157,false,Rx,0,8,D5,EB,09,C4,FF,E0,00,80,
2783375,00000436,false,Rx,0,6,86,16,64,3E,FF,DC,00,00,
2784119,000001A1,false,Rx,0,8,B1,05,5C,0F,E5,8C,80,20,
2784844,000001C7,false,Rx,0,4,AA,A0,FF,C0,00,00,00,00,
2789346,0000019F,false,Rx,0,8,E1,E1,7D,0D,00,6A,50,FE,
2789605,00000155,false,Rx,0,8,46,87,C5,54,96,50,02,C2,
2793381,00000157,false,Rx,0,8,D5,3B,09,C4,FF,E0,00,80,
2794249,000001A1,false,Rx,0,8,B0,C5,70,0F,E5,8C,80,20,
2794839,000001C7,false,Rx,0,4,AA,A0,FF,C0,00,00,00,00,
2799101,0000019F,false,Rx,0,8,E1,E1,7D,02,00,6A,50,FE,
2799714,00000155,false,Rx,0,8,46,87,C5,54,96,50,02,C2,
2803369,00000157,false,Rx,0,8,D5,8B,09,C4,FF,E0,00,80,
2804251,000001A1,false,Rx,0,8,B0,C5,5C,0F,F5,8C,80,20,
2805034,000001C7,false,Rx,0,4,AA,A0,FF,C0,00,00,00,00,
2809245,0000019F,false,Rx,0,8,E1,E1,7D,07,00,6A,50,FE,
2809629,00000155,false,Rx,0,8,46,87,C6,54,96,50,02,C2,
2813398,00000157,false,Rx,0,8,D5,DB,09,C4,FF,E0,00,80,
2814249,000001A1,false,Rx,0,8,B1,05,70,0F,E5,8C,80,20,
2814956,000001C7,false,Rx,0,4,AA,A0,FF,C0,00,00,00,00,
2819255,0000019F,false,Rx,0,8,E1,E1,7D,0C,00,6A,50,FE,
2819743,00000155,false,Rx,0,8,46,87,C5,54,96,50,02,C2,
2823401,00000157,false,Rx,0,8,D5,2B,09,C4,FF,E0,00,80,
2824251,000001A1,false,Rx,0,8,B0,C5,5C,0F,E5,8C,80,20,
2824899,000001C7,false,Rx,0,4,AA,A0,FF,C0,00,00,00,00,
2829357,0000019F,false,Rx,0,8,E1,E1,7D,01,00,6A,50,FE,
2829392,00000511,false,Rx,0,7,00,67,DC,D8,8C,6A,56,00,
2829666,00000155,false,Rx,0,8,46,87,C4,54,96,50,02,C2,
2833458,00000157,false,Rx,0,8,D5,7B,09,C4,FF,E0,00,80,
2833466,00000500,false,Rx,0,5,02,F8,BE,5B,B6,00,00,00,
2834269,000001A1,false,Rx,0,8,B0,C5,70,10,05,8C,80,20,
2835050,000001C7,false,Rx,0,4,AA,A0,FF,C0,00,00,00,00,
2839349,0000019F,false,Rx,0,8,E1,E1,7D,06,00,6A,50,FE,
2839703,00000155,false,Rx,0,8,46,87,C4,54,96,50,02,C2,
2843452,00000157,false,Rx,0,8,D5,CB,09,C4,FF,E0,00,80,
2844354,000001A1,false,Rx,0,8,B1,05,70,0F,E5,8C,80,20,
2845201,000004F7,false,Rx,0,8,00,1A,08,00,90,2C,06,F0,
2845210,000001C7,false,Rx,0,4,AA,A0,FF,C0,00,00,00,00,
2845415,00000428,false,Rx,0,8,00,00,00,7F,00,00,00,00,
2845596,0000042F,false,Rx,0,2,00,20,00,00,00,00,00,00,
2849356,0000019F,false,Rx,0,8,E1,E1,7D,0B,00,6A,50,FE,
2849612,00000155,false,Rx,0,8,46,87,C5,54,96,50,02,C2,
2850153,00000445,false,Rx,0,7,80,55,AA,65,04,82,00,00,
2853263,00000157,false,Rx,0,8,D5,1B,09,C4,FF,E0,00,80,
2853439,0000069F,false,Rx,0,4,71,30,28,2F,00,00,00,00,
2854131,000001A1,false,Rx,0,8,B0,C5,70,0F,E5,8C,80,20,
2854924,000001C7,false,Rx,0,4,AA,A0,FF,C0,00,00,00,00,
2858157,00000423,false,Rx,0,8,0B,1D,00,02,5D,80,B2,D8,
2859135,0000019F,false,Rx,0,8,E1,E1,7D,00,00,6A,50,FE,
2859633,00000155,false,Rx,0,8,46,87,C5,54,96,50,02,C2,
2859861,00000424,false,Rx,0,8,11,40,56,C8,33,5E,55,34,
2860085,00000425,false,Rx,0,8,2A,BA,44,9C,42,1A,CD,0B,
2863131,00000157,false,Rx,0,8,D5,6B,09,C4,FF,E0,00,80,
2863384,00000426,false,Rx,0,8,00,60,01,00,53,18,00,40,
2864131,000001A1,false,Rx,0,8,B1,05,70,10,05,8C,80,20,
2864925,000001C7,false,Rx,0,4,AA,A0,FF,C0,00,00,00,00,
2869133,0000019F,false,Rx,0,8,E1,E1,7D,05,00,6A,50,FE,
2869615,00000155,false,Rx,0,8,46,87,C5,54,96,50,02,C2,
2873181,00000157,false,Rx,0,8,D5,BB,09,C4,FF,E0,00,80,
2874130,000001A1,false,Rx,0,8,B0,C5,5C,0F,E5,8C,80,20,
2874924,000001C7,false,Rx,0,4,AA,A0,FF,C0,00,00,00,00,
2878183,00000435,false,Rx,0,8,FF,FF,1E,0B,2E,10,00,00,
2879131,0000019F,false,Rx,0,8,E1,E1,7D,0A,00,6A,50,FE,
2879434,00000419,false,Rx,0,6,5E,22,32,E6,44,00,00,00,
2879637,00000155,false,Rx,0,8,46,87,C5,54,96,50,02,C2,
2883166,00000157,false,Rx,0,8,D5,0B,09,C4,FF,E0,00,80,
2883340,00000436,false,Rx,0,6,86,16,64,3E,FF,DC,00,00,
2884146,000001A1,false,Rx,0,8,B0,C5,70,0F,E5,8C,80,20,
2884893,000001C7,false,Rx,0,4,AA,A0,FF,C0,00,00,00,00,
2889134,0000019F,false,Rx,0,8,E1,E1,7D,0F,00,6A,50,FE,
2889608,00000155,false,Rx,0,8,46,87,C5,54,96,50,02,C2,
2893257,00000157,false,Rx,0,8,D5,5B,09,C4,FF,E0,00,80,
2894172,000001A1,false,Rx,0,8,B1,05,70,10,15,8C,80,20,
2895057,000001C7,false,Rx,0,4,AA,A0,FF,C0,00,00,00,00,
2899353,0000019F,false,Rx,0,8,E1,E1,7D,04,00,6A,50,FE,
2899849,00000155,false,Rx,0,8,46,87,C4,54,96,50,02,C2,
2903402,00000157,false,Rx,0,8,D5,AB,09,C4,FF,E0,00,80,
2904275,000001A1,false,Rx,0,8,B0,C5,70,0F,E5,8C,80,20,
2905024,000001C7,false,Rx,0,4,AA,A0,FF,C0,00,00,00,00,
2909276,0000019F,false,Rx,0,8,E1,E1,7D,09,00,6A,50,FE,
2909681,00000155,false,Rx,0,8,46,87,C5,54,96,50,02,C2,
2913222,00000157,false,Rx,0,8,D5,FB,09,C4,FF,E0,00,80,
2914063,000001A1,false,Rx,0,8,B0,C5,5C,0F,E5,8C,80,20,
2914975,000001C7,false,Rx,0,4,AA,A0,FF,C0,00,00,00,00,
2919063,0000019F,false,Rx,0,8,E1,E1,7D,0E,00,6A,50,FE,
2919665,00000155,false,Rx,0,8,46,87,C5,54,96,50,02,C2,
2923212,00000157,false,Rx,0,8,D5,4B,09,C4,FF,E0,00,80,
2924087,000001A1,false,Rx,0,8,B1,05,5C,10,35,8C,80,20,
2924962,000001C7,false,Rx,0,4,AA,A0,FF,C0,00,00,00,00,
2929087,0000019F,false,Rx,0,8,E1,E1,7D,03,00,6A,50,FE,
2929341,00000511,false,Rx,0,7,00,A6,A5,91,F7,77,39,00,
2929686,00000155,false,Rx,0,8,46,87,C5,54,96,50,02,C2,
2933238,00000157,false,Rx,0,8,D5,9B,09,C4,FF,E0,00,80,
2933451,00000500,false,Rx,0,5,02,DB,71,1A,B7,00,00,00,
2934085,000001A1,false,Rx,0,8,B0,C5,5C,0F,E5,8C,80,20,
2934967,000001C7,false,Rx,0,4,AA,A0,FF,C0,00,00,00,00,
2939063,0000019F,false,Rx,0,8,E1,E1,7D,08,00,6A,50,FE,
2939593,00000155,false,Rx,0,8,46,87,C5,54,96,50,02,C2,
2943218,00000157,false,Rx,0,8,D5,EB,09,C4,FF,E0,00,80,
2944061,000001A1,false,Rx,0,8,B0,C5,70,0F,E5,8C,80,20,
2945042,000004F7,false,Rx,0,8,00,1A,08,00,90,2C,06,F0,
2945233,000001C7,false,Rx,0,4,AA,A0,FF,C0,00,00,00,00,
2945473,00000428,false,Rx,0,8,00,00,00,7F,00,00,00,00,
2945612,0000042F,false,Rx,0,2,00,20,00,00,00,00,00,00,
2949024,0000019F,false,Rx,0,8,E1,E1,7D,0D,00,6A,50,FE,
2949593,00000155,false,Rx,0,8,46,87,C5,54,96,50,02,C2,
2950014,00000445,false,Rx,0,7,80,55,AA,65,04,82,00,00,
2953143,00000157,false,Rx,0,8,D5,3B,09,C4,FF,E0,00,80,
2954062,000001A1,false,Rx,0,8,B1,05,70,10,35,8C,80,20,
2954988,000001C7,false,Rx,0,4,AA,A0,FF,C0,00,00,00,00,
2958138,00000423,false,Rx,0,8,0B,1D,00,02,5D,80,B2,D8,
2959065,0000019F,false,Rx,0,8,E1,E1,7D,02,00,6A,50,FE,
2959640,00000155,false,Rx,0,8,46,87,C4,54,96,50,02,C2,
2959871,00000424,false,Rx,0,8,11,40,56,C8,33,5E,55,34,
2960089,00000425,false,Rx,0,8,2A,BA,44,9C,42,1A,CD,0B,
2963213,00000157,false,Rx,0,8,D5,8B,09,C4,FF,E0,00,80,
2963417,00000426,false,Rx,0,8,00,60,01,00,53,18,00,40,
2964117,000001A1,false,Rx,0,8,B1,05,70,0F,E5,8C,80,20,
2964939,000001C7,false,Rx,0,4,AA,A0,FF,C0,00,00,00,00,
2969044,0000019F,false,Rx,0,8,E1,E1,7D,07,00,6A,50,FE,
2969566,00000155,false,Rx,0,8,46,87,C4,54,96,50,02,C2,
2973168,00000157,false,Rx,0,8,D5,DB,09,C4,FF,E0,00,80,
2974061,000001A1,false,Rx,0,8,B0,C5,5C,0F,E5,8C,80,20,
2974946,000001C7,false,Rx,0,4,AA,A0,FF,C0,00,00,00,00,
2978093,00000435,false,Rx,0,8,FF,FF,1E,0B,2E,10,00,00,
2979063,0000019F,false,Rx,0,8,E1,E1,7D,0C,00,6A,50,FE,
2979315,00000419,false,Rx,0,6,5E,22,32,E6,44,00,00,00,
2979645,00000155,false,Rx,0,8,46,87,C5,54,96,50,02,C2,
2983165,00000157,false,Rx,0,8,D5,2B,09,C4,FF,E0,00,80,
2983368,00000436,false,Rx,0,6,86,16,64,3E,FF,DC,00,00,
2984063,000001A1,false,Rx,0,8,B1,05,70,10,15,8C,80,20,
2985013,000001C7,false,Rx,0,4,AA,A0,FF,C0,00,00,00,00,
2989020,0000019F,false,Rx,0,8,E1,E1,7D,01,00,6A,50,FE,
2989584,00000155,false,Rx,0,8,46,87,C4,54,96,50,02,C2,
2993217,00000157,false,Rx,0,8,D5,7B,09,C4,FF,E0,00,80,
2994025,000001A1,false,Rx,0,8,B1,05,70,0F,E5,8C,80,20,
2994970,000001C7,false,Rx,0,4,AA,A0,FF,C0,00,00,00,00,
2999045,0000019F,false,Rx,0,8,E1,E1,7D,06,00,6A,50,FE,
2999669,00000155,false,Rx,0,8,46,87,C6,54,96,50,02,C2,
3003098,00000157,false,Rx,0,8,D5,CB,09,C4,FF,E0,00,80,
3004027,000001A1,false,Rx,0,8,B0,C5,70,0F,E5,8C,80,20,
3004978,000001C7,false,Rx,0,4,AA,A0,FF,C0,00,00,00,00,
3009023,0000019F,false,Rx,0,8,E1,E1,7D,0B,00,6A,50,FE,
3009604,00000155,false,Rx,0,8,46,87,C5,54,96,50,02,C2,
3013121,00000157,false,Rx,0,8,D5,1B,09,C4,FF,E0,00,80,
3014056,000001A1,false,Rx,0,8,B0,C5,5C,0F,F5,8C,80,20,
3015004,000001C7,false,Rx,0,4,AA,A0,FF,C0,00,00,00,00,
3019058,0000019F,false,Rx,0,8,E1,E1,7D,00,00,6A,50,FE,
3019658,00000155,false,Rx,0,8,46,87,C4,54,96,50,02,C2,
3023257,00000157,false,Rx,0,8,D5,6B,09,C4,FF,E0,00,80,
3024049,000001A1,false,Rx,0,8,B1,05,5C,0F,E5,8C,80,20,
3025037,000001C7,false,Rx,0,4,AA,A0,FF,C0,00,00,00,00,
3029056,0000019F,false,Rx,0,8,E1,E1,7D,05,00,6A,50,FE,
3029327,00000511,false,Rx,0,7,00,E5,6E,4A,62,84,1C,00,
3029675,00000155,false,Rx,0,8,46,87,C4,54,96,50,02,C2,
3033219,00000157,false,Rx,0,8,D5,BB,09,C4,FF,E0,00,80,
3034013,000001A1,false,Rx,0,8,B0,C5,70,0F,E5,8C,80,20,
3034440,00000500,false,Rx,0,5,02,2A,61,7D,BC,00,00,00,
3034990,000001C7,false,Rx,0,4,AA,A0,FF,C0,00,00,00,00,
3039026,0000019F,false,Rx,0,8,E1,E1,7D,0A,00,6A,50,FE,
3039630,00000155,false,Rx,0,8,46,87,C5,54,96,50,02,C2,
3043168,00000157,false,Rx,0,8,D5,0B,09,C4,FF,E0,00,80,
3044014,000001A1,false,Rx,0,8,B0,C5,5C,0F,F5,8C,80,20,
3045016,000004F7,false,Rx,0,8,00,1A,08,00,90,2C,06,F0,
3045191,000001C7,false,Rx,0,4,AA,A0,FF,C0,00,00,00,00,
3045470,00000428,false,Rx,0,8,00,00,00,7F,00,00,00,00,
3045622,0000042F,false,Rx,0,2,00,20,00,00,00,00,00,00,
3049015,0000019F,false,Rx,0,8,E1,E1,7D,0F,00,6A,50,FE,
3049559,00000155,false,Rx,0,8,46,87,C5,54,96,50,02,C2,
3049985,00000445,false,Rx,0,7,80,55,AA,65,04,82,00,00,
3053170,00000157,false,Rx,0,8,D5,5B,09,C4,FF,E0,00,80,
3054019,000001A1,false,Rx,0,8,B1,05,5C,0F,E5,8C,80,20,
3054944,000001C7,false,Rx,0,4,AA,A0,FF,C0,00,00,00,00,
3058045,00000423,false,Rx,0,8,0B,1D,00,02,5D,80,B2,D8,
3059018,0000019F,false,Rx,0,8,E1,E1,7D,04,00,6A,50,FE,
3059599,00000155,false,Rx,0,8,46,87,C5,54,96,50,02,C2,
3059822,00000424,false,Rx,0,8,11,40,56,C8,33,5E,55,34,
3060039,00000425,false,Rx,0,8,2A,BA,44,9C,42,18,CD,0B,
3063121,00000157,false,Rx,0,8,D5,AB,09,C4,FF,E0,00,80,
3063341,00000426,false,Rx,0,8,00,60,01,00,53,18,00,40,
3064016,000001A1,false,Rx,0,8,B0,C5,5C,0F,E5,8C,80,20,
3064962,000001C7,false,Rx,0,4,AA,A0,FF,C0,00,00,00,00,
3069025,0000019F,false,Rx,0,8,E1,E1,7D,09,00,6A,50,FE,
3069570,00000155,false,Rx,0,8,46,87,C5,54,96,50,02,C2,
3073193,00000157,false,Rx,0,8,D5,FB,09,C4,FF,E0,00,80,
3074014,000001A1,false,Rx,0,8,B0,C5,5C,10,05,8C,80,20,
3074964,000001C7,false,Rx,0,4,AA,A0,FF,C0,00,00,00,00,
3078095,00000435,false,Rx,0,8,FF,FF,1E,0B,2E,10,00,00,
3079018,0000019F,false,Rx,0,8,E1,E1,7D,0E,00,6A,50,FE,
3079268,00000419,false,Rx,0,6,5E,22,32,E6,44,00,00,00,
3079596,00000155,false,Rx,0,8,46,87,C4,54,96,50,02,C2,
3083121,00000157,false,Rx,0,8,D5,4B,09,C4,FF,E0,00,80,
3083342,00000436,false,Rx,0,6,86,16,64,3E,FF,DC,00,00,
3084015,000001A1,false,Rx,0,8,B1,05,70,0F,E5,8C,80,20,
3084968,000001C7,false,Rx,0,4,AA,A0,FF,C0,00,00,00,00,
3089019,0000019F,false,Rx,0,8,E1,E1,7D,03,00,6A,50,FE,
3089570,00000155,false,Rx,0,8,46,87,C4,54,96,50,02,C2,
3093170,00000157,false,Rx,0,8,D5,9B,09,C4,FF,E0,00,80,
3094015,000001A1,false,Rx,0,8,B0,C5,70,0F,E5,8C,80,20,
3094967,000001C7,false,Rx,0,4,AA,A0,FF,C0,00,00,00,00,
3099020,0000019F,false,Rx,0,8,E1,E1,7D,08,00,6A,50,FE,
3099618,00000155,false,Rx,0,8,46,87,C5,54,96,50,02,C2,
3103101,00000157,false,Rx,0,8,D5,EB,09,C4,FF,E0,00,80,
3104014,000001A1,false,Rx,0,8,B0,C5,70,10,05,8C,80,20,
3104986,000001C7,false,Rx,0,4,AA,A0,FF,C0,00,00,00,00,
3109020,0000019F,false,Rx,0,8,E1,E1,7D,0D,00,6A,50,FE,
3109618,00000155,false,Rx,0,8,46,87,C5,54,96,50,02,C2,
3113121,00000157,false,Rx,0,8,D5,3B,09,C4,FF,E0,00,80,
3114015,000001A1,false,Rx,0,8,B0,C5,70,0F,E5,8C,80,20,
3114990,000001C7,false,Rx,0,4,AA,A0,FF,C0,00,00,00,00,
3119018,0000019F,false,Rx,0,8,E1,E1,7D,02,00,6A,50,FE,
3119618,00000155,false,Rx,0,8,46,87,C6,54,96,50,02,C3,
3123092,00000157,false,Rx,0,8,D5,8B,09,C4,FF,E0,00,80,
3124019,000001A1,false,Rx,0,8,B0,C5,5C,0F,E5,8C,80,20,
3124992,000001C7,false,Rx,0,4,AA,A0,FF,C0,00,00,00,00,
3129018,0000019F,false,Rx,0,8,E1,E1,7D,07,00,6A,50,FE,
3129286,00000511,false,Rx,0,7,00,24,37,03,CD,91,FF,00,
3129636,00000155,false,Rx,0,8,46,87,C5,54,96,50,02,C3,
3133120,00000157,false,Rx,0,8,D5,DB,09,C4,FF,E0,00,80,
3134017,000001A1,false,Rx,0,8,B1,05,70,10,25,8C,80,20,
3134367,00000500,false,Rx,0,5,02,72,41,A4,66,00,00,00,
3134989,000001C7,false,Rx,0,4,AA,A0,FF,C0,00,00,00,00,
3139021,0000019F,false,Rx,0,8,E1,E1,7D,0C,00,6A,50,FE,
3139546,00000155,false,Rx,0,8,46,87,C5,54,96,50,02,C3,
3143154,00000157,false,Rx,0,8,D5,2B,09,C4,FF,E0,00,80,
3144032,000001A1,false,Rx,0,8,B0,C5,5C,0F,E5,8C,80,20,
3145065,000004F7,false,Rx,0,8,00,1A,08,00,90,2C,06,F0,
3145267,000001C7,false,Rx,0,4,AA,A0,FF,C0,00,00,00,00,
3145545,00000428,false,Rx,0,8,00,00,00,7F,00,00,00,00,
3145674,0000042F,false,Rx,0,2,00,20,00,00,00,00,00,00,
3149014,0000019F,false,Rx,0,8,E1,E1,7D,01,00,6A,50,FE,
3149535,00000155,false,Rx,0,8,46,87,C4,54,96,50,02,C3,
3149959,00000445,false,Rx,0,7,80,55,AA,65,04,82,00,00,
3153093,00000157,false,Rx,0,8,D5,7B,09,C4,FF,E0,00,80,
3154017,000001A1,false,Rx,0,8,B0,C5,5C,0F,E5,8C,80,20,
3155013,000001C7,false,Rx,0,4,AA,A0,FF,C0,00,00,00,00,
3158042,00000423,false,Rx,0,8,0B,1D,00,02,5D,80,B2,D8,
3159015,0000019F,false,Rx,0,8,E1,E1,7D,06,00,6A,50,FE,
3159597,00000155,false,Rx,0,8,46,87,C5,54,96,50,02,C3,
3159829,00000424,false,Rx,0,8,11,40,56,C8,33,5E,55,34,
3160039,00000425,false,Rx,0,8,2A,BA,44,9C,42,18,CD,0B,
3163120,00000157,false,Rx,0,8,D5,CB,09,C4,FF,E0,00,80,
3163381,00000426,false,Rx,0,8,00,60,01,00,53,18,00,40,
3164015,000001A1,false,Rx,0,8,B1,05,70,10,35,8C,80,20,
3165017,000001C7,false,Rx,0,4,AA,A0,FF,C0,00,00,00,00,
3169020,0000019F,false,Rx,0,8,E1,E1,7D,0B,00,6A,50,FE,
3169588,00000155,false,Rx,0,8,46,87,C5,54,96,50,02,C3,
3173194,00000157,false,Rx,0,8,D5,1B,09,C4,FF,E0,00,80,
3174022,000001A1,false,Rx,0,8,B1,05,5C,0F,E5,8C,80,20,
3175016,000001C7,false,Rx,0,4,AA,A0,FF,C0,00,00,00,00,
3178045,00000435,false,Rx,0,8,FF,FF,1E,0B,2E,10,00,00,
3179020,0000019F,false,Rx,0,8,E1,E1,7D,00,00,6A,50,FE,
3179267,00000419,false,Rx,0,6,5E,22,32,E6,44,00,00,00,
3179570,00000155,false,Rx,0,8,46,87,C5,54,96,50,02,C3,
3183170,00000157,false,Rx,0,8,D5,6B,09,C4,FF,E0,00,80,
3183368,00000436,false,Rx,0,6,86,16,64,3E,FF,DC,00,00,
3184015,000001A1,false,Rx,0,8,B0,C5,70,0F,E5,8C,80,20,
3185016,000001C7,false,Rx,0,4,AA,A0,FF,C0,00,00,00,00,
3189021,0000019F,false,Rx,0,8,E1,E1,7D,05,00,6A,50,FE,
3189542,00000155,false,Rx,0,8,46,87,C5,54,96,50,02,C3,
3193221,00000157,false,Rx,0,8,D5,BB,09,C4,FF,E0,00,80,
3194015,000001A1,false,Rx,0,8,B1,05,70,10,15,8C,80,20,
3195043,000001C7,false,Rx,0,4,AA,A0,FF,C0,00,00,00,00,
3199017,0000019F,false,Rx,0,8,E1,E1,7D,0A,00,6A,50,FE,
3199662,00000155,false,Rx,0,8,46,87,C5,54,96,50,02,C3,
3203138,00000157,false,Rx,0,8,D5,0B,09,C4,FF,E0,00,80,
3204017,000001A1,false,Rx,0,8,B1,05,70,0F,E5,8C,80,20,
3205047,000001C7,false,Rx,0,4,AA,A0,FF,C0,00,00,00,00,
3209019,0000019F,false,Rx,0,8,E1,E1,7D,0F,00,6A,50,FE,
3209568,00000155,false,Rx,0,8,46,87,C4,54,96,50,02,C3,
3213144,00000157,false,Rx,0,8,D5,5B,09,C4,FF,E0,00,80,
3214016,000001A1,false,Rx,0,8,B0,85,5C,0F,E5,8C,80,20,
3215039,000001C7,false,Rx,0,4,AA,A0,FF,C0,00,00,00,00,
3219020,0000019F,false,Rx,0,8,E1,E1,7D,04,00,6A,50,FE,
3219567,00000155,false,Rx,0,8,46,87,C4,54,96,50,02,C3,
3223138,00000157,false,Rx,0,8,D5,AB,09,C4,FF,E0,00,80,
3224019,000001A1,false,Rx,0,8,B1,05,5C,10,05,8C,80,20,
3225041,000001C7,false,Rx,0,4,AA,A0,FF,C0,00,00,00,00,
3229019,0000019F,false,Rx,0,8,E1,E1,7D,09,00,6A,50,FE,
3229286,00000511,false,Rx,0,7,00,63,00,BC,38,9E,E2,00,
3229634,00000155,false,Rx,0,8,46,87,C5,54,96,50,02,C3,
3233170,00000157,false,Rx,0,8,D5,FB,09,C4,FF,E0,00,80,
3233343,00000500,false,Rx,0,5,02,80,DC,36,69,00,00,00,
3234016,000001A1,false,Rx,0,8,B1,05,70,0F,E5,8C,80,20,
3235040,000001C7,false,Rx,0,4,AA,A0,FF,C0,00,00,00,00,
3239019,0000019F,false,Rx,0,8,E1,E1,7D,0E,00,6A,50,FE,
3239618,00000155,false,Rx,0,8,46,87,C5,54,96,50,02,C3,
3243120,00000157,false,Rx,0,8,D5,4B,09,C4,FF,E0,00,80,
3244015,000001A1,false,Rx,0,8,B0,C5,70,0F,E5,8C,80,20,
3245112,000004F7,false,Rx,0,8,00,1A,08,00,90,2C,06,F0,
3245309,000001C7,false,Rx,0,4,AA,A0,FF,C0,00,00,00,00,
3245609,00000428,false,Rx,0,8,00,00,00,7F,00,00,00,00,
3245734,0000042F,false,Rx,0,2,00,20,00,00,00,00,00,00,
3249013,0000019F,false,Rx,0,8,E1,E1,7D,03,00,6A,50,FE,
3249534,00000155,false,Rx,0,8,46,87,C5,54,96,50,02,C3,
3249934,00000445,false,Rx,0,7,80,55,AA,65,04,82,00,00,
3253194,00000157,false,Rx,0,8,D5,9B,09,C4,FF,E0,00,80,
3254014,000001A1,false,Rx,0,8,B0,C5,5C,0F,F5,8C,80,20,
3255064,000001C7,false,Rx,0,4,AA,A0,FF,C0,00,00,00,00,
3258072,00000423,false,Rx,0,8,0B,1D,00,02,B2,80,5D,D8,
3259041,0000019F,false,Rx,0,8,E1,E1,7D,08,00,6A,50,FE,
3259614,00000155,false,Rx,0,8,46,87,C5,54,96,50,02,C3,
3259843,00000424,false,Rx,0,8,11,40,56,C8,33,5E,55,34,
3260064,00000425,false,Rx,0,8,2A,BA,44,9C,42,18,CD,0B,
3263165,00000157,false,Rx,0,8,D5,EB,09,C4,FF,E0,00,80,
3263414,00000426,false,Rx,0,8,00,60,01,00,53,18,00,40,
3264050,000001A1,false,Rx,0,8,B1,05,5C,0F,E5,8C,80,20,
3265090,000001C7,false,Rx,0,4,AA,A0,FF,C0,00,00,00,00,
3269278,0000019F,false,Rx,0,8,E1,E1,7D,0D,00,6A,50,FE,
3269706,00000155,false,Rx,0,8,46,87,C5,54,96,50,02,C3,
3273450,00000157,false,Rx,0,8,D5,3B,09,C4,FF,E0,00,80,
3274184,000001A1,false,Rx,0,8,B0,C5,5C,0F,E5,8C,80,20,
3275101,000001C7,false,Rx,0,4,AA,A0,FF,C0,00,00,00,00,
3278134,00000435,false,Rx,0,8,FF,FF,1E,0B,2E,10,00,00,
3279079,0000019F,false,Rx,0,8,E1,E1,7D,02,00,6A,50,FE,
3279287,00000419,false,Rx,0,6,5E,22,32,E6,44,00,00,00,
3279737,00000155,false,Rx,0,8,46,87,C4,54,96,50,02,C3,
3283428,00000157,false,Rx,0,8,D5,8B,09,C4,FF,E0,00,80,
3283435,00000436,false,Rx,0,6,86,16,64,3E,FF,DC,00,00,
3284187,000001A1,false,Rx,0,8,B0,C5,5C,0F,F5,8C,80,20,
3285327,000001C7,false,Rx,0,4,AA,A0,FF,C0,00,00,00,00,
3289281,0000019F,false,Rx,0,8,E1,E1,7D,07,00,6A,50,FE,
3289729,00000155,false,Rx,0,8,46,87,C5,54,96,50,02,C3,
3293382,00000157,false,Rx,0,8,D5,DB,09,C4,FF,E0,00,80,
3294281,000001A1,false,Rx,0,8,B1,05,5C,0F,E5,8C,80,20,
3295357,000001C7,false,Rx,0,4,AA,A0,FF,C0,00,00,00,00,
3299282,0000019F,false,Rx,0,8,E1,E1,7D,0C,00,6A,50,FE,
3299847,00000155,false,Rx,0,8,46,87,C5,54,96,50,02,C3,
3303409,00000157,false,Rx,0,8,D5,2B,09,C4,FF,E0,00,80,
3304188,000001A1,false,Rx,0,8,B1,05,5C,0F,E5,8C,80,20,
3305352,000001C7,false,Rx,0,4,AA,A0,FF,C0,00,00,00,00,
3309304,0000019F,false,Rx,0,8,E1,E1,7D,01,00,6A,50,FE,
3309655,00000155,false,Rx,0,8,46,87,C5,54,96,50,02,C3,
3313124,00000157,false,Rx,0,8,D5,7B,09,C4,FF,E0,00,80,
3314035,000001A1,false,Rx,0,8,B0,C5,70,10,05,8C,80,20,
3315173,000001C7,false,Rx,0,4,AA,A0,FF,C0,00,00,00,00,
3319288,0000019F,false,Rx,0,8,E1,E1,7D,06,00,6A,50,FE,
3319726,00000155,false,Rx,0,8,46,87,C5,54,96,50,02,C3,
3323197,00000157,false,Rx,0,8,D5,CB,09,C4,FF,E0,00,80,
3324186,000001A1,false,Rx,0,8,B0,C5,5C,0F,E5,8C,80,20,
3325171,000001C7,false,Rx,0,4,AA,A0,FF,C0,00,00,00,00,
3329288,0000019F,false,Rx,0,8,E1,E1,7D,0B,00,6A,50,FE,
3329298,00000511,false,Rx,0,7,00,A2,C9,75,A3,AB,C5,00,
3329722,00000155,false,Rx,0,8,46,87,C5,54,96,50,02,C3,
3333464,00000157,false,Rx,0,8,D5,1B,09,C4,FF,E0,00,80,
3334189,000001A1,false,Rx,0,8,B1,05,5C,0F,E5,8C,80,20,
3334514,00000500,false,Rx,0,5,02,E9,6F,7C,C5,00,00,00,
3335094,000001C7,false,Rx,0,4,AA,A0,FF,C0,00,00,00,00,
3339283,0000019F,false,Rx,0,8,E1,E1,7D,00,00,6A,50,FE,
3339654,00000155,false,Rx,0,8,46,87,C4,54,96,50,02,C3,
3343363,00000157,false,Rx,0,8,D5,6B,09,C4,FF,E0,00,80,
3344182,000001A1,false,Rx,0,8,B1,05,70,10,15,8C,80,20,
3345231,000004F7,false,Rx,0,8,00,1A,08,00,90,2C,06,F0,
3345451,000001C7,false,Rx,0,4,AA,A0,FF,C0,00,00,00,00,
3345687,00000428,false,Rx,0,8,00,00,00,7F,00,00,00,00,
3345889,0000042F,false,Rx,0,2,00,20,00,00,00,00,00,00,
3349071,0000019F,false,Rx,0,8,E1,E1,7D,05,00,6A,50,FE,
3349709,00000155,false,Rx,0,8,46,87,C5,54,96,50,02,C3,
3350053,00000445,false,Rx,0,7,80,55,55,65,04,82,00,00,
3353414,00000157,false,Rx,0,8,D5,BB,09,C4,FF,E0,00,80,
3354286,000001A1,false,Rx,0,8,B0,C5,5C,0F,E5,8C,80,20,
3355385,000001C7,false,Rx,0,4,AA,A0,FF,C0,00,00,00,00,
3358176,00000423,false,Rx,0,8,0B,1D,00,02,B2,80,5D,D8,
3359289,0000019F,false,Rx,0,8,E1,E1,7D,0A,00,6A,50,FE,
3359654,00000155,false,Rx,0,8,46,87,C5,54,96,50,02,C3,
3359879,00000424,false,Rx,0,8,11,40,56,C8,33,5E,AA,34,
3360127,00000425,false,Rx,0,8,2A,BA,44,9C,42,18,CD,0C,
3363352,00000157,false,Rx,0,8,D5,0B,09,C4,FF,E0,00,80,
3363362,00000426,false,Rx,0,8,00,60,01,00,53,18,00,40,
3364078,000001A1,false,Rx,0,8,B0,C5,5C,0F,E5,8C,80,20,
3365284,000001C7,false,Rx,0,4,AA,A0,FF,C0,00,00,00,00,
3369295,0000019F,false,Rx,0,8,E1,E1,7D,0F,00,6A,50,FE,
3369570,00000155,false,Rx,0,8,46,87,C5,54,96,50,02,C3,
3373460,00000157,false,Rx,0,8,D5,5B,09,C4,FF,E0,00,80,
3374192,000001A1,false,Rx,0,8,B1,05,5C,10,15,8C,80,20,
3375136,000001C7,false,Rx,0,4,AA,A0,FF,C0,00,00,00,00,
3378357,00000435,false,Rx,0,8,FF,FF,1E,0B,2E,10,00,00,
3379285,0000019F,false,Rx,0,8,E1,E1,7D,04,00,6A,50,FE,
3379295,00000419,false,Rx,0,6,5E,22,32,E6,44,00,00,00,
3379590,00000155,false,Rx,0,8,46,87,C5,54,96,50,02,C3,
3383387,00000157,false,Rx,0,8,D5,AB,09,C4,FF,E0,00,80,
3383397,00000436,false,Rx,0,6,86,16,64,3E,FF,DC,00,00,
3384104,000001A1,false,Rx,0,8,B0,C5,5C,0F,E5,8C,80,20,
3385363,000001C7,false,Rx,0,4,AA,A0,FF,C0,00,00,00,00,
3389286,0000019F,false,Rx,0,8,E1,E1,7D,09,00,6A,50,FE,
3389615,00000155,false,Rx,0,8,46,87,C5,54,96,50,02,C3,
3393461,00000157,false,Rx,0,8,D5,FB,09,C4,FF,E0,00,80,
3394286,000001A1,false,Rx,0,8,B0,C5,70,0F,E5,8C,80,20,
3395413,000001C7,false,Rx,0,4,AA,A0,FF,C0,00,00,00,00,
3399290,0000019F,false,Rx,0,8,E1,E1,7D,0E,00,6A,50,FE,
3399831,00000155,false,Rx,0,8,46,87,C4,54,96,50,02,C3,
3403374,00000157,false,Rx,0,8,D5,4B,09,C4,FF,E0,00,80,
3404283,000001A1,false,Rx,0,8,B1,05,70,10,15,8C,80,20,
3405205,000001C7,false,Rx,0,4,AA,A0,FF,C0,00,00,00,00,
3409290,0000019F,false,Rx,0,8,E1,E1,7D,03,00,6A,50,FE,
3409578,00000155,false,Rx,0,8,46,87,C4,54,96,50,02,C3,
3413162,00000157,false,Rx,0,8,D5,9B,09,C4,FF,E0,00,80,
3414026,000001A1,false,Rx,0,8,B1,05,5C,0F,E5,8C,80,20,
3415153,000001C7,false,Rx,0,4,AA,A0,FF,C0,00,00,00,00,
3419028,0000019F,false,Rx,0,8,E1,E1,7D,08,00,6A,50,FE,
3419573,00000155,false,Rx,0,8,46,87,C5,54,96,50,02,C3,
3423126,00000157,false,Rx,0,8,D5,EB,09,C4,FF,E0,00,80,
3424019,000001A1,false,Rx,0,8,B0,C5,5C,0F,E5,8C,80,20,
3425145,000001C7,false,Rx,0,4,AA,A0,FF,C0,00,00,00,00,
3429026,0000019F,false,Rx,0,8,E1,E1,7D,0D,00,6A,50,FE,
3429297,00000511,false,Rx,0,7,00,E1,92,2E,0E,B8,A8,00,
3429625,00000155,false,Rx,0,8,46,87,C5,54,96,50,02,C3,
3433127,00000157,false,Rx,0,8,D5,3B,09,C4,FF,E0,00,80,
3434022,000001A1,false,Rx,0,8,B0,C5,5C,10,15,8C,80,20,
3434396,00000500,false,Rx,0,5,02,0A,84,75,D6,00,00,00,
3435145,000001C7,false,Rx,0,4,AA,A0,FF,C0,00,00,00,00,
3439027,0000019F,false,Rx,0,8,E1,E1,7D,02,00,6A,50,FE,
3439598,00000155,false,Rx,0,8,46,87,C5,54,96,50,02,C3,
3443099,00000157,false,Rx,0,8,D5,8B,09,C4,FF,E0,00,80,
3444023,000001A1,false,Rx,0,8,B1,05,5C,0F,E5,8C,80,20,
3445246,000004F7,false,Rx,0,8,00,1A,08,00,90,2C,06,F0,
3445400,000001C7,false,Rx,0,4,AA,A0,FF,C0,00,00,00,00,
3445663,00000428,false,Rx,0,8,00,00,00,7F,00,00,00,00,
3445831,0000042F,false,Rx,0,2,00,20,00,00,00,00,00,00,
3449027,0000019F,false,Rx,0,8,E1,E1,7D,07,00,6A,50,FE,
3449548,00000155,false,Rx,0,8,46,87,C5,54,96,50,02,C3,
3449945,00000445,false,Rx,0,7,80,55,55,65,04,82,00,00,
3453126,00000157,false,Rx,0,8,D5,DB,09,C4,FF,E0,00,80,
3454020,000001A1,false,Rx,0,8,B0,C5,5C,0F,E5,8C,80,20,
3455165,000001C7,false,Rx,0,4,AA,A0,FF,C0,00,00,00,00,
3458148,00000423,false,Rx,0,8,0B,1D,00,02,B2,80,5D,D8,
3459021,0000019F,false,Rx,0,8,E1,E1,7D,0C,00,6A,50,FE,
3459574,00000155,false,Rx,0,8,46,87,C4,54,96,50,02,C3,
3459800,00000424,false,Rx,0,8,11,40,56,C8,33,5E,AA,34,
3460044,00000425,false,Rx,0,8,2A,BA,44,9C,42,18,CD,0B,
3463097,00000157,false,Rx,0,8,D5,2B,09,C4,FF,E0,00,80,
3463322,00000426,false,Rx,0,8,00,60,01,00,53,18,00,40,
3464020,000001A1,false,Rx,0,8,B0,C5,5C,10,15,8C,80,20,
3465171,000001C7,false,Rx,0,4,AA,A0,FF,C0,00,00,00,00,
3469024,0000019F,false,Rx,0,8,E1,E1,7D,01,00,6A,50,FE,
3469545,00000155,false,Rx,0,8,46,87,C4,54,96,50,02,C3,
3473176,00000157,false,Rx,0,8,D5,7B,09,C4,FF,E0,00,80,
3474057,000001A1,false,Rx,0,8,B1,05,5C,0F,E5,8C,80,20,
3475207,000001C7,false,Rx,0,4,AA,A0,FF,C0,00,00,00,00,
3478157,00000435,false,Rx,0,8,FF,FF,1E,0B,2E,10,00,00,
3479022,0000019F,false,Rx,0,8,E1,E1,7D,06,00,6A,50,FE,
3479274,00000419,false,Rx,0,6,5E,22,32,E6,44,00,00,00,
3479577,00000155,false,Rx,0,8,46,87,C5,54,96,50,02,C3,
3483180,00000157,false,Rx,0,8,D5,CB,09,C4,FF,E0,00,80,
3483374,00000436,false,Rx,0,6,86,16,64,3E,FF,DC,00,00,
3484021,000001A1,false,Rx,0,8,B0,C5,5C,0F,E5,8C,80,20,
3485196,000001C7,false,Rx,0,4,AA,A0,FF,C0,00,00,00,00,
3489027,0000019F,false,Rx,0,8,E1,E1,7D,0B,00,6A,50,FE,
3489549,00000155,false,Rx,0,8,46,87,C5,54,96,50,02,C3,
3493145,00000157,false,Rx,0,8,D5,1B,09,C4,FF,E0,00,80,
3494016,000001A1,false,Rx,0,8,B0,C5,5C,0F,F5,8C,80,20,
3495193,000001C7,false,Rx,0,4,AA,A0,FF,C0,00,00,00,00,
3499028,0000019F,false,Rx,0,8,E1,E1,7D,00,00,6A,50,FE,
3499922,00000155,false,Rx,0,8,46,87,C5,54,96,50,02,C3,
3503104,00000157,false,Rx,0,8,D5,6B,09,C4,FF,E0,00,80,
3504022,000001A1,false,Rx,0,8,B1,05,5C,0F,E5,8C,80,20,
3505196,000001C7,false,Rx,0,4,AA,A0,FF,C0,00,00,00,00,
3509027,0000019F,false,Rx,0,8,E1,E1,7D,05,00,6A,50,FE,
3509598,00000155,false,Rx,0,8,46,87,C5,54,96,50,02,C3,
3513106,00000157,false,Rx,0,8,D5,BB,09,C4,FF,E0,00,80,
3514027,000001A1,false,Rx,0,8,B0,C5,70,0F,E5,8C,80,20,
3515232,000001C7,false,Rx,0,4,AA,A0,FF,C0,00,00,00,00,
3519035,0000019F,false,Rx,0,8,E1,E1,7D,0A,00,6A,50,FE,
3519607,00000155,false,Rx,0,8,46,87,C5,54,96,50,02,C3,
3523161,00000157,false,Rx,0,8,D5,0B,09,C4,FF,E0,00,80,
3524033,000001A1,false,Rx,0,8,B0,C5,5C,10,05,8C,80,20,
3525233,000001C7,false,Rx,0,4,AA,A0,FF,C0,00,00,00,00,
3529033,0000019F,false,Rx,0,8,E1,E1,7D,0F,00,6A,50,FE,
3529300,00000511,false,Rx,0,7,00,20,5B,E7,79,C5,8B,00,
3529602,00000155,false,Rx,0,8,46,87,C4,54,96,50,02,C3,
3533107,00000157,false,Rx,0,8,D5,5B,09,C4,FF,E0,00,80,
3534022,000001A1,false,Rx,0,8,B1,05,5C,0F,E5,8C,80,20,
3534347,00000500,false,Rx,0,5,02,67,B6,B7,3D,00,00,00,
3535221,000001C7,false,Rx,0,4,AA,A0,FF,C0,00,00,00,00,
3539021,0000019F,false,Rx,0,8,E1,E1,7D,04,00,6A,50,FE,
3539571,00000155,false,Rx,0,8,46,87,C4,54,96,50,02,C3,
3543147,00000157,false,Rx,0,8,D5,AB,09,C4,FF,E0,00,80,
3544058,000001A1,false,Rx,0,8,B0,C5,5C,0F,E5,8C,80,20,
3545326,000004F7,false,Rx,0,8,00,1A,08,00,90,2C,06,F0,
3545501,000001C7,false,Rx,0,4,AA,A0,FF,C0,00,00,00,00,
3545751,00000428,false,Rx,0,8,00,00,00,7F,00,00,00,00,
3545920,0000042F,false,Rx,0,2,00,20,00,00,00,00,00,00,
3549052,0000019F,false,Rx,0,8,E1,E1,7D,09,00,6A,50,FE,
3549580,00000155,false,Rx,0,8,46,87,C5,54,96,50,02,C3,
3549956,00000445,false,Rx,0,7,80,55,55,65,04,82,00,00,
3553202,00000157,false,Rx,0,8,D5,FB,09,C4,FF,E0,00,80,
3554091,000001A1,false,Rx,0,8,B0,C5,5C,10,15,8C,80,20,
3555406,000001C7,false,Rx,0,4,AA,A0,FF,C0,00,00,00,00,
3558249,00000423,false,Rx,0,8,0B,1D,00,02,B2,80,5D,D8,
3559174,0000019F,false,Rx,0,8,E1,E1,7D,0E,00,6A,50,FE,
3559733,00000155,false,Rx,0,8,46,87,C5,54,96,50,02,C3,
3559880,00000424,false,Rx,0,8,11,40,56,C8,33,5E,AA,34,
3560082,00000425,false,Rx,0,8,2A,BA,44,9C,42,18,CD,0C,
3563157,00000157,false,Rx,0,8,D5,4B,09,C4,FF,E0,00,80,
3563482,00000426,false,Rx,0,8,00,60,01,00,53,18,00,40,
3564185,000001A1,false,Rx,0,8,B0,C5,5C,0F,E5,8C,80,20,
3565410,000001C7,false,Rx,0,4,AA,A0,FF,C0,00,00,00,00,
3569034,0000019F,false,Rx,0,8,E1,E1,7D,03,00,6A,50,FE,
3569549,00000155,false,Rx,0,8,46,87,C5,54,96,50,02,C3,
3573241,00000157,false,Rx,0,8,D5,9B,09,C4,FF,E0,00,80,
3574176,000001A1,false,Rx,0,8,B0,C5,5C,0F,E5,8C,80,20,
3575399,000001C7,false,Rx,0,4,AA,A0,FF,C0,00,00,00,00,
3578230,00000435,false,Rx,0,8,FF,FF,1E,0B,2E,10,00,00,
3579309,0000019F,false,Rx,0,8,E1,E1,7D,08,00,6A,50,FE,
3579318,00000419,false,Rx,0,6,5E,22,32,E6,44,00,00,00,
3579648,00000155,false,Rx,0,8,46,87,C5,54,96,50,02,C3,
3583317,00000157,false,Rx,0,8,D5,EB,09,C4,FF,E0,00,80,
3583354,00000436,false,Rx,0,6,86,16,64,3E,FF,DC,00,00,
3584283,000001A1,false,Rx,0,8,B1,05,5C,10,15,8C,80,20,
3585510,000001C7,false,Rx,0,4,AA,A0,FF,C0,00,00,00,00,
3589248,0000019F,false,Rx,0,8,E1,E1,7D,0D,00,6A,50,FE,
3589553,00000155,false,Rx,0,8,46,87,C4,54,96,50,02,C3,
3593457,00000157,false,Rx,0,8,D5,3B,09,C4,FF,E0,00,80,
3594188,000001A1,false,Rx,0,8,B0,C5,5C,0F,E5,8C,80,20,
3595415,000001C7,false,Rx,0,4,AA,A0,FF,C0,00,00,00,00,
3599107,0000019F,false,Rx,0,8,E1,E1,7D,02,00,6A,50,FE,
3599913,00000155,false,Rx,0,8,46,87,C4,54,96,50,02,C3,
3603332,00000157,false,Rx,0,8,D5,8B,09,C4,FF,E0,00,80,
3604183,000001A1,false,Rx,0,8,B0,C5,5C,0F,E5,8C,80,20,
3605425,000001C7,false,Rx,0,4,AA,A0,FF,C0,00,00,00,00,
3609205,0000019F,false,Rx,0,8,E1,E1,7D,07,00,6A,50,FE,
3609634,00000155,false,Rx,0,8,45,87,C5,54,96,50,02,C3,
3613337,00000157,false,Rx,0,8,D5,DB,09,C4,FF,E0,00,80,
3614283,000001A1,false,Rx,0,8,B1,05,70,10,25,8C,80,20,
3615533,000001C7,false,Rx,0,4,AA,A0,FF,C0,00,00,00,00,
3619285,0000019F,false,Rx,0,8,E1,E1,7D,0C,00,6A,50,FE,
3619638,00000155,false,Rx,0,8,45,87,C5,54,96,50,02,C3,
3623387,00000157,false,Rx,0,8,D5,2B,09,C4,FF,E0,00,80,
3624097,000001A1,false,Rx,0,8,B0,C5,5C,0F,E5,8C,80,20,
3625335,000001C7,false,Rx,0,4,AA,A0,FF,C0,00,00,00,00,
3629287,0000019F,false,Rx,0,8,E1,E1,7D,01,00,6A,50,FE,
3629295,00000511,false,Rx,0,7,00,5F,24,A0,E4,D2,6E,00,
3629670,00000155,false,Rx,0,8,45,87,C5,54,96,50,02,C3,
3633415,00000157,false,Rx,0,8,D5,7B,09,C4,FF,E0,00,80,
3634072,000001A1,false,Rx,0,8,B0,C5,5C,0F,E5,8C,80,20,
3634575,00000500,false,Rx,0,5,02,62,98,2B,7F,00,00,00,
3635533,000001C7,false,Rx,0,4,AA,A0,FF,C0,00,00,00,00,
3639307,0000019F,false,Rx,0,8,E1,E1,7D,06,00,6A,50,FE,
3639670,00000155,false,Rx,0,8,45,87,C5,54,96,50,02,C3,
3643136,00000157,false,Rx,0,8,D5,CB,09,C4,FF,E0,00,80,
3644286,000001A1,false,Rx,0,8,B1,05,70,10,15,8C,80,20,
3645634,000004F7,false,Rx,0,8,00,1A,08,00,90,2C,06,F0,
3645644,000001C7,false,Rx,0,4,AA,A0,FF,C0,00,00,00,00,
3645846,00000428,false,Rx,0,8,00,00,00,7F,00,00,00,00,
3646020,0000042F,false,Rx,0,2,00,20,00,00,00,00,00,00,
3649306,0000019F,false,Rx,0,8,E1,E1,7D,0B,00,6A,50,FE,
3649605,00000155,false,Rx,0,8,45,87,C4,54,96,50,02,C3,
3650109,00000445,false,Rx,0,7,80,55,55,65,04,82,00,00,
3653433,00000157,false,Rx,0,8,D5,1B,09,C4,FF,E0,00,80,
3654280,000001A1,false,Rx,0,8,B1,05,5C,0F,E5,8C,80,20,
3655556,000001C7,false,Rx,0,4,AA,A0,FF,C0,00,00,00,00,
3658212,00000423,false,Rx,0,8,0B,1D,00,02,B2,80,5D,D8,
3659172,0000019F,false,Rx,0,8,E1,E1,7D,00,00,6A,50,FE,
3659580,00000155,false,Rx,0,8,45,87,C4,54,96,50,02,C3,
3659806,00000424,false,Rx,0,8,11,40,56,C8,33,5E,AA,34,
3660022,00000425,false,Rx,0,8,2A,BA,44,9C,42,18,CD,0B,
3663233,00000157,false,Rx,0,8,D5,6B,09,C4,FF,E0,00,80,
3663472,00000426,false,Rx,0,8,00,60,01,00,53,18,00,40,
3664069,000001A1,false,Rx,0,8,B0,C5,5C,0F,E5,8C,80,20,
3665346,000001C7,false,Rx,0,4,AA,A0,FF,C0,00,00,00,00,
3669071,0000019F,false,Rx,0,8,E1,E1,7D,05,00,6A,50,FE,
3669600,00000155,false,Rx,0,8,45,87,C5,54,96,50,02,C3,
3673144,00000157,false,Rx,0,8,D5,BB,09,C4,FF,E0,00,80,
3674068,000001A1,false,Rx,0,8,B1,05,70,0F,F5,8C,80,20,
3675344,000001C7,false,Rx,0,4,AA,A0,FF,C0,00,00,00,00,
3678171,00000435,false,Rx,0,8,FF,FF,1E,0B,2E,10,00,00,
3679072,0000019F,false,Rx,0,8,E1,E1,7D,0A,00,6A,50,FE,
3679324,00000419,false,Rx,0,6,5E,22,32,E6,44,00,00,00,
3679627,00000155,false,Rx,0,8,45,87,C5,54,96,50,02,C3,
3683194,00000157,false,Rx,0,8,D5,0B,09,C4,FF,E0,00,80,
3683397,00000436,false,Rx,0,6,86,16,64,3E,FF,DC,00,00,
3684073,000001A1,false,Rx,0,8,B1,05,70,0F,E5,8C,80,20,
3685370,000001C7,false,Rx,0,4,AA,A0,FF,C0,00,00,00,00,
3689071,0000019F,false,Rx,0,8,E1,E1,7D,0F,00,6A,50,FE,
3689597,00000155,false,Rx,0,8,45,87,C5,54,96,50,02,C3,
3693195,00000157,false,Rx,0,8,D5,5B,09,C4,FF,E0,00,80,
3694039,000001A1,false,Rx,0,8,B0,C5,5C,0F,E5,8C,80,20,
3695371,000001C7,false,Rx,0,4,AA,A0,FF,C0,00,00,00,00,
3699095,0000019F,false,Rx,0,8,E1,E1,7D,04,00,6A,50,FE,
3699698,00000155,false,Rx,0,8,45,87,C5,54,96,50,02,C3,
3703144,00000157,false,Rx,0,8,D5,AB,09,C4,FF,E0,00,80,
3704071,000001A1,false,Rx,0,8,B0,C5,5C,0F,F5,8C,80,20,
3705369,000001C7,false,Rx,0,4,AA,A0,FF,C0,00,00,00,00,
3709069,0000019F,false,Rx,0,8,E1,E1,7D,09,00,6A,50,FE,
3709648,00000155,false,Rx,0,8,45,87,C5,54,96,50,02,C3,
3713144,00000157,false,Rx,0,8,D5,FB,09,C4,FF,E0,00,80,
3714069,000001A1,false,Rx,0,8,B1,05,5C,0F,E5,8C,80,20,
3715369,000001C7,false,Rx,0,4,AA,A0,FF,C0,00,00,00,00,
3719060,0000019F,false,Rx,0,8,E1,E1,7D,0E,00,6A,50,FE,
3719636,00000155,false,Rx,0,8,45,87,C4,54,96,50,02,C3,
3723210,00000157,false,Rx,0,8,D5,4B,09,C4,FF,E0,00,80,
3724037,000001A1,false,Rx,0,8,B0,C5,5C,0F,E5,8C,80,20,
3725401,000001C7,false,Rx,0,4,AA,A0,FF,C0,00,00,00,00,
3729075,0000019F,false,Rx,0,8,E1,E1,7D,03,00,6A,50,FE,
3729347,00000511,false,Rx,0,7,00,9E,ED,59,4F,DF,51,00,
3729667,00000155,false,Rx,0,8,45,87,C5,54,96,50,02,C3,
3733222,00000157,false,Rx,0,8,D5,9B,09,C4,FF,E0,00,80,
3734069,000001A1,false,Rx,0,8,B0,C5,70,0F,F5,8C,80,20,
3734422,00000500,false,Rx,0,5,02,25,85,D5,24,00,00,00,
3735394,000001C7,false,Rx,0,4,AA,A0,FF,C0,00,00,00,00,
3739071,0000019F,false,Rx,0,8,E1,E1,7D,08,00,6A,50,FE,
3739622,00000155,false,Rx,0,8,45,87,C6,54,96,50,02,C3,
3743135,00000157,false,Rx,0,8,D5,EB,09,C4,FF,E0,00,80,
3744059,000001A1,false,Rx,0,8,B1,05,5C,0F,E5,8C,80,20,
3745462,000004F7,false,Rx,0,8,00,1A,08,00,90,2C,06,F0,
3745601,000001C7,false,Rx,0,4,AA,A0,FF,C0,00,00,00,00,
3745927,00000428,false,Rx,0,8,00,00,00,7F,00,00,00,00,
3746045,0000042F,false,Rx,0,2,00,20,00,00,00,00,00,00,
3749035,0000019F,false,Rx,0,8,E1,E1,7D,0D,00,6A,50,FE,
3749572,00000155,false,Rx,0,8,45,87,C5,54,96,50,02,C3,
3749972,00000445,false,Rx,0,7,80,55,55,65,04,82,00,00,
3753185,00000157,false,Rx,0,8,D5,3B,09,C4,FF,E0,00,80,
3754069,000001A1,false,Rx,0,8,B0,C5,5C,0F,E5,8C,80,20,
3755419,000001C7,false,Rx,0,4,AA,A0,FF,C0,00,00,00,00,
3758096,00000423,false,Rx,0,8,0B,1D,00,02,5D,80,B2,D8,
3759074,0000019F,false,Rx,0,8,E1,E1,7D,02,00,6A,50,FE,
3759578,00000155,false,Rx,0,8,45,87,C5,54,96,50,02,C3,
3759804,00000424,false,Rx,0,8,11,40,56,C8,33,5E,AA,34,
3760022,00000425,false,Rx,0,8,2A,BA,44,9C,42,18,CD,0B,
3763157,00000157,false,Rx,0,8,D5,8B,09,C4,FF,E0,00,80,
3763397,00000426,false,Rx,0,8,00,60,01,00,53,18,00,40,
3764069,000001A1,false,Rx,0,8,B0,C5,5C,10,15,8C,80,20,
3765422,000001C7,false,Rx,0,4,AA,A0,FF,C0,00,00,00,00,
3769075,0000019F,false,Rx,0,8,E1,E1,7D,07,00,6A,50,FE,
3769591,00000155,false,Rx,0,8,45,87,C5,54,96,50,02,C3,
3773200,00000157,false,Rx,0,8,D5,DB,09,C4,FF,E0,00,80,
3774070,000001A1,false,Rx,0,8,B0,C5,70,0F,E5,8C,80,20,
3775430,000001C7,false,Rx,0,4,AA,A0,FF,C0,00,00,00,00,
3778170,00000435,false,Rx,0,8,FF,FF,1E,0B,2E,10,00,00,
3779069,0000019F,false,Rx,0,8,E1,E1,7D,0C,00,6A,50,FE,
3779347,00000419,false,Rx,0,6,5E,22,32,E6,44,00,00,00,
3779631,00000155,false,Rx,0,8,45,87,C4,54,96,50,02,C3,
3783187,00000157,false,Rx,0,8,D5,2B,09,C4,FF,E0,00,80,
3783388,00000436,false,Rx,0,6,86,16,64,3E,FF,DC,00,00,
3784022,000001A1,false,Rx,0,8,B0,C5,70,0F,E5,8C,80,20,
3785369,000001C7,false,Rx,0,4,AA,A0,FF,C0,00,00,00,00,
3789020,0000019F,false,Rx,0,8,E1,E1,7D,01,00,6A,50,FE,
3789544,00000155,false,Rx,0,8,45,87,C5,54,96,50,02,C3,
3793327,00000157,false,Rx,0,8,D5,7B,09,C4,FF,E0,00,80,
3794087,000001A1,false,Rx,0,8,B1,05,5C,10,25,8C,80,20,
3795432,000001C7,false,Rx,0,4,AA,A0,FF,C0,00,00,00,00,
3799308,0000019F,false,Rx,0,8,E1,E1,7D,06,00,6A,50,FE,
3799861,00000155,false,Rx,0,8,45,87,C5,54,96,50,02,C3,
3803362,00000157,false,Rx,0,8,D5,CB,09,C4,FF,E0,00,80,
3804133,000001A1,false,Rx,0,8,B0,C5,5C,0F,E5,8C,80,20,
3805657,000001C7,false,Rx,0,4,AA,A0,FF,C0,00,00,00,00,
3809177,0000019F,false,Rx,0,8,E1,E1,7D,0B,00,6A,50,FE,
3809631,00000155,false,Rx,0,8,45,87,C5,54,96,50,02,C3,
3813314,00000157,false,Rx,0,8,D5,1B,09,C4,FF,E0,00,80,
3814278,000001A1,false,Rx,0,8,B0,C5,70,0F,E5,8C,80,20,
3815658,000001C7,false,Rx,0,4,AA,A0,FF,C0,00,00,00,00,
3819307,0000019F,false,Rx,0,8,E1,E1,7D,00,00,6A,50,FE,
3819786,00000155,false,Rx,0,8,45,87,C5,54,96,50,02,C3,
3823454,00000157,false,Rx,0,8,D5,6B,09,C4,FF,E0,00,80,
3824068,000001A1,false,Rx,0,8,B1,05,70,10,35,8C,80,20,
3825660,000001C7,false,Rx,0,4,AA,A0,FF,C0,00,00,00,00,
3829291,0000019F,false,Rx,0,8,E1,E1,7D,05,00,6A,50,FE,
3829299,00000511,false,Rx,0,7,00,DD,B6,12,BA,EC,34,00,
3829738,00000155,false,Rx,0,8,45,87,C5,54,96,50,02,C3,
3833138,00000157,false,Rx,0,8,D5,BB,09,C4,FF,E0,00,80,
3834073,000001A1,false,Rx,0,8,B0,C5,70,0F,E5,8C,80,20,
3834387,00000500,false,Rx,0,5,02,4A,AB,27,37,00,00,00,
3835428,000001C7,false,Rx,0,4,AA,A0,FF,C0,00,00,00,00,
3839062,0000019F,false,Rx,0,8,E1,E1,7D,0A,00,6A,50,FE,
3839649,00000155,false,Rx,0,8,45,87,C4,54,96,50,02,C3,
3843196,00000157,false,Rx,0,8,D5,0B,09,C4,FF,E0,00,80,
3844070,000001A1,false,Rx,0,8,B0,C5,70,0F,E5,8C,80,20,
3845545,000004F7,false,Rx,0,8,00,1A,08,00,90,2C,06,F0,
3845658,000001C7,false,Rx,0,4,AA,A0,FF,C0,00,00,00,00,
3845970,00000428,false,Rx,0,8,00,00,00,7F,00,00,00,00,
3846101,0000042F,false,Rx,0,2,00,20,00,00,00,00,00,00,
3849289,0000019F,false,Rx,0,8,E1,E1,7D,0F,00,6A,50,FE,
3849618,00000155,false,Rx,0,8,45,87,C5,54,96,50,02,C3,
3850117,00000445,false,Rx,0,7,80,55,AA,65,04,82,00,00,
3853434,00000157,false,Rx,0,8,D5,5B,09,C4,FF,E0,00,80,
3854183,000001A1,false,Rx,0,8,B1,05,5C,10,15,8C,80,20,
3855450,0000069F,false,Rx,0,4,71,30,28,2F,00,00,00,00,
3855528,000001C7,false,Rx,0,4,AA,A0,FF,C0,00,00,00,00,
3858170,00000423,false,Rx,0,8,0B,1D,00,02,5D,80,B2,D8,
3859322,0000019F,false,Rx,0,8,E1,E1,7D,04,00,6A,50,FE,
3859647,00000155,false,Rx,0,8,45,87,C5,54,96,50,02,C3,
3859807,00000424,false,Rx,0,8,11,40,56,C8,33,5E,55,34,
3860072,00000425,false,Rx,0,8,2A,BA,44,9C,42,18,CD,0B,
3863413,00000157,false,Rx,0,8,D5,AB,09,C4,FF,E0,00,80,
3863423,00000426,false,Rx,0,8,00,60,01,00,53,18,00,40,
3864183,000001A1,false,Rx,0,8,B1,05,70,0F,E5,8C,80,20,
3865588,000001C7,false,Rx,0,4,AA,A0,FF,C0,00,00,00,00,
3869102,0000019F,false,Rx,0,8,E1,E1,7D,09,00,6A,50,FE,
3869700,00000155,false,Rx,0,8,45,87,C5,54,96,50,02,C3,
3873228,00000157,false,Rx,0,8,D5,FB,09,C4,FF,E0,00,80,
3874285,000001A1,false,Rx,0,8,B0,C5,5C,0F,E5,8C,80,20,
3875687,000001C7,false,Rx,0,4,AA,A0,FF,C0,00,00,00,00,
3878360,00000435,false,Rx,0,8,FF,FF,1E,0B,2E,10,00,00,
3879282,0000019F,false,Rx,0,8,E1,E1,7D,0E,00,6A,50,FE,
3879295,00000419,false,Rx,0,6,5E,22,32,E6,44,00,00,00,
3879809,00000155,false,Rx,0,8,45,87,C5,54,96,50,02,C3,
3883410,00000157,false,Rx,0,8,D5,4B,09,C4,FF,E0,00,80,
3883419,00000436,false,Rx,0,6,86,16,64,3E,FF,DC,00,00,
3884245,000001A1,false,Rx,0,8,B0,C5,5C,10,05,8C,80,20,
3885719,000001C7,false,Rx,0,4,AA,A0,FF,C0,00,00,00,00,
3889310,0000019F,false,Rx,0,8,E1,E1,7D,03,00,6A,50,FE,
3889619,00000155,false,Rx,0,8,45,87,C5,54,96,50,02,C3,
3893392,00000157,false,Rx,0,8,D5,9B,09,C4,FF,E0,00,80,
3894187,000001A1,false,Rx,0,8,B1,05,70,0F,E5,8C,80,20,
3895659,000001C7,false,Rx,0,4,AA,A0,FF,C0,00,00,00,00,
3899169,0000019F,false,Rx,0,8,E1,E1,7D,08,00,6A,50,FE,
3899790,00000155,false,Rx,0,8,45,87,C5,54,96,50,02,C3,
3903340,00000157,false,Rx,0,8,D5,EB,09,C4,FF,E0,00,80,
3904092,000001A1,false,Rx,0,8,B0,C5,70,0F,E5,8C,80,20,
3905661,000001C7,false,Rx,0,4,AA,A0,FF,C0,00,00,00,00,
3909080,0000019F,false,Rx,0,8,E1,E1,7D,0D,00,6A,50,FE,
3909658,00000155,false,Rx,0,8,45,87,C4,54,96,50,02,C3,
3913153,00000157,false,Rx,0,8,D5,3B,09,C4,FF,E0,00,80,
3914071,000001A1,false,Rx,0,8,B0,C5,70,0F,F5,8C,80,20,
3915471,000001C7,false,Rx,0,4,AA,A0,FF,C0,00,00,00,00,
3919097,0000019F,false,Rx,0,8,E1,E1,7D,02,00,6A,50,FE,
3919648,00000155,false,Rx,0,8,45,87,C5,54,96,50,02,C3,
3923147,00000157,false,Rx,0,8,D5,8B,09,C4,FF,E0,00,80,
3924070,000001A1,false,Rx,0,8,B1,05,70,0F,E5,8C,80,20,
3925474,000001C7,false,Rx,0,4,AA,A0,FF,C0,00,00,00,00,
3929116,0000019F,false,Rx,0,8,E1,E1,7D,07,00,6A,50,FE,
3929303,00000511,false,Rx,0,7,00,1C,7F,CB,25,F9,17,00,
3929688,00000155,false,Rx,0,8,45,87,C5,54,96,50,02,C3,
3933172,00000157,false,Rx,0,8,D5,DB,09,C4,FF,E0,00,80,
3934071,000001A1,false,Rx,0,8,B0,C5,5C,0F,E5,8C,80,20,
3934427,00000500,false,Rx,0,5,02,2D,A3,D7,B1,00,00,00,
3935436,000001C7,false,Rx,0,4,AA,A0,FF,C0,00,00,00,00,
3939071,0000019F,false,Rx,0,8,E1,E1,7D,0C,00,6A,50,FE,
3939574,00000155,false,Rx,0,8,45,87,C5,54,96,50,02,C3,
3943223,00000157,false,Rx,0,8,D5,2B,09,C4,FF,E0,00,80,
3944071,000001A1,false,Rx,0,8,B0,C5,70,0F,F5,8C,80,20,
3945548,000004F7,false,Rx,0,8,00,1A,08,00,90,2C,06,F0,
3945684,000001C7,false,Rx,0,4,AA,A0,FF,C0,00,00,00,00,
3946009,00000428,false,Rx,0,8,00,00,00,7F,00,00,00,00,
3946102,0000042F,false,Rx,0,2,00,20,00,00,00,00,00,00,
3949071,0000019F,false,Rx,0,8,E1,E1,7D,01,00,6A,50,FE,
3949576,00000155,false,Rx,0,8,45,87,C5,54,96,50,02,C3,
3949971,00000445,false,Rx,0,7,80,55,AA,65,04,82,00,00,
3953197,00000157,false,Rx,0,8,D5,7B,09,C4,FF,E0,00,80,
3954070,000001A1,false,Rx,0,8,B1,05,5C,0F,E5,8C,80,20,
3955497,000001C7,false,Rx,0,4,AA,A0,FF,C0,00,00,00,00,
3958146,00000423,false,Rx,0,8,0B,1D,00,02,5D,80,B2,D8,
3959097,0000019F,false,Rx,0,8,E1,E1,7D,06,00,6A,50,FE,
3959601,00000155,false,Rx,0,8,45,87,C5,54,96,50,02,C3,
3959827,00000424,false,Rx,0,8,11,40,56,C8,33,5E,55,34,
3960072,00000425,false,Rx,0,8,2A,BA,44,9C,42,18,CD,0B,
3963221,00000157,false,Rx,0,8,D5,CB,09,C4,FF,E0,00,80,
3963424,00000426,false,Rx,0,8,00,60,01,00,53,18,00,40,
3964018,000001A1,false,Rx,0,8,B0,C5,70,0F,E5,8C,80,20,
3965446,000001C7,false,Rx,0,4,AA,A0,FF,C0,00,00,00,00,
3969022,0000019F,false,Rx,0,8,E1,E1,7D,0B,00,6A,50,FE,
3969518,00000155,false,Rx,0,8,45,87,C4,54,96,50,02,C3,
3973156,00000157,false,Rx,0,8,D5,1B,09,C4,FF,E0,00,80,
3974037,000001A1,false,Rx,0,8,B0,C5,5C,0F,F5,8C,80,20,
3975464,000001C7,false,Rx,0,4,AA,A0,FF,C0,00,00,00,00,
3978117,00000435,false,Rx,0,8,FF,FF,1E,0B,2E,10,00,00,
3979060,0000019F,false,Rx,0,8,E1,E1,7D,00,00,6A,50,FE,
3979312,00000419,false,Rx,0,6,5E,22,32,E6,44,00,00,00,
3979565,00000155,false,Rx,0,8,45,87,C5,54,96,50,02,C3,
3983111,00000157,false,Rx,0,8,D5,6B,09,C4,FF,E0,00,80,
3983312,00000436,false,Rx,0,6,86,16,64,3E,FF,DC,00,00,
3984037,000001A1,false,Rx,0,8,B1,05,70,0F,E5,8C,80,20,
3985461,000001C7,false,Rx,0,4,AA,A0,FF,C0,00,00,00,00,
3989029,0000019F,false,Rx,0,8,E1,E1,7D,05,00,6A,50,FE,
3989549,00000155,false,Rx,0,8,45,87,C5,54,96,50,02,C3,
3993175,00000157,false,Rx,0,8,D5,BB,09,C4,FF,E0,00,80,
3994026,000001A1,false,Rx,0,8,B0,C5,70,0F,E5,8C,80,20,
3995452,000001C7,false,Rx,0,4,AA,A0,FF,C0,00,00,00,00,
3999054,0000019F,false,Rx,0,8,E1,E1,7D,0A,00,6A,50,FE,
3999704,00000155,false,Rx,0,8,45,87,C5,54,96,50,02,C3,
4003153,00000157,false,Rx,0,8,D5,0B,09,C4,FF,E0,00,80,
4004034,000001A1,false,Rx,0,8,B0,C5,5C,10,05,8C,80,20,
4005486,000001C7,false,Rx,0,4,AA,A0,FF,C0,00,00,00,00,
4009066,0000019F,false,Rx,0,8,E1,E1,7D,0F,00,6A,50,FE,
4009563,00000155,false,Rx,0,8,45,87,C5,54,96,50,02,C3,
4013191,00000157,false,Rx,0,8,D5,5B,09,C4,FF,E0,00,80,
4014036,000001A1,false,Rx,0,8,B1,05,70,0F,E5,8C,80,20,
4015488,000001C7,false,Rx,0,4,AA,A0,FF,C0,00,00,00,00,
4019066,0000019F,false,Rx,0,8,E1,E1,7D,04,00,6A,50,FE,
4019564,00000155,false,Rx,0,8,45,87,C5,54,96,50,02,C3,
4023090,00000157,false,Rx,0,8,D5,AB,09,C4,FF,E0,00,80,
4024037,000001A1,false,Rx,0,8,B0,C5,70,0F,E5,8C,80,20,
4025487,000001C7,false,Rx,0,4,AA,A0,FF,C0,00,00,00,00,
4029067,0000019F,false,Rx,0,8,E1,E1,7D,09,00,6A,50,FE,
4029314,00000511,false,Rx,0,7,00,5B,48,84,90,06,FA,00,
4029615,00000155,false,Rx,0,8,45,87,C4,54,96,50,02,C2,
4033113,00000157,false,Rx,0,8,D5,FB,09,C4,FF,E0,00,80,
4034034,000001A1,false,Rx,0,8,B1,05,70,10,15,8C,80,20,
4034361,00000500,false,Rx,0,5,02,25,0C,3C,DD,00,00,00,
4035481,000001C7,false,Rx,0,4,AA,A0,FF,C0,00,00,00,00,
4039052,0000019F,false,Rx,0,8,E1,E1,7D,0E,00,6A,50,FE,
4039599,00000155,false,Rx,0,8,45,87,C4,54,96,50,02,C2,
4043155,00000157,false,Rx,0,8,D5,4B,09,C4,FF,E0,00,80,
4044022,000001A1,false,Rx,0,8,B0,C5,70,0F,E5,8C,80,20,
4045554,000004F7,false,Rx,0,8,00,1A,08,00,90,2C,06,F0,
4045729,000001C7,false,Rx,0,4,AA,A0,FF,C0,00,00,00,00,
4046025,00000428,false,Rx,0,8,00,00,00,7F,00,00,00,00,
4046152,0000042F,false,Rx,0,2,00,20,00,00,00,00,00,00,
4049029,0000019F,false,Rx,0,8,E1,E1,7D,03,00,6A,50,FE,
4049529,00000155,false,Rx,0,8,45,87,C5,54,96,50,02,C2,
4049894,00000445,false,Rx,0,7,80,55,AA,65,04,82,00,00,
4053180,00000157,false,Rx,0,8,D5,9B,09,C4,FF,E0,00,80,
4054030,000001A1,false,Rx,0,8,B1,05,70,0F,E5,8C,80,20,
4055502,000001C7,false,Rx,0,4,AA,A0,FF,C0,00,00,00,00,
4058051,00000423,false,Rx,0,8,0B,1D,00,02,5D,80,B2,D8,
4059069,0000019F,false,Rx,0,8,E1,E1,7D,08,00,6A,50,FE,
4059555,00000155,false,Rx,0,8,45,87,C5,54,96,50,02,C2,
4059804,00000424,false,Rx,0,8,11,40,56,C8,33,5E,55,34,
4060025,00000425,false,Rx,0,8,2A,BA,44,9C,42,18,CD,0B,
4063137,00000157,false,Rx,0,8,D5,EB,09,C4,FF,E0,00,80,
4063378,00000426,false,Rx,0,8,00,60,01,00,53,18,00,40,
4064052,000001A1,false,Rx,0,8,B1,05,5C,10,15,8C,80,20,
4065504,000001C7,false,Rx,0,4,AA,A0,FF,C0,00,00,00,00,
4069032,0000019F,false,Rx,0,8,E1,E1,7D,0D,00,6A,50,FE,
4069536,00000155,false,Rx,0,8,45,87,C5,54,96,50,02,C2,
4073162,00000157,false,Rx,0,8,D5,3B,09,C4,FF,E0,00,80,
4074033,000001A1,false,Rx,0,8,B0,C5,5C,0F,E5,8C,80,20,
4075505,000001C7,false,Rx,0,4,AA,A0,FF,C0,00,00,00,00,
4078099,00000435,false,Rx,0,8,FF,FF,1E,0B,2E,10,00,00,
4079051,0000019F,false,Rx,0,8,E1,E1,7D,02,00,6A,50,FE,
4079303,00000419,false,Rx,0,6,5E,22,32,E6,44,00,00,00,
4079547,00000155,false,Rx,0,8,45,87,C5,54,96,50,02,C2,
4083163,00000157,false,Rx,0,8,D5,8B,09,C4,FF,E0,00,80,
4083357,00000436,false,Rx,0,6,86,16,64,3E,FF,DC,00,00,
4084029,000001A1,false,Rx,0,8,B0,C5,70,0F,E5,8C,80,20,
4085519,000001C7,false,Rx,0,4,AA,A0,FF,C0,00,00,00,00,
4089063,0000019F,false,Rx,0,8,E1,E1,7D,07,00,6A,50,FE,
4089529,00000155,false,Rx,0,8,45,87,C4,54,96,50,02,C2,
4093127,00000157,false,Rx,0,8,D5,DB,09,C4,FF,E0,00,80,
4094028,000001A1,false,Rx,0,8,B1,05,70,10,15,8C,80,20,
4095497,000001C7,false,Rx,0,4,AA,A0,FF,C0,00,00,00,00,
4099025,0000019F,false,Rx,0,8,E1,E1,7D,0C,00,6A,50,FE,
4099597,00000155,false,Rx,0,8,45,87,C4,54,96,50,02,C2,
4103153,00000157,false,Rx,0,8,D5,2B,09,C4,FF,E0,00,80,
4104022,000001A1,false,Rx,0,8,B1,05,70,0F,E5,8C,80,20,
4105501,000001C7,false,Rx,0,4,AA,A0,FF,C0,00,00,00,00,
4109051,0000019F,false,Rx,0,8,E1,E1,7D,01,00,6A,50,FE,
4109583,00000155,false,Rx,0,8,45,87,C5,54,96,50,02,C2,
4113151,00000157,false,Rx,0,8,D5,7B,09,C4,FF,E0,00,80,
4114025,000001A1,false,Rx,0,8,B0,C5,70,0F,E5,8C,80,20,
4115526,000001C7,false,Rx,0,4,AA,A0,FF,C0,00,00,00,00,
4119053,0000019F,false,Rx,0,8,E1,E1,7D,06,00,6A,50,FE,
4119573,00000155,false,Rx,0,8,45,87,C5,54,96,50,02,C2,
4123178,00000157,false,Rx,0,8,D5,CB,09,C4,FF,E0,00,80,
4124024,000001A1,false,Rx,0,8,B1,05,5C,10,05,8C,80,20,
