Time Stamp,ID,Extended,Dir,Bus,LEN,D1,D2,D3,D4,D5,D6,D7,D8
748153,00000155,false,Rx,0,8,47,87,C5,54,96,88,02,C2,
748772,00000500,false,Rx,0,5,02,CB,B9,69,97,00,00,00,
749943,000001C7,false,Rx,0,4,AA,A0,FF,C0,00,00,00,00,
750269,00000157,false,Rx,0,8,D5,9B,09,C4,FF,E0,00,80,
751747,000001A1,false,Rx,0,8,B1,05,5C,11,15,8C,80,20,
756728,0000019F,false,Rx,0,8,E1,E1,7D,08,00,6A,50,FE,
758242,00000155,false,Rx,0,8,47,87,C5,54,96,88,02,C1,
759939,000001C7,false,Rx,0,4,AA,A0,FF,C0,00,00,00,00,
760183,00000157,false,Rx,0,8,D5,EB,09,C4,FF,E0,00,80,
761686,000001A1,false,Rx,0,8,B0,C5,5C,11,15,8C,80,20,
766720,0000019F,false,Rx,0,8,E1,E1,7D,0D,00,6A,50,FE,
768215,00000155,false,Rx,0,8,47,87,C5,54,96,88,02,C2,
769939,000001C7,false,Rx,0,4,AA,A0,FF,C0,00,00,00,00,
770289,00000157,false,Rx,0,8,D5,3B,09,C4,FF,E0,00,80,
771684,000001A1,false,Rx,0,8,B1,05,5C,11,15,8C,80,20,
776719,0000019F,false,Rx,0,8,E1,E1,7D,02,00,6A,50,FE,
778214,00000155,false,Rx,0,8,47,87,C6,54,96,88,02,C2,
779937,000001C7,false,Rx,0,4,AA,A0,FF,C0,00,00,00,00,
780189,00000157,false,Rx,0,8,D5,8B,09,C4,FF,E0,00,80,
781691,000001A1,false,Rx,0,8,B1,05,5C,11,15,8C,80,20,
786719,0000019F,false,Rx,0,8,E1,E1,7D,07,00,6A,50,FE,
786988,00000511,false,Rx,0,7,00,8C,8F,DB,55,49,C7,00,
788239,00000155,false,Rx,0,8,47,87,C6,54,96,88,02,C2,
789939,000001C7,false,Rx,0,4,AA,A0,FF,C0,00,00,00,00,
790189,00000157,false,Rx,0,8,D5,DB,09,C4,FF,E0,00,80,
791713,000001A1,false,Rx,0,8,B0,C5,5C,11,15,8C,80,20,
796717,0000019F,false,Rx,0,8,E1,E1,7D,0C,00,6A,50,FE,
798166,00000155,false,Rx,0,8,47,87,C6,54,96,88,02,C2,
799966,000001C7,false,Rx,0,4,AA,A0,FF,C0,00,00,00,00,
800217,00000157,false,Rx,0,8,D5,2B,09,C4,FF,E0,00,80,
801689,000001A1,false,Rx,0,8,B0,C5,5C,11,15,8C,80,20,
806717,0000019F,false,Rx,0,8,E1,E1,7D,01,00,6A,50,FE,
808140,00000155,false,Rx,0,8,47,87,C5,54,96,88,02,C2,
809966,000001C7,false,Rx,0,4,AA,A0,FF,C0,00,00,00,00,
810216,00000157,false,Rx,0,8,D5,7B,09,C4,FF,E0,00,80,
811715,000001A1,false,Rx,0,8,B1,05,5C,11,15,8C,80,20,
813415,00000445,false,Rx,0,7,80,55,55,65,04,82,00,00,
815116,00000423,false,Rx,0,8,0B,1D,00,02,B2,80,5D,D8,
816715,0000019F,false,Rx,0,8,E1,E1,7D,06,00,6A,50,FE,
818139,00000155,false,Rx,0,8,47,87,C5,54,96,88,02,C2,
818367,00000424,false,Rx,0,8,11,40,56,C8,33,5E,AA,34,
818594,00000425,false,Rx,0,8,2A,BA,44,9C,42,18,CD,0B,
819965,000001C7,false,Rx,0,4,AA,A0,FF,C0,00,00,00,00,
820267,00000157,false,Rx,0,8,D5,CB,09,C4,FF,E0,00,80,
820519,00000426,false,Rx,0,8,00,60,01,00,53,18,00,40,
821714,000001A1,false,Rx,0,8,B1,05,5C,11,15,8C,80,20,
826718,0000019F,false,Rx,0,8,E1,E1,7D,0B,00,6A,50,FE,
828141,00000155,false,Rx,0,8,47,87,C5,54,96,88,02,C2,
829970,000001C7,false,Rx,0,4,AA,A0,FF,C0,00,00,00,00,
830198,00000157,false,Rx,0,8,D5,1B,09,C4,FF,E0,00,80,
831710,000001A1,false,Rx,0,8,B0,C5,5C,11,15,8C,80,20,
835191,00000435,false,Rx,0,8,FF,FF,1E,0B,2E,10,00,00,
836716,0000019F,false,Rx,0,8,E1,E1,7D,00,00,6A,50,FE,
836989,00000419,false,Rx,0,6,5E,22,32,E6,40,00,00,00,
838164,00000155,false,Rx,0,8,47,87,C5,54,96,88,02,C2,
840041,000004F7,false,Rx,0,8,00,1A,08,00,90,30,06,F0,
840267,00000157,false,Rx,0,8,D5,6B,09,C4,FF,E0,00,80,
840445,000001C7,false,Rx,0,4,AA,A0,FF,C0,00,00,00,00,
840648,00000436,false,Rx,0,6,86,16,64,3C,FF,DC,00,00,
840907,00000428,false,Rx,0,8,00,00,00,7F,00,00,00,00,
841037,0000042F,false,Rx,0,2,00,20,00,00,00,00,00,00,
841691,000001A1,false,Rx,0,8,B1,05,5C,11,15,8C,80,20,
846753,0000019F,false,Rx,0,8,E1,E1,7D,05,00,6A,50,FE,
848174,00000155,false,Rx,0,8,47,87,C6,54,96,88,02,C2,
848826,00000500,false,Rx,0,5,02,4C,D8,09,86,00,00,00,
850001,000001C7,false,Rx,0,4,AA,A0,FF,C0,00,00,00,00,
850254,00000157,false,Rx,0,8,D5,BB,09,C4,FF,E0,00,80,
851725,000001A1,false,Rx,0,8,B1,05,5C,11,15,8C,80,20,
856738,0000019F,false,Rx,0,8,E1,E1,7D,0A,00,6A,50,FE,
858401,00000155,false,Rx,0,8,47,87,C6,54,96,88,02,C2,
860056,000001C7,false,Rx,0,4,AA,A0,FF,C0,00,00,00,00,
860390,00000157,false,Rx,0,8,D5,0B,09,C4,FF,E0,00,80,
861805,000001A1,false,Rx,0,8,B1,05,5C,11,15,8C,80,20,
866688,0000019F,false,Rx,0,8,E1,E1,7D,0F,00,6A,50,FE,
868201,00000155,false,Rx,0,8,47,87,C6,54,96,88,02,C2,
870026,000001C7,false,Rx,0,4,AA,A0,FF,C0,00,00,00,00,
870280,00000157,false,Rx,0,8,D5,5B,09,C4,FF,E0,00,80,
871676,000001A1,false,Rx,0,8,B1,05,5C,11,15,8C,80,20,
876688,0000019F,false,Rx,0,8,E1,E1,7D,04,00,6A,50,FE,
878203,00000155,false,Rx,0,8,47,87,C5,54,96,88,02,C2,
880025,000001C7,false,Rx,0,4,AA,A0,FF,C0,00,00,00,00,
880257,00000157,false,Rx,0,8,D5,AB,09,C4,FF,E0,00,80,
881682,000001A1,false,Rx,0,8,B1,05,5C,11,15,8C,80,20,
886678,0000019F,false,Rx,0,8,E1,E1,7D,09,00,6A,50,FE,
886943,00000511,false,Rx,0,7,00,CB,58,94,C0,56,AA,00,
888278,00000155,false,Rx,0,8,47,87,C5,54,96,88,02,C2,
890028,000001C7,false,Rx,0,4,AA,A0,FF,C0,00,00,00,00,
890278,00000157,false,Rx,0,8,D5,FB,09,C4,FF,E0,00,80,
891640,000001A1,false,Rx,0,8,B1,05,5C,10,F5,8C,80,20,
896639,0000019F,false,Rx,0,8,E1,E1,7D,0E,00,6A,50,FE,
898200,00000155,false,Rx,0,8,47,87,C5,54,96,88,02,C2,
900030,000001C7,false,Rx,0,4,AA,A0,FF,C0,00,00,00,00,
900253,00000157,false,Rx,0,8,D5,4B,09,C4,FF,E0,00,80,
901644,000001A1,false,Rx,0,8,B0,C5,5C,10,F5,8C,80,20,
906646,0000019F,false,Rx,0,8,E1,E1,7D,03,00,6A,50,FE,
908145,00000155,false,Rx,0,8,47,87,C5,54,96,88,02,C2,
910028,000001C7,false,Rx,0,4,AA,A0,FF,C0,00,00,00,00,
910246,00000157,false,Rx,0,8,D5,9B,09,C4,FF,E0,00,80,
911647,000001A1,false,Rx,0,8,B0,C5,5C,10,F5,8C,80,20,
913425,00000445,false,Rx,0,7,80,55,55,65,04,82,00,00,
915150,00000423,false,Rx,0,8,0B,1D,00,02,B2,80,5D,D8,
916658,0000019F,false,Rx,0,8,E1,E1,7D,08,00,6A,50,FE,
918150,00000155,false,Rx,0,8,47,87,C6,54,96,88,02,C2,
918377,00000424,false,Rx,0,8,11,40,56,C8,33,5E,AA,34,
918583,00000425,false,Rx,0,8,2A,BA,44,9C,42,18,CD,0B,
920025,000001C7,false,Rx,0,4,AA,A0,FF,C0,00,00,00,00,
920253,00000157,false,Rx,0,8,D5,EB,09,C4,FF,E0,00,80,
920505,00000426,false,Rx,0,8,00,60,01,00,53,18,00,40,
921642,000001A1,false,Rx,0,8,B1,05,5C,10,F5,8C,80,20,
926651,0000019F,false,Rx,0,8,E1,E1,7D,0D,00,6A,50,FE,
928155,00000155,false,Rx,0,8,47,87,C6,54,96,88,02,C2,
930029,000001C7,false,Rx,0,4,AA,A0,FF,C0,00,00,00,00,
930253,00000157,false,Rx,0,8,D5,3B,09,C4,FF,E0,00,80,
931653,000001A1,false,Rx,0,8,B1,05,5C,10,F5,8C,80,20,
935205,00000435,false,Rx,0,8,FF,FF,1E,0B,2E,10,00,00,
936650,0000019F,false,Rx,0,8,E1,E1,7D,02,00,6A,50,FE,
936917,00000419,false,Rx,0,6,5E,22,32,E6,40,00,00,00,
938150,00000155,false,Rx,0,8,47,87,C6,54,96,88,02,C2,
940105,000004F7,false,Rx,0,8,00,1A,08,00,90,30,06,F0,
940330,00000157,false,Rx,0,8,D5,8B,09,C4,FF,E0,00,80,
940508,000001C7,false,Rx,0,4,AA,A0,FF,C0,00,00,00,00,
940762,00000428,false,Rx,0,8,00,00,00,7F,00,00,00,00,
940921,0000042F,false,Rx,0,2,00,20,00,00,00,00,00,00,
941102,00000436,false,Rx,0,6,86,16,64,3C,FF,DC,00,00,
941630,000001A1,false,Rx,0,8,B0,C5,5C,10,F5,8C,80,20,
946676,0000019F,false,Rx,0,8,E1,E1,7D,07,00,6A,50,FE,
948181,00000155,false,Rx,0,8,47,87,C5,54,96,88,02,C1,
948980,00000500,false,Rx,0,5,02,B6,E1,AB,95,00,00,00,
950044,000001C7,false,Rx,0,4,AA,A0,FF,C0,00,00,00,00,
950305,00000157,false,Rx,0,8,D5,DB,09,C4,FF,E0,00,80,
951695,000001A1,false,Rx,0,8,B1,05,5C,10,F5,8C,80,20,
956704,0000019F,false,Rx,0,8,E1,E1,7D,0C,00,6A,50,FE,
958390,00000155,false,Rx,0,8,47,87,C5,54,96,88,02,C2,
960091,000001C7,false,Rx,0,4,AA,A0,FF,C0,00,00,00,00,
960318,00000157,false,Rx,0,8,D5,2B,09,C4,FF,E0,00,80,
961653,000001A1,false,Rx,0,8,B1,05,5C,10,F5,8C,80,20,
966696,0000019F,false,Rx,0,8,E1,E1,7D,01,00,6A,50,FE,
968241,00000155,false,Rx,0,8,47,87,C5,54,96,88,02,C2,
970092,000001C7,false,Rx,0,4,AA,A0,FF,C0,00,00,00,00,
970301,00000157,false,Rx,0,8,D5,7B,09,C4,FF,E0,00,80,
971683,000001A1,false,Rx,0,8,B0,C5,5C,10,F5,8C,80,20,
976705,0000019F,false,Rx,0,8,E1,E1,7D,06,00,6A,50,FE,
978250,00000155,false,Rx,0,8,47,87,C5,54,96,88,02,C2,
980055,000001C7,false,Rx,0,4,AA,A0,FF,C0,00,00,00,00,
980274,00000157,false,Rx,0,8,D5,CB,09,C4,FF,E0,00,80,
981648,000001A1,false,Rx,0,8,B1,05,5C,10,F5,8C,80,20,
986660,0000019F,false,Rx,0,8,E1,E1,7D,0B,00,6A,50,FE,
986915,00000511,false,Rx,0,7,00,0A,21,4D,2B,63,8D,00,
988266,00000155,false,Rx,0,8,47,87,C5,54,96,88,02,C2,
990077,000001C7,false,Rx,0,4,AA,A0,FF,C0,00,00,00,00,
990301,00000157,false,Rx,0,8,D5,1B,09,C4,FF,E0,00,80,
991633,000001A1,false,Rx,0,8,B1,05,5C,10,F5,8C,80,20,
996670,0000019F,false,Rx,0,8,E1,E1,7D,00,00,6A,50,FE,
998216,00000155,false,Rx,0,8,47,87,C6,54,96,88,02,C1,
1000119,000001C7,false,Rx,0,4,AA,A0,FF,C0,00,00,00,00,
1000344,00000157,false,Rx,0,8,D5,6B,09,C4,FF,E0,00,80,
1001691,000001A1,false,Rx,0,8,B0,C5,5C,10,F5,8C,80,20,
1006694,0000019F,false,Rx,0,8,E1,E1,7D,05,00,6A,50,FE,
1008191,00000155,false,Rx,0,8,47,87,C6,54,96,88,02,C2,
1010116,000001C7,false,Rx,0,4,AA,A0,FF,C0,00,00,00,00,
1010344,00000157,false,Rx,0,8,D5,BB,09,C4,FF,E0,00,80,
1011644,000001A1,false,Rx,0,8,B0,C5,5C,10,F5,8C,80,20,
1013421,00000445,false,Rx,0,7,80,55,55,65,04,82,00,00,
1015191,00000423,false,Rx,0,8,0B,1D,00,02,B2,80,5D,D8,
1016638,0000019F,false,Rx,0,8,E1,E1,7D,0A,00,6A,50,FE,
1018115,00000155,false,Rx,0,8,47,87,C5,54,96,88,02,C2,
1018407,00000424,false,Rx,0,8,11,40,56,C8,33,5E,AA,34,
1018598,00000425,false,Rx,0,8,2A,BA,44,9C,42,1A,CD,0B,
1018829,000004AE,false,Rx,0,8,D2,B2,3C,A0,92,5A,88,84,
1018977,00000659,false,Rx,0,4,26,00,03,36,00,00,00,00,
1019156,000004AF,false,Rx,0,5,65,3B,4B,3A,40,00,00,00,
1020083,000001C7,false,Rx,0,4,AA,A0,FF,C0,00,00,00,00,
1020304,00000157,false,Rx,0,8,D5,0B,09,C4,FF,E0,00,80,
1020545,00000426,false,Rx,0,8,00,60,01,00,53,18,00,40,
1021627,000001A1,false,Rx,0,8,B1,05,5C,10,F5,8C,80,20,
1026826,0000019F,false,Rx,0,8,E1,E1,7D,0F,00,6A,50,FE,
1028263,00000155,false,Rx,0,8,47,87,C5,54,96,88,02,C2,
1030213,000001C7,false,Rx,0,4,AA,A0,FF,C0,00,00,00,00,
1030338,00000157,false,Rx,0,8,D5,5B,09,C4,FF,E0,00,80,
1031699,000001A1,false,Rx,0,8,B0,C5,5C,10,F5,8C,80,20,
1035161,00000435,false,Rx,0,8,FF,FF,1E,0B,2E,10,00,00,
1036642,0000019F,false,Rx,0,8,E1,E1,7D,04,00,6A,50,FE,
1036984,00000419,false,Rx,0,6,5E,22,32,E6,40,00,00,00,
1038203,00000155,false,Rx,0,8,47,87,C5,54,96,88,02,C2,
1040228,000004F7,false,Rx,0,8,00,1A,08,00,90,30,06,F0,
1040415,00000157,false,Rx,0,8,D5,AB,09,C4,FF,E0,00,80,
1040537,000001C7,false,Rx,0,4,AA,A0,FF,C0,00,00,00,00,
1040884,00000428,false,Rx,0,8,00,00,00,7F,00,00,00,00,
1041032,00000436,false,Rx,0,6,86,16,64,3C,FF,DC,00,00,
1041196,0000042F,false,Rx,0,2,00,20,00,00,00,00,00,00,
1041612,000001A1,false,Rx,0,8,B0,C5,5C,10,F5,8C,80,20,
1046908,0000019F,false,Rx,0,8,E1,E1,7D,09,00,6A,50,FE,
1048405,00000155,false,Rx,0,8,47,87,C5,54,96,88,02,C2,
1049079,00000500,false,Rx,0,5,02,47,B8,C2,49,00,00,00,
1050254,000001C7,false,Rx,0,4,AA,A0,FF,C0,00,00,00,00,
1050404,00000157,false,Rx,0,8,D5,FB,09,C4,FF,E0,00,80,
1051805,000001A1,false,Rx,0,8,B1,05,5C,10,F5,8C,80,20,
1056707,0000019F,false,Rx,0,8,E1,E1,7D,0E,00,6A,50,FE,
1058409,00000155,false,Rx,0,8,47,87,C6,54,96,88,02,C2,
1060258,000001C7,false,Rx,0,4,AA,A0,FF,C0,00,00,00,00,
1060333,00000157,false,Rx,0,8,D5,4B,09,C4,FF,E0,00,80,
1061907,000001A1,false,Rx,0,8,B1,05,5C,10,F5,8C,80,20,
1066903,0000019F,false,Rx,0,8,E1,E1,7D,03,00,6A,50,FE,
1068335,00000155,false,Rx,0,8,47,87,C6,54,96,88,02,C2,
1070384,000001C7,false,Rx,0,4,AA,A0,FF,C0,00,00,00,00,
1070393,00000157,false,Rx,0,8,D5,9B,09,C4,FF,E0,00,80,
1071746,000001A1,false,Rx,0,8,B1,05,5C,10,F5,8C,80,20,
1076752,0000019F,false,Rx,0,8,E1,E1,7D,08,00,6A,50,FE,
1078410,00000155,false,Rx,0,8,47,87,C5,54,96,88,02,C2,
1080378,000001C7,false,Rx,0,4,AA,A0,FF,C0,00,00,00,00,
1080387,00000157,false,Rx,0,8,D5,EB,09,C4,FF,E0,00,80,
1081788,000001A1,false,Rx,0,8,B1,05,5C,10,F5,8C,80,20,
1086815,0000019F,false,Rx,0,8,E1,E1,7D,0D,00,6A,50,FE,
1086975,00000511,false,Rx,0,7,00,49,EA,06,96,70,70,00,
1088480,00000155,false,Rx,0,8,47,87,C5,54,96,88,02,C2,
1090133,000001C7,false,Rx,0,4,AA,A0,FF,C0,00,00,00,00,
1090404,00000157,false,Rx,0,8,D5,3B,09,C4,FF,E0,00,80,
1091703,000001A1,false,Rx,0,8,B1,05,5C,10,F5,8C,80,20,
1096838,0000019F,false,Rx,0,8,E1,E1,7D,02,00,6A,50,FE,
1098459,00000155,false,Rx,0,8,47,87,C5,54,96,88,02,C2,
1100370,000001C7,false,Rx,0,4,AA,A0,FF,C0,00,00,00,00,
1100379,00000157,false,Rx,0,8,D5,8B,09,C4,FF,E0,00,80,
1101908,000001A1,false,Rx,0,8,B1,05,5C,10,F5,8C,80,20,
1106887,0000019F,false,Rx,0,8,E1,E1,7D,07,00,6A,50,FE,
1108282,00000155,false,Rx,0,8,47,87,C5,54,96,88,02,C2,
1110449,00000157,false,Rx,0,8,D5,DB,09,C4,FF,E0,00,80,
1110457,000001C7,false,Rx,0,4,AA,A0,FF,C0,00,00,00,00,
1111781,000001A1,false,Rx,0,8,B0,C5,5C,10,F5,8C,80,20,
1113556,00000445,false,Rx,0,7,80,55,55,65,04,82,00,00,
1115249,00000423,false,Rx,0,8,0B,1D,00,02,B2,80,5D,D8,
1116668,0000019F,false,Rx,0,8,E1,E1,7D,0C,00,6A,50,FE,
1118168,00000155,false,Rx,0,8,47,87,C6,54,96,88,02,C2,
1118397,00000424,false,Rx,0,8,11,40,56,C8,33,5E,AA,34,
1118624,00000425,false,Rx,0,8,2A,BA,44,9C,42,18,CD,0B,
1120200,000001C7,false,Rx,0,4,AA,A0,FF,C0,00,00,00,00,
1120401,00000157,false,Rx,0,8,D5,2B,09,C4,FF,E0,00,80,
1120602,00000426,false,Rx,0,8,00,60,01,00,53,18,00,40,
1121692,000001A1,false,Rx,0,8,B0,C5,5C,10,F5,8C,80,20,
1126670,0000019F,false,Rx,0,8,E1,E1,7D,01,00,6A,50,FE,
1128193,00000155,false,Rx,0,8,47,87,C6,54,96,88,02,C2,
1130194,000001C7,false,Rx,0,4,AA,A0,FF,C0,00,00,00,00,
1130423,00000157,false,Rx,0,8,D5,7B,09,C4,FF,E0,00,80,
1131666,000001A1,false,Rx,0,8,B1,05,5C,10,F5,8C,80,20,
1135267,00000435,false,Rx,0,8,FF,FF,1E,0B,2E,10,00,00,
1136711,0000019F,false,Rx,0,8,E1,E1,7D,06,00,6A,50,FE,
1136960,00000419,false,Rx,0,6,5E,22,32,E6,40,00,00,00,
1138194,00000155,false,Rx,0,8,47,87,C6,54,96,88,02,C2,
1140217,00000157,false,Rx,0,8,D5,CB,09,C4,FF,E0,00,80,
1140420,00000436,false,Rx,0,6,86,16,64,3C,FF,DC,00,00,
1140671,000004F7,false,Rx,0,8,00,1A,08,00,90,30,06,F0,
1140827,000001C7,false,Rx,0,4,AA,A0,FF,C0,00,00,00,00,
1141095,00000428,false,Rx,0,8,00,00,00,7F,00,00,00,00,
1141270,0000042F,false,Rx,0,2,00,20,00,00,00,00,00,00,
1141644,000001A1,false,Rx,0,8,B1,05,5C,10,F5,8C,80,20,
1146673,0000019F,false,Rx,0,8,E1,E1,7D,0B,00,6A,50,FE,
1148194,00000155,false,Rx,0,8,47,87,C5,54,96,88,02,C2,
1148961,00000500,false,Rx,0,5,02,0A,85,0A,32,00,00,00,
1150224,00000157,false,Rx,0,8,D5,1B,09,C4,FF,E0,00,80,
1150446,000001C7,false,Rx,0,4,AA,A0,FF,C0,00,00,00,00,
1151670,000001A1,false,Rx,0,8,B0,C5,5C,10,F5,8C,80,20,
1156683,0000019F,false,Rx,0,8,E1,E1,7D,00,00,6A,50,FE,
1158239,00000155,false,Rx,0,8,47,87,C5,54,96,88,02,C2,
1160268,00000157,false,Rx,0,8,D5,6B,09,C4,FF,E0,00,80,
1160424,000001C7,false,Rx,0,4,AA,A0,FF,C0,00,00,00,00,
1161667,000001A1,false,Rx,0,8,B1,05,5C,10,F5,8C,80,20,
1166668,0000019F,false,Rx,0,8,E1,E1,7D,05,00,6A,50,FE,
1168242,00000155,false,Rx,0,8,47,87,C4,54,96,88,02,C2,
1170242,00000157,false,Rx,0,8,D5,BB,09,C4,FF,E0,00,80,
1170396,000001C7,false,Rx,0,4,AA,A0,FF,C0,00,00,00,00,
1171624,000001A1,false,Rx,0,8,B0,C5,5C,10,F5,8C,80,20,
1176625,0000019F,false,Rx,0,8,E1,E1,7D,0A,00,6A,50,FE,
1178198,00000155,false,Rx,0,8,47,87,C5,54,96,88,02,C2,
1180269,00000157,false,Rx,0,8,D5,0B,09,C4,FF,E0,00,80,
1180374,000001C7,false,Rx,0,4,AA,A0,FF,C0,00,00,00,00,
1181671,000001A1,false,Rx,0,8,B0,C5,5C,10,F5,8C,80,20,
1186694,0000019F,false,Rx,0,8,E1,E1,7D,0F,00,6A,50,FE,
1186918,00000511,false,Rx,0,7,00,88,B3,BF,01,7D,53,00,
1188263,00000155,false,Rx,0,8,47,87,C6,54,96,88,02,C2,
1190260,00000157,false,Rx,0,8,D5,5B,09,C4,FF,E0,00,80,
1190418,000001C7,false,Rx,0,4,AA,A0,FF,C0,00,00,00,00,
1191669,000001A1,false,Rx,0,8,B1,05,5C,10,F5,8C,80,20,
1196684,0000019F,false,Rx,0,8,E1,E1,7D,04,00,6A,50,FE,
1198208,00000155,false,Rx,0,8,47,87,C6,54,96,88,02,C2,
1200232,00000157,false,Rx,0,8,D5,AB,09,C4,FF,E0,00,80,
1200412,000001C7,false,Rx,0,4,AA,A0,FF,C0,00,00,00,00,
1201657,000001A1,false,Rx,0,8,B1,05,5C,10,F5,8C,80,20,
1206665,0000019F,false,Rx,0,8,E1,E1,7D,09,00,6A,50,FE,
1208167,00000155,false,Rx,0,8,47,87,C6,54,96,88,02,C2,
1210295,00000157,false,Rx,0,8,D5,FB,09,C4,FF,E0,00,80,
1210434,000001C7,false,Rx,0,4,AA,A0,FF,C0,00,00,00,00,
1211692,000001A1,false,Rx,0,8,B0,C5,5C,10,F5,8C,80,20,
1213467,00000445,false,Rx,0,7,80,55,55,65,04,82,00,00,
1215218,00000423,false,Rx,0,8,0B,1D,00,02,5D,80,B2,D8,
1216678,0000019F,false,Rx,0,8,E1,E1,7D,0E,00,6A,50,FE,
1218123,00000155,false,Rx,0,8,47,87,C5,54,96,88,02,C2,
1218400,00000424,false,Rx,0,8,11,40,56,C8,33,5E,55,34,
1218622,00000425,false,Rx,0,8,2A,BA,44,9C,42,18,CD,0B,
1220322,00000157,false,Rx,0,8,D5,4B,09,C4,FF,E0,00,80,
1220472,000001C7,false,Rx,0,4,AA,A0,FF,C0,00,00,00,00,
1220685,00000426,false,Rx,0,8,00,60,01,00,53,18,00,40,
1221643,000001A1,false,Rx,0,8,B1,05,5C,10,F5,8C,80,20,
1226625,0000019F,false,Rx,0,8,E1,E1,7D,03,00,6A,50,FE,
1228193,00000155,false,Rx,0,8,47,87,C5,54,96,88,02,C2,
1230243,00000157,false,Rx,0,8,D5,9B,09,C4,FF,E0,00,80,
1230421,000001C7,false,Rx,0,4,AA,A0,FF,C0,00,00,00,00,
1231671,000001A1,false,Rx,0,8,B1,05,5C,10,F5,8C,80,20,
1235150,00000435,false,Rx,0,8,FF,FF,1E,0B,2E,10,00,00,
1236683,0000019F,false,Rx,0,8,E1,E1,7D,08,00,6A,50,FE,
1236964,00000419,false,Rx,0,6,5E,22,32,E6,40,00,00,00,
1238184,00000155,false,Rx,0,8,47,87,C5,54,96,88,02,C2,
1240196,00000157,false,Rx,0,8,D5,EB,09,C4,FF,E0,00,80,
1240391,00000436,false,Rx,0,6,86,16,64,3C,FF,DC,00,00,
1240641,000004F7,false,Rx,0,8,00,1A,08,00,90,30,06,F0,
1240816,000001C7,false,Rx,0,4,AA,A0,FF,C0,00,00,00,00,
1241091,00000428,false,Rx,0,8,00,00,00,7F,00,00,00,00,
1241291,0000042F,false,Rx,0,2,00,20,00,00,00,00,00,00,
1241642,000001A1,false,Rx,0,8,B0,C5,5C,10,F5,8C,80,20,
1246671,0000019F,false,Rx,0,8,E1,E1,7D,0D,00,6A,50,FE,
1248154,00000155,false,Rx,0,8,47,87,C5,54,96,88,02,C2,
1249112,00000500,false,Rx,0,5,02,83,44,57,CA,00,00,00,
1250234,00000157,false,Rx,0,8,D5,3B,09,C4,FF,E0,00,80,
1250386,000001C7,false,Rx,0,4,AA,A0,FF,C0,00,00,00,00,
1251683,000001A1,false,Rx,0,8,B0,C5,5C,10,F5,8C,80,20,
1256694,0000019F,false,Rx,0,8,E1,E1,7D,02,00,6A,50,FE,
1258287,00000155,false,Rx,0,8,47,87,C6,54,96,88,02,C2,
1260296,00000157,false,Rx,0,8,D5,8B,09,C4,FF,E0,00,80,
1260490,000001C7,false,Rx,0,4,AA,A0,FF,C0,00,00,00,00,
1261685,000001A1,false,Rx,0,8,B1,05,5C,10,F5,8C,80,20,
1266650,0000019F,false,Rx,0,8,E1,E1,7D,07,00,6A,50,FE,
1268181,00000155,false,Rx,0,8,47,87,C6,54,96,88,02,C2,
1268949,0000069F,false,Rx,0,4,71,30,28,2F,00,00,00,00,
1270280,00000157,false,Rx,0,8,D5,DB,09,C4,FF,E0,00,80,
1270457,000001C7,false,Rx,0,4,AA,A0,FF,C0,00,00,00,00,
1271680,000001A1,false,Rx,0,8,B0,C5,5C,10,F5,8C,80,20,
1276661,0000019F,false,Rx,0,8,E1,E1,7D,0C,00,6A,50,FE,
1278142,00000155,false,Rx,0,8,47,87,C5,54,96,88,02,C2,
1280240,00000157,false,Rx,0,8,D5,2B,09,C4,FF,E0,00,80,
1280389,000001C7,false,Rx,0,4,AA,A0,FF,C0,00,00,00,00,
1281615,000001A1,false,Rx,0,8,B0,C5,5C,10,F5,8C,80,20,
1286624,0000019F,false,Rx,0,8,E1,E1,7D,01,00,6A,50,FE,
1287072,00000511,false,Rx,0,7,00,C7,7C,78,6C,8A,36,00,
1288215,00000155,false,Rx,0,8,47,87,C5,54,96,88,02,C2,
1290337,00000157,false,Rx,0,8,D5,7B,09,C4,FF,E0,00,80,
1290453,000001C7,false,Rx,0,4,AA,A0,FF,C0,00,00,00,00,
1291804,000001A1,false,Rx,0,8,B1,05,5C,10,F5,8C,80,20,
1296712,0000019F,false,Rx,0,8,E1,E1,7D,06,00,6A,50,FE,
1298226,00000155,false,Rx,0,8,47,87,C5,54,96,88,02,C2,
1300399,00000157,false,Rx,0,8,D5,CB,09,C4,FF,E0,00,80,
1300403,000001C7,false,Rx,0,4,AA,A0,FF,C0,00,00,00,00,
1301708,000001A1,false,Rx,0,8,B1,05,5C,10,F5,8C,80,20,
1306678,0000019F,false,Rx,0,8,E1,E1,7D,0B,00,6A,50,FE,
1308331,00000155,false,Rx,0,8,47,87,C5,54,96,88,02,C2,
1310388,00000157,false,Rx,0,8,D5,1B,09,C4,FF,E0,00,80,
1310419,000001C7,false,Rx,0,4,AA,A0,FF,C0,00,00,00,00,
1311830,000001A1,false,Rx,0,8,B1,05,5C,10,F5,8C,80,20,
1313513,00000445,false,Rx,0,7,80,55,AA,65,04,82,00,00,
1315427,00000423,false,Rx,0,8,0B,1D,00,02,5D,80,B2,D8,
1316836,0000019F,false,Rx,0,8,E1,E1,7D,00,00,6A,50,FE,
1318240,00000155,false,Rx,0,8,47,87,C5,54,96,88,02,C2,
1318379,00000424,false,Rx,0,8,11,40,56,C8,33,5E,55,34,
1318691,00000425,false,Rx,0,8,2A,BA,44,9C,42,18,CD,0B,
1320377,00000157,false,Rx,0,8,D5,6B,09,C4,FF,E0,00,80,
1320383,000001C7,false,Rx,0,4,AA,A0,FF,C0,00,00,00,00,
1320606,00000426,false,Rx,0,8,00,60,01,00,53,18,00,40,
1321760,000001A1,false,Rx,0,8,B0,C5,5C,10,F5,8C,80,20,
1326690,0000019F,false,Rx,0,8,E1,E1,7D,05,00,6A,50,FE,
1328242,00000155,false,Rx,0,8,47,87,C6,54,96,88,02,C2,
1330461,00000157,false,Rx,0,8,D5,BB,09,C4,FF,E0,00,80,
1330467,000001C7,false,Rx,0,4,AA,A0,FF,C0,00,00,00,00,
1331768,000001A1,false,Rx,0,8,B0,C5,5C,10,F5,8C,80,20,
1335333,00000435,false,Rx,0,8,FF,FF,1E,0B,2E,10,00,00,
1336733,0000019F,false,Rx,0,8,E1,E1,7D,0A,00,6A,50,FE,
1336954,00000419,false,Rx,0,6,5E,22,32,E6,40,00,00,00,
1338319,00000155,false,Rx,0,8,47,87,C6,54,96,88,02,C2,
1340359,00000157,false,Rx,0,8,D5,0B,09,C4,FF,E0,00,80,
1340492,00000436,false,Rx,0,6,86,16,64,3C,FF,DC,00,00,
1340788,000004F7,false,Rx,0,8,00,1A,08,00,90,30,06,F0,
1340954,000001C7,false,Rx,0,4,AA,A0,FF,C0,00,00,00,00,
1341344,00000428,false,Rx,0,8,00,00,00,7F,00,00,00,00,
1341352,0000042F,false,Rx,0,2,00,20,00,00,00,00,00,00,
1341698,000001A1,false,Rx,0,8,B1,05,5C,10,F5,8C,80,20,
1346757,0000019F,false,Rx,0,8,E1,E1,7D,0F,00,6A,50,FE,
1348358,00000155,false,Rx,0,8,47,87,C5,54,96,88,02,C2,
1348982,00000500,false,Rx,0,5,02,54,E5,DC,A4,00,00,00,
1350437,00000157,false,Rx,0,8,D5,5B,09,C4,FF,E0,00,80,
1350444,000001C7,false,Rx,0,4,AA,A0,FF,C0,00,00,00,00,
1351728,000001A1,false,Rx,0,8,B1,05,5C,10,F5,8C,80,20,
1356829,0000019F,false,Rx,0,8,E1,E1,7D,04,00,6A,50,FE,
1358408,00000155,false,Rx,0,8,47,87,C5,54,96,88,02,C2,
1360374,00000157,false,Rx,0,8,D5,AB,09,C4,FF,E0,00,80,
1360477,000001C7,false,Rx,0,4,AA,A0,FF,C0,00,00,00,00,
1361766,000001A1,false,Rx,0,8,B0,C5,5C,10,F5,8C,80,20,
1366670,0000019F,false,Rx,0,8,E1,E1,7D,09,00,6A,50,FE,
1368233,00000155,false,Rx,0,8,47,87,C5,54,96,88,02,C2,
1370266,00000157,false,Rx,0,8,D5,FB,09,C4,FF,E0,00,80,
1370368,000001C7,false,Rx,0,4,AA,A0,FF,C0,00,00,00,00,
1371658,000001A1,false,Rx,0,8,B1,05,5C,10,F5,8C,80,20,
1376674,0000019F,false,Rx,0,8,E1,E1,7D,0E,00,6A,50,FE,
1378236,00000155,false,Rx,0,8,47,87,C5,54,96,88,02,C2,
1380234,00000157,false,Rx,0,8,D5,4B,09,C4,FF,E0,00,80,
1380409,000001C7,false,Rx,0,4,AA,A0,FF,C0,00,00,00,00,
1381664,000001A1,false,Rx,0,8,B0,C5,5C,10,F5,8C,80,20,
1386665,0000019F,false,Rx,0,8,E1,E1,7D,03,00,6A,50,FE,
1386953,00000511,false,Rx,0,7,00,06,45,31,D7,97,19,00,
1388233,00000155,false,Rx,0,8,47,87,C5,54,96,88,02,C2,
1390309,00000157,false,Rx,0,8,D5,9B,09,C4,FF,E0,00,80,
1390418,000001C7,false,Rx,0,4,AA,A0,FF,C0,00,00,00,00,
1391667,000001A1,false,Rx,0,8,B0,C5,5C,10,F5,8C,80,20,
1396700,0000019F,false,Rx,0,8,E1,E1,7D,08,00,6A,50,FE,
1398184,00000155,false,Rx,0,8,47,87,C6,54,96,88,02,C2,
1400272,00000157,false,Rx,0,8,D5,EB,09,C4,FF,E0,00,80,
1400483,000001C7,false,Rx,0,4,AA,A0,FF,C0,00,00,00,00,
1401684,000001A1,false,Rx,0,8,B1,05,5C,10,F5,8C,80,20,
1406660,0000019F,false,Rx,0,8,E1,E1,7D,0D,00,6A,50,FE,
1408159,00000155,false,Rx,0,8,47,87,C5,54,96,88,02,C2,
1410234,00000157,false,Rx,0,8,D5,3B,09,C4,FF,E0,00,80,
1410369,000001C7,false,Rx,0,4,AA,A0,FF,C0,00,00,00,00,
1411684,000001A1,false,Rx,0,8,B1,05,5C,10,F5,8C,80,20,
1413434,00000445,false,Rx,0,7,80,55,AA,65,04,82,00,00,
1415209,00000423,false,Rx,0,8,0B,1D,00,02,5D,80,B2,D8,
1416672,0000019F,false,Rx,0,8,E1,E1,7D,02,00,6A,50,FE,
1418165,00000155,false,Rx,0,8,47,87,C5,54,96,88,02,C2,
1418384,00000424,false,Rx,0,8,11,40,56,C8,33,5E,55,34,
1418609,00000425,false,Rx,0,8,2A,BA,44,9C,42,18,CD,0B,
1420211,00000157,false,Rx,0,8,D5,8B,09,C4,FF,E0,00,80,
1420383,000001C7,false,Rx,0,4,AA,A0,FF,C0,00,00,00,00,
1420609,00000426,false,Rx,0,8,00,60,01,00,53,18,00,40,
1421661,000001A1,false,Rx,0,8,B0,C5,5C,10,F5,8C,80,20,
1426629,0000019F,false,Rx,0,8,E1,E1,7D,07,00,6A,50,FE,
1428123,00000155,false,Rx,0,8,47,87,C4,54,96,88,02,C2,
1430175,00000157,false,Rx,0,8,D5,DB,09,C4,FF,E0,00,80,
1430346,000001C7,false,Rx,0,4,AA,A0,FF,C0,00,00,00,00,
1431659,000001A1,false,Rx,0,8,B1,05,5C,10,F5,8C,80,20,
1435188,00000435,false,Rx,0,8,FF,FF,1E,0B,2E,10,00,00,
1436699,0000019F,false,Rx,0,8,E1,E1,7D,0C,00,6A,50,FE,
1436953,00000419,false,Rx,0,6,5E,22,32,E6,40,00,00,00,
1438148,00000155,false,Rx,0,8,47,87,C5,54,96,88,02,C2,
1440175,00000157,false,Rx,0,8,D5,2B,09,C4,FF,E0,00,80,
1440365,00000436,false,Rx,0,6,86,16,64,3C,FF,DC,00,00,
1440614,000004F7,false,Rx,0,8,00,1A,08,00,90,30,06,F0,
1440790,000001C7,false,Rx,0,4,AA,A0,FF,C0,00,00,00,00,
1441045,00000428,false,Rx,0,8,00,00,00,7F,00,00,00,00,
1441217,0000042F,false,Rx,0,2,00,20,00,00,00,00,00,00,
1441629,000001A1,false,Rx,0,8,B1,05,5C,10,F5,8C,80,20,
1446651,0000019F,false,Rx,0,8,E1,E1,7D,01,00,6A,50,FE,
1448128,00000155,false,Rx,0,8,47,87,C5,54,96,88,02,C2,
1448989,00000500,false,Rx,0,5,02,17,DA,D3,2B,00,00,00,
1450198,00000157,false,Rx,0,8,D5,7B,09,C4,FF,E0,00,80,
1450346,000001C7,false,Rx,0,4,AA,A0,FF,C0,00,00,00,00,
1451666,000001A1,false,Rx,0,8,B0,C5,5C,10,F5,8C,80,20,
1456628,0000019F,false,Rx,0,8,E1,E1,7D,06,00,6A,50,FE,
1458248,00000155,false,Rx,0,8,47,87,C5,54,96,88,02,C2,
1460245,00000157,false,Rx,0,8,D5,CB,09,C4,FF,E0,00,80,
1460417,000001C7,false,Rx,0,4,AA,A0,FF,C0,00,00,00,00,
1461620,000001A1,false,Rx,0,8,B1,05,5C,10,F5,8C,80,20,
1466635,0000019F,false,Rx,0,8,E1,E1,7D,0B,00,6A,50,FE,
1468147,00000155,false,Rx,0,8,47,87,C6,54,96,88,02,C2,
1470195,00000157,false,Rx,0,8,D5,1B,09,C4,FF,E0,00,80,
1470365,000001C7,false,Rx,0,4,AA,A0,FF,C0,00,00,00,00,
1471645,000001A1,false,Rx,0,8,B1,05,5C,10,F5,8C,80,20,
1476623,0000019F,false,Rx,0,8,E1,E1,7D,00,00,6A,50,FE,
1478142,00000155,false,Rx,0,8,47,87,C5,54,96,88,02,C2,
1480197,00000157,false,Rx,0,8,D5,6B,09,C4,FF,E0,00,80,
1480366,000001C7,false,Rx,0,4,AA,A0,FF,C0,00,00,00,00,
1481642,000001A1,false,Rx,0,8,B1,05,5C,10,F5,8C,80,20,
1486623,0000019F,false,Rx,0,8,E1,E1,7D,05,00,6A,50,FE,
1486909,00000511,false,Rx,0,7,00,45,0E,EA,42,A4,FC,00,
1488262,00000155,false,Rx,0,8,47,87,C5,54,96,88,02,C2,
1490200,00000157,false,Rx,0,8,D5,BB,09,C4,FF,E0,00,80,
1490371,000001C7,false,Rx,0,4,AA,A0,FF,C0,00,00,00,00,
1491646,000001A1,false,Rx,0,8,B0,C5,5C,10,F5,8C,80,20,
1496624,0000019F,false,Rx,0,8,E1,E1,7D,0A,00,6A,50,FE,
1498171,00000155,false,Rx,0,8,47,87,C5,54,96,88,02,C2,
1500169,00000157,false,Rx,0,8,D5,0B,09,C4,FF,E0,00,80,
1500340,000001C7,false,Rx,0,4,AA,A0,FF,C0,00,00,00,00,
1501627,000001A1,false,Rx,0,8,B1,05,5C,10,F5,8C,80,20,
1506623,0000019F,false,Rx,0,8,E1,E1,7D,0F,00,6A,50,FE,
1508121,00000155,false,Rx,0,8,47,87,C5,54,96,88,02,C2,
1510271,00000157,false,Rx,0,8,D5,5B,09,C4,FF,E0,00,80,
1510442,000001C7,false,Rx,0,4,AA,A0,FF,C0,00,00,00,00,
1511622,000001A1,false,Rx,0,8,B1,05,5C,10,F5,8C,80,20,
1513396,00000445,false,Rx,0,7,80,55,AA,65,04,82,00,00,
1515217,00000423,false,Rx,0,8,0B,1D,00,02,5D,80,B2,D8,
1516637,0000019F,false,Rx,0,8,E1,E1,7D,04,00,6A,50,FE,
1518121,00000155,false,Rx,0,8,47,87,C5,54,96,88,02,C2,
1518341,00000424,false,Rx,0,8,11,40,56,C8,33,5E,55,34,
1518566,00000425,false,Rx,0,8,2A,BA,44,9C,42,18,CD,0B,
1520195,00000157,false,Rx,0,8,D5,AB,09,C4,FF,E0,00,80,
1520365,000001C7,false,Rx,0,4,AA,A0,FF,C0,00,00,00,00,
1520591,00000426,false,Rx,0,8,00,60,01,00,53,18,00,40,
1521646,000001A1,false,Rx,0,8,B1,05,5C,10,F5,8C,80,20,
1526621,0000019F,false,Rx,0,8,E1,E1,7D,09,00,6A,50,FE,
1528121,00000155,false,Rx,0,8,47,87,C6,54,96,88,02,C2,
1530245,00000157,false,Rx,0,8,D5,FB,09,C4,FF,E0,00,80,
1530419,000001C7,false,Rx,0,4,AA,A0,FF,C0,00,00,00,00,
1531644,000001A1,false,Rx,0,8,B1,05,5C,10,F5,8C,80,20,
1535199,00000435,false,Rx,0,8,FF,FF,1E,0B,2E,10,00,00,
1536649,0000019F,false,Rx,0,8,E1,E1,7D,0E,00,6A,50,FE,
1536911,00000419,false,Rx,0,6,5E,22,32,E6,40,00,00,00,
1538147,00000155,false,Rx,0,8,47,87,C6,54,96,88,02,C2,
1540196,00000157,false,Rx,0,8,D5,4B,09,C4,FF,E0,00,80,
1540390,00000436,false,Rx,0,6,86,16,64,3C,FF,DC,00,00,
1540616,000004F7,false,Rx,0,8,00,1A,08,00,90,30,06,F0,
1540816,000001C7,false,Rx,0,4,AA,A0,FF,C0,00,00,00,00,
1541092,00000428,false,Rx,0,8,00,00,00,7F,00,00,00,00,
1541267,0000042F,false,Rx,0,2,00,20,00,00,00,00,00,00,
1541641,000001A1,false,Rx,0,8,B1,05,5C,10,F5,8C,80,20,
1546622,0000019F,false,Rx,0,8,E1,E1,7D,03,00,6A,50,FE,
1548119,00000155,false,Rx,0,8,47,87,C5,54,96,88,02,C2,
1549167,00000500,false,Rx,0,5,02,BE,E9,2F,C2,00,00,00,
1550268,00000157,false,Rx,0,8,D5,9B,09,C4,FF,E0,00,80,
1550415,000001C7,false,Rx,0,4,AA,A0,FF,C0,00,00,00,00,
1551641,000001A1,false,Rx,0,8,B1,05,5C,10,F5,8C,80,20,
1556648,0000019F,false,Rx,0,8,E1,E1,7D,08,00,6A,50,FE,
1558195,00000155,false,Rx,0,8,47,87,C4,54,96,88,02,C3,
1560195,00000157,false,Rx,0,8,D5,EB,09,C4,FF,E0,00,80,
1560369,000001C7,false,Rx,0,4,AA,A0,FF,C0,00,00,00,00,
1561642,000001A1,false,Rx,0,8,B1,05,5C,10,F5,8C,80,20,
1566674,0000019F,false,Rx,0,8,E1,E1,7D,0D,00,6A,50,FE,
1568172,00000155,false,Rx,0,8,47,87,C5,54,96,88,02,C3,
1570246,00000157,false,Rx,0,8,D5,3B,09,C4,FF,E0,00,80,
1570420,000001C7,false,Rx,0,4,AA,A0,FF,C0,00,00,00,00,
1571642,000001A1,false,Rx,0,8,B0,C5,5C,10,F5,8C,80,20,
1576648,0000019F,false,Rx,0,8,E1,E1,7D,02,00,6A,50,FE,
1578170,00000155,false,Rx,0,8,47,87,C5,54,96,88,02,C3,
1580246,00000157,false,Rx,0,8,D5,8B,09,C4,FF,E0,00,80,
1580416,000001C7,false,Rx,0,4,AA,A0,FF,C0,00,00,00,00,
1581642,000001A1,false,Rx,0,8,B1,05,5C,10,F5,8C,80,20,
1586653,0000019F,false,Rx,0,8,E1,E1,7D,07,00,6A,50,FE,
1586915,00000511,false,Rx,0,7,00,84,D7,A3,AD,B1,DF,00,
1588198,00000155,false,Rx,0,8,47,87,C5,54,96,88,02,C3,
1590250,00000157,false,Rx,0,8,D5,DB,09,C4,FF,E0,00,80,
1590400,000001C7,false,Rx,0,4,AA,A0,FF,C0,00,00,00,00,
1591648,000001A1,false,Rx,0,8,B0,C5,5C,10,F5,8C,80,20,
1596627,0000019F,false,Rx,0,8,E1,E1,7D,0C,00,6A,50,FE,
1598123,00000155,false,Rx,0,8,47,87,C6,54,96,88,02,C3,
1600223,00000157,false,Rx,0,8,D5,2B,09,C4,FF,E0,00,80,
1600400,000001C7,false,Rx,0,4,AA,A0,FF,C0,00,00,00,00,
1601646,000001A1,false,Rx,0,8,B0,C5,5C,10,F5,8C,80,20,
1606651,0000019F,false,Rx,0,8,E1,E1,7D,01,00,6A,50,FE,
1608125,00000155,false,Rx,0,8,47,87,C6,54,96,88,02,C3,
1610224,00000157,false,Rx,0,8,D5,7B,09,C4,FF,E0,00,80,
1610400,000001C7,false,Rx,0,4,AA,A0,FF,C0,00,00,00,00,
1611646,000001A1,false,Rx,0,8,B1,05,5C,10,F5,8C,80,20,
1613374,00000445,false,Rx,0,7,80,55,AA,65,04,82,00,00,
1615149,00000423,false,Rx,0,8,0B,1D,00,02,5D,80,B2,D8,
1616669,0000019F,false,Rx,0,8,E1,E1,7D,06,00,6A,50,FE,
1618099,00000155,false,Rx,0,8,47,87,C5,54,96,88,02,C3,
1618324,00000424,false,Rx,0,8,11,40,56,C8,33,5E,55,34,
1618553,00000425,false,Rx,0,8,2A,BA,44,9C,42,1A,CD,0B,
1620285,00000157,false,Rx,0,8,D5,CB,09,C4,FF,E0,00,80,
1620425,000001C7,false,Rx,0,4,AA,A0,FF,C0,00,00,00,00,
1620677,00000426,false,Rx,0,8,00,60,01,00,53,18,00,40,
1621646,000001A1,false,Rx,0,8,B1,05,5C,10,F5,8C,80,20,
1626629,0000019F,false,Rx,0,8,E1,E1,7D,0B,00,6A,50,FE,
1628124,00000155,false,Rx,0,8,47,87,C5,54,96,88,02,C3,
1630226,00000157,false,Rx,0,8,D5,1B,09,C4,FF,E0,00,80,
1630400,000001C7,false,Rx,0,4,AA,A0,FF,C0,00,00,00,00,
1631646,000001A1,false,Rx,0,8,B0,C5,5C,10,F5,8C,80,20,
1635127,00000435,false,Rx,0,8,FF,FF,1E,0B,2E,10,00,00,
1636659,0000019F,false,Rx,0,8,E1,E1,7D,00,00,6A,50,FE,
1636915,00000419,false,Rx,0,6,5E,22,32,E6,40,00,00,00,
1638126,00000155,false,Rx,0,8,47,87,C5,54,96,88,02,C3,
1640276,00000157,false,Rx,0,8,D5,6B,09,C4,FF,E0,00,80,
1640449,00000436,false,Rx,0,6,86,16,64,3C,FF,DC,00,00,
1640702,000004F7,false,Rx,0,8,00,1A,08,00,90,30,06,F0,
1640915,000001C7,false,Rx,0,4,AA,A0,FF,C0,00,00,00,00,
1641170,00000428,false,Rx,0,8,00,00,00,7F,00,00,00,00,
1641348,0000042F,false,Rx,0,2,00,20,00,00,00,00,00,00,
1641652,000001A1,false,Rx,0,8,B1,05,5C,10,F5,8C,80,20,
1646623,0000019F,false,Rx,0,8,E1,E1,7D,05,00,6A,50,FE,
1648118,00000155,false,Rx,0,8,47,87,C5,54,96,88,02,C3,
1649017,00000500,false,Rx,0,5,02,10,B3,78,36,00,00,00,
1650178,00000157,false,Rx,0,8,D5,BB,09,C4,FF,E0,00,80,
1650403,000001C7,false,Rx,0,4,AA,A0,FF,C0,00,00,00,00,
1651662,000001A1,false,Rx,0,8,B1,05,5C,10,F5,8C,80,20,
1656628,0000019F,false,Rx,0,8,E1,E1,7D,0A,00,6A,50,FE,
1658225,00000155,false,Rx,0,8,47,87,C5,54,96,88,02,C3,
1660231,00000157,false,Rx,0,8,D5,0B,09,C4,FF,E0,00,80,
1660404,000001C7,false,Rx,0,4,AA,A0,FF,C0,00,00,00,00,
1661647,000001A1,false,Rx,0,8,B0,C5,5C,10,F5,8C,80,20,
1666652,0000019F,false,Rx,0,8,E1,E1,7D,0F,00,6A,50,FE,
1668149,00000155,false,Rx,0,8,47,87,C6,54,96,88,02,C3,
1670198,00000157,false,Rx,0,8,D5,5B,09,C4,FF,E0,00,80,
1670417,000001C7,false,Rx,0,4,AA,A0,FF,C0,00,00,00,00,
1671652,000001A1,false,Rx,0,8,B1,05,5C,10,F5,8C,80,20,
1676660,0000019F,false,Rx,0,8,E1,E1,7D,04,00,6A,50,FE,
1678154,00000155,false,Rx,0,8,47,87,C6,54,96,88,02,C3,
1680169,00000157,false,Rx,0,8,D5,AB,09,C4,FF,E0,00,80,
1680420,000001C7,false,Rx,0,4,AA,A0,FF,C0,00,00,00,00,
1681644,000001A1,false,Rx,0,8,B1,05,5C,10,F5,8C,80,20,
1686647,0000019F,false,Rx,0,8,E1,E1,7D,09,00,6A,50,FE,
1686910,00000511,false,Rx,0,7,00,C3,A0,5C,18,BE,C2,00,
1688193,00000155,false,Rx,0,8,47,87,C5,54,96,88,02,C3,
1690272,00000157,false,Rx,0,8,D5,FB,09,C4,FF,E0,00,80,
1690441,000001C7,false,Rx,0,4,AA,A0,FF,C0,00,00,00,00,
1691648,000001A1,false,Rx,0,8,B0,C5,5C,10,F5,8C,80,20,
1696653,0000019F,false,Rx,0,8,E1,E1,7D,0E,00,6A,50,FE,
1698172,00000155,false,Rx,0,8,47,87,C4,54,96,88,02,C3,
1700274,00000157,false,Rx,0,8,D5,4B,09,C4,FF,E0,00,80,
1700449,000001C7,false,Rx,0,4,AA,A0,FF,C0,00,00,00,00,
1701643,000001A1,false,Rx,0,8,B0,C5,5C,10,F5,8C,80,20,
1706622,0000019F,false,Rx,0,8,E1,E1,7D,03,00,6A,50,FE,
1708099,00000155,false,Rx,0,8,47,87,C5,54,96,88,02,C3,
1710224,00000157,false,Rx,0,8,D5,9B,09,C4,FF,E0,00,80,
1710449,000001C7,false,Rx,0,4,AA,A0,FF,C0,00,00,00,00,
1711646,000001A1,false,Rx,0,8,B1,05,5C,10,F5,8C,80,20,
1713375,00000445,false,Rx,0,7,80,55,AA,65,04,82,00,00,
1715148,00000423,false,Rx,0,8,0B,1D,00,02,B2,80,5D,D8,
1716622,0000019F,false,Rx,0,8,E1,E1,7D,08,00,6A,50,FE,
1718124,00000155,false,Rx,0,8,47,87,C6,54,96,88,02,C3,
1718349,00000424,false,Rx,0,8,11,40,56,C8,33,5E,AA,34,
1718552,00000425,false,Rx,0,8,2A,BA,44,9C,42,1A,CD,0B,
1720247,00000157,false,Rx,0,8,D5,EB,09,C4,FF,E0,00,80,
1720500,00000426,false,Rx,0,8,00,60,01,00,53,18,00,40,
1720678,000001C7,false,Rx,0,4,AA,A0,FF,C0,00,00,00,00,
1721648,000001A1,false,Rx,0,8,B1,05,5C,10,F5,8C,80,20,
1726625,0000019F,false,Rx,0,8,E1,E1,7D,0D,00,6A,50,FE,
1728122,00000155,false,Rx,0,8,47,87,C5,54,96,88,02,C3,
1730200,00000157,false,Rx,0,8,D5,3B,09,C4,FF,E0,00,80,
1730450,000001C7,false,Rx,0,4,AA,A0,FF,C0,00,00,00,00,
1731647,000001A1,false,Rx,0,8,B0,C5,5C,10,F5,8C,80,20,
1735174,00000435,false,Rx,0,8,FF,FF,1E,0B,2E,10,00,00,
1736649,0000019F,false,Rx,0,8,E1,E1,7D,02,00,6A,50,FE,
1736915,00000419,false,Rx,0,6,5E,22,32,E6,40,00,00,00,
1738122,00000155,false,Rx,0,8,47,87,C6,54,96,88,02,C3,
1740200,00000157,false,Rx,0,8,D5,8B,09,C4,FF,E0,00,80,
1740399,00000436,false,Rx,0,6,86,16,64,3C,FF,DC,00,00,
1740627,000004F7,false,Rx,0,8,00,1A,08,00,90,30,06,F0,
1740830,000001C7,false,Rx,0,4,AA,A0,FF,C0,00,00,00,00,
1741145,00000428,false,Rx,0,8,00,00,00,7F,00,00,00,00,
1741324,0000042F,false,Rx,0,2,00,20,00,00,00,00,00,00,
1741653,000001A1,false,Rx,0,8,B1,05,5C,10,F5,8C,80,20,
1746660,0000019F,false,Rx,0,8,E1,E1,7D,07,00,6A,50,FE,
1748125,00000155,false,Rx,0,8,47,87,C5,54,96,88,02,C3,
1749047,00000500,false,Rx,0,5,02,E0,40,EE,82,00,00,00,
1750223,00000157,false,Rx,0,8,D5,DB,09,C4,FF,E0,00,80,
1750450,000001C7,false,Rx,0,4,AA,A0,FF,C0,00,00,00,00,
1751805,000001A1,false,Rx,0,8,B1,05,5C,10,F5,8C,80,20,
1756730,0000019F,false,Rx,0,8,E1,E1,7D,0C,00,6A,50,FE,
1758435,00000155,false,Rx,0,8,47,87,C5,54,96,88,02,C3,
1760345,00000157,false,Rx,0,8,D5,2B,09,C4,FF,E0,00,80,
1760537,000001C7,false,Rx,0,4,AA,A0,FF,C0,00,00,00,00,
1761757,000001A1,false,Rx,0,8,B0,C5,5C,10,F5,8C,80,20,
1766815,0000019F,false,Rx,0,8,E1,E1,7D,01,00,6A,50,FE,
1768338,00000155,false,Rx,0,8,47,87,C5,54,96,88,02,C3,
1770262,00000157,false,Rx,0,8,D5,7B,09,C4,FF,E0,00,80,
1770638,000001C7,false,Rx,0,4,AA,A0,FF,C0,00,00,00,00,
1771686,000001A1,false,Rx,0,8,B1,05,5C,10,F5,8C,80,20,
1776679,0000019F,false,Rx,0,8,E1,E1,7D,06,00,6A,50,FE,
1778428,00000155,false,Rx,0,8,47,87,C5,54,96,88,02,C3,
1780283,00000157,false,Rx,0,8,D5,CB,09,C4,FF,E0,00,80,
1780548,000001C7,false,Rx,0,4,AA,A0,FF,C0,00,00,00,00,
1781761,000001A1,false,Rx,0,8,B1,05,5C,10,F5,8C,80,20,
1786878,0000019F,false,Rx,0,8,E1,E1,7D,0B,00,6A,50,FE,
1786923,00000511,false,Rx,0,7,00,02,69,15,83,CB,A5,00,
1788365,00000155,false,Rx,0,8,47,87,C5,54,96,88,02,C3,
1790440,00000157,false,Rx,0,8,D5,1B,09,C4,FF,E0,00,80,
1790577,000001C7,false,Rx,0,4,AA,A0,FF,C0,00,00,00,00,
1791730,000001A1,false,Rx,0,8,B1,05,5C,10,F5,8C,80,20,
1796819,0000019F,false,Rx,0,8,E1,E1,7D,00,00,6A,50,FE,
1798205,00000155,false,Rx,0,8,47,87,C6,54,96,88,02,C3,
1800439,00000157,false,Rx,0,8,D5,6B,09,C4,FF,E0,00,80,
1800496,000001C7,false,Rx,0,4,AA,A0,FF,C0,00,00,00,00,
1801879,000001A1,false,Rx,0,8,B1,05,5C,10,F5,8C,80,20,
1806917,0000019F,false,Rx,0,8,E1,E1,7D,05,00,6A,50,FE,
1808365,00000155,false,Rx,0,8,47,87,C6,54,96,88,02,C3,
1810266,00000157,false,Rx,0,8,D5,BB,09,C4,FF,E0,00,80,
1810583,000001C7,false,Rx,0,4,AA,A0,FF,C0,00,00,00,00,
1811914,000001A1,false,Rx,0,8,B0,C5,5C,10,F5,8C,80,20,
1813538,00000445,false,Rx,0,7,80,55,55,65,04,82,00,00,
1815450,00000423,false,Rx,0,8,0B,1D,00,02,B2,80,5D,D8,
1816696,0000019F,false,Rx,0,8,E1,E1,7D,0A,00,6A,50,FE,
1818263,00000155,false,Rx,0,8,47,87,C5,54,96,88,02,C3,
1818370,00000424,false,Rx,0,8,11,40,56,C8,33,5E,AA,34,
1818585,00000425,false,Rx,0,8,2A,BA,44,9C,42,18,CD,0B,
1820494,00000157,false,Rx,0,8,D5,0B,09,C4,FF,E0,00,80,
1820503,00000426,false,Rx,0,8,00,60,01,00,53,18,00,40,
1820631,000001C7,false,Rx,0,4,AA,A0,FF,C0,00,00,00,00,
1821916,000001A1,false,Rx,0,8,B1,05,5C,10,F5,8C,80,20,
1826891,0000019F,false,Rx,0,8,E1,E1,7D,0F,00,6A,50,FE,
1828244,00000155,false,Rx,0,8,47,87,C5,54,96,88,02,C3,
1830317,00000157,false,Rx,0,8,D5,5B,09,C4,FF,E0,00,80,
1830577,000001C7,false,Rx,0,4,AA,A0,FF,C0,00,00,00,00,
1831675,000001A1,false,Rx,0,8,B1,05,5C,10,F5,8C,80,20,
1835419,00000435,false,Rx,0,8,FF,FF,1E,0B,2E,10,00,00,
1836745,0000019F,false,Rx,0,8,E1,E1,7D,04,00,6A,50,FE,
1836969,00000419,false,Rx,0,6,5E,22,32,E6,40,00,00,00,
1838292,00000155,false,Rx,0,8,47,87,C5,54,96,88,02,C3,
1840246,00000157,false,Rx,0,8,D5,AB,09,C4,FF,E0,00,80,
1840444,00000436,false,Rx,0,6,86,16,64,3C,FF,DC,00,00,
1840736,000004F7,false,Rx,0,8,00,1A,08,00,90,30,06,F0,
1840890,000001C7,false,Rx,0,4,AA,A0,FF,C0,00,00,00,00,
1841303,00000428,false,Rx,0,8,00,00,00,7F,00,00,00,00,
1841313,0000042F,false,Rx,0,2,00,20,00,00,00,00,00,00,
1841737,000001A1,false,Rx,0,8,B0,C5,5C,10,F5,8C,80,20,
1846684,0000019F,false,Rx,0,8,E1,E1,7D,09,00,6A,50,FE,
1848387,00000155,false,Rx,0,8,47,87,C5,54,96,88,02,C3,
1849290,00000500,false,Rx,0,5,02,DB,0B,42,B0,00,00,00,
1850234,00000157,false,Rx,0,8,D5,FB,09,C4,FF,E0,00,80,
1850534,000001C7,false,Rx,0,4,AA,A0,FF,C0,00,00,00,00,
1851652,000001A1,false,Rx,0,8,B1,05,5C,10,F5,8C,80,20,
1856835,0000019F,false,Rx,0,8,E1,E1,7D,0E,00,6A,50,FE,
1858392,00000155,false,Rx,0,8,47,87,C5,54,96,88,02,C3,
1860438,00000157,false,Rx,0,8,D5,4B,09,C4,FF,E0,00,80,
1860555,000001C7,false,Rx,0,4,AA,A0,FF,C0,00,00,00,00,
1861794,000001A1,false,Rx,0,8,B1,05,5C,10,F5,8C,80,20,
1866665,0000019F,false,Rx,0,8,E1,E1,7D,03,00,6A,50,FE,
1868159,00000155,false,Rx,0,8,47,87,C6,54,96,88,02,C3,
1870210,00000157,false,Rx,0,8,D5,9B,09,C4,FF,E0,00,80,
1870532,000001C7,false,Rx,0,4,AA,A0,FF,C0,00,00,00,00,
1871653,000001A1,false,Rx,0,8,B0,C5,5C,10,F5,8C,80,20,
1876673,0000019F,false,Rx,0,8,E1,E1,7D,08,00,6A,50,FE,
1878153,00000155,false,Rx,0,8,47,87,C6,54,96,88,02,C3,
1880183,00000157,false,Rx,0,8,D5,EB,09,C4,FF,E0,00,80,
1880530,000001C7,false,Rx,0,4,AA,A0,FF,C0,00,00,00,00,
1881652,000001A1,false,Rx,0,8,B1,05,5C,10,F5,8C,80,20,
1886654,0000019F,false,Rx,0,8,E1,E1,7D,0D,00,6A,50,FE,
1886918,00000511,false,Rx,0,7,00,41,32,CE,EE,D8,88,00,
1888208,00000155,false,Rx,0,8,47,87,C5,54,96,88,02,C3,
1890253,00000157,false,Rx,0,8,D5,3B,09,C4,FF,E0,00,80,
1890529,000001C7,false,Rx,0,4,AA,A0,FF,C0,00,00,00,00,
1891654,000001A1,false,Rx,0,8,B1,05,5C,10,F5,8C,80,20,
1896672,0000019F,false,Rx,0,8,E1,E1,7D,02,00,6A,50,FE,
1898178,00000155,false,Rx,0,8,47,87,C4,54,96,88,02,C3,
1900284,00000157,false,Rx,0,8,D5,8B,09,C4,FF,E0,00,80,
1900554,000001C7,false,Rx,0,4,AA,A0,FF,C0,00,00,00,00,
1901652,000001A1,false,Rx,0,8,B0,C5,5C,10,F5,8C,80,20,
1906660,0000019F,false,Rx,0,8,E1,E1,7D,07,00,6A,50,FE,
1908102,00000155,false,Rx,0,8,47,87,C4,54,96,88,02,C3,
1910254,00000157,false,Rx,0,8,D5,DB,09,C4,FF,E0,00,80,
1910554,000001C7,false,Rx,0,4,AA,A0,FF,C0,00,00,00,00,
1911652,000001A1,false,Rx,0,8,B1,05,5C,10,F5,8C,80,20,
1913354,00000445,false,Rx,0,7,80,55,55,65,04,82,00,00,
1915128,00000423,false,Rx,0,8,0B,1D,00,02,B2,80,5D,D8,
1916664,0000019F,false,Rx,0,8,E1,E1,7D,0C,00,6A,50,FE,
1918101,00000155,false,Rx,0,8,47,87,C5,54,96,88,02,C3,
1918327,00000424,false,Rx,0,8,11,40,56,C8,33,5E,AA,34,
1918554,00000425,false,Rx,0,8,2A,BA,44,9C,42,18,CD,0B,
1920249,00000157,false,Rx,0,8,D5,2B,09,C4,FF,E0,00,80,
1920475,00000426,false,Rx,0,8,00,60,01,00,53,18,00,40,
1920663,000001C7,false,Rx,0,4,AA,A0,FF,C0,00,00,00,00,
1921649,000001A1,false,Rx,0,8,B1,05,5C,10,F5,8C,80,20,
1926684,0000019F,false,Rx,0,8,E1,E1,7D,01,00,6A,50,FE,
1928112,00000155,false,Rx,0,8,47,87,C5,54,96,88,02,C3,
1930217,00000157,false,Rx,0,8,D5,7B,09,C4,FF,E0,00,80,
1930563,000001C7,false,Rx,0,4,AA,A0,FF,C0,00,00,00,00,
1931650,000001A1,false,Rx,0,8,B1,05,5C,10,F5,8C,80,20,
1935111,00000435,false,Rx,0,8,FF,FF,1E,0B,2E,10,00,00,
1936670,0000019F,false,Rx,0,8,E1,E1,7D,06,00,6A,50,FE,
1936920,00000419,false,Rx,0,6,5E,22,32,E6,40,00,00,00,
1938127,00000155,false,Rx,0,8,47,87,C6,54,96,88,02,C3,
1940227,00000157,false,Rx,0,8,D5,CB,09,C4,FF,E0,00,80,
1940429,00000436,false,Rx,0,6,86,16,64,3C,FF,DC,00,00,
1940683,000004F7,false,Rx,0,8,00,1A,08,00,90,30,06,F0,
1940920,000001C7,false,Rx,0,4,AA,A0,FF,C0,00,00,00,00,
1941150,00000428,false,Rx,0,8,00,00,00,7F,00,00,00,00,
1941302,0000042F,false,Rx,0,2,00,20,00,00,00,00,00,00,
1941656,000001A1,false,Rx,0,8,B0,C5,5C,10,F5,8C,80,20,
1946649,0000019F,false,Rx,0,8,E1,E1,7D,0B,00,6A,50,FE,
1948123,00000155,false,Rx,0,8,47,87,C6,54,96,88,02,C3,
1949022,00000500,false,Rx,0,5,02,EB,1E,E4,4C,00,00,00,
1950178,00000157,false,Rx,0,8,D5,1B,09,C4,FF,E0,00,80,
1950579,000001C7,false,Rx,0,4,AA,A0,FF,C0,00,00,00,00,
1951659,000001A1,false,Rx,0,8,B1,05,5C,10,F5,8C,80,20,
1956671,0000019F,false,Rx,0,8,E1,E1,7D,00,00,6A,50,FE,
1958478,00000155,false,Rx,0,8,47,87,C5,54,96,88,02,C3,
1960209,00000157,false,Rx,0,8,D5,6B,09,C4,FF,E0,00,80,
1960580,000001C7,false,Rx,0,4,AA,A0,FF,C0,00,00,00,00,
1961653,000001A1,false,Rx,0,8,B1,05,5C,10,F5,8C,80,20,
1966662,0000019F,false,Rx,0,8,E1,E1,7D,05,00,6A,50,FE,
1968188,00000155,false,Rx,0,8,47,87,C4,54,96,88,02,C3,
1970240,00000157,false,Rx,0,8,D5,BB,09,C4,FF,E0,00,80,
1970608,000001C7,false,Rx,0,4,AA,A0,FF,C0,00,00,00,00,
1971659,000001A1,false,Rx,0,8,B1,05,5C,10,F5,8C,80,20,
1976679,0000019F,false,Rx,0,8,E1,E1,7D,0A,00,6A,50,FE,
1978192,00000155,false,Rx,0,8,47,87,C5,54,96,88,02,C3,
1980166,00000157,false,Rx,0,8,D5,0B,09,C4,FF,E0,00,80,
1980616,000001C7,false,Rx,0,4,AA,A0,FF,C0,00,00,00,00,
1981664,000001A1,false,Rx,0,8,B1,05,5C,10,F5,8C,80,20,
1986663,0000019F,false,Rx,0,8,E1,E1,7D,0F,00,6A,50,FE,
1986919,00000511,false,Rx,0,7,00,80,FB,87,59,E5,6B,00,
1988175,00000155,false,Rx,0,8,47,87,C5,54,96,88,02,C3,
1990228,00000157,false,Rx,0,8,D5,5B,09,C4,FF,E0,00,80,
1990603,000001C7,false,Rx,0,4,AA,A0,FF,C0,00,00,00,00,
1991652,000001A1,false,Rx,0,8,B0,C5,5C,10,F5,8C,80,20,
1996653,0000019F,false,Rx,0,8,E1,E1,7D,04,00,6A,50,FE,
1998285,00000155,false,Rx,0,8,47,87,C6,54,96,88,02,C3,
2000233,00000157,false,Rx,0,8,D5,AB,09,C4,FF,E0,00,80,
2000692,000001C7,false,Rx,0,4,AA,A0,FF,C0,00,00,00,00,
2001910,000001A1,false,Rx,0,8,B1,05,5C,10,F5,8C,80,20,
2006689,0000019F,false,Rx,0,8,E1,E1,7D,09,00,6A,50,FE,
2008262,00000155,false,Rx,0,8,47,87,C6,54,96,88,02,C3,
2010330,00000157,false,Rx,0,8,D5,FB,09,C4,FF,E0,00,80,
2010692,000001C7,false,Rx,0,4,AA,A0,FF,C0,00,00,00,00,
2011685,000001A1,false,Rx,0,8,B1,05,5C,10,F5,8C,80,20,
2013510,00000445,false,Rx,0,7,80,55,55,65,04,82,00,00,
2015282,00000423,false,Rx,0,8,0B,1D,00,02,B2,80,5D,D8,
2016806,0000019F,false,Rx,0,8,E1,E1,7D,0E,00,6A,50,FE,
2018253,00000155,false,Rx,0,8,47,87,C5,54,96,88,02,C3,
2018364,00000424,false,Rx,0,8,11,40,56,C8,33,5E,AA,34,
2018765,00000425,false,Rx,0,8,2A,BA,44,9C,42,18,CD,0B,
2020509,00000157,false,Rx,0,8,D5,4B,09,C4,FF,E0,00,80,
2020515,00000426,false,Rx,0,8,00,60,01,00,53,18,00,40,
2020660,000001C7,false,Rx,0,4,AA,A0,FF,C0,00,00,00,00,
2021906,000001A1,false,Rx,0,8,B1,05,5C,10,F5,8C,80,20,
2026913,0000019F,false,Rx,0,8,E1,E1,7D,03,00,6A,50,FE,
2028360,00000155,false,Rx,0,8,47,87,C5,54,96,88,02,C3,
2030421,00000157,false,Rx,0,8,D5,9B,09,C4,FF,E0,00,80,
2030739,000001C7,false,Rx,0,4,AA,A0,FF,C0,00,00,00,00,
2031686,000001A1,false,Rx,0,8,B1,05,5C,10,F5,8C,80,20,
2035461,00000435,false,Rx,0,8,FF,FF,1E,0B,2E,10,00,00,
2036732,0000019F,false,Rx,0,8,E1,E1,7D,08,00,6A,50,FE,
2036990,00000419,false,Rx,0,6,5E,22,32,E6,40,00,00,00,
2038177,00000155,false,Rx,0,8,47,87,C4,54,96,88,02,C3,
2040516,00000157,false,Rx,0,8,D5,EB,09,C4,FF,E0,00,80,
2040523,00000436,false,Rx,0,6,86,16,64,3C,FF,DC,00,00,
2040768,000004F7,false,Rx,0,8,00,1A,08,00,90,30,06,F0,
2040994,000001C7,false,Rx,0,4,AA,A0,FF,C0,00,00,00,00,
2041202,00000428,false,Rx,0,8,00,00,00,7F,00,00,00,00,
2041342,0000042F,false,Rx,0,2,00,20,00,00,00,00,00,00,
2041702,000001A1,false,Rx,0,8,B1,05,5C,10,F5,8C,80,20,
2046845,0000019F,false,Rx,0,8,E1,E1,7D,0D,00,6A,50,FE,
2048368,00000155,false,Rx,0,8,47,87,C5,54,96,88,02,C3,
2049291,00000500,false,Rx,0,5,02,E4,65,FC,C9,00,00,00,
2050414,00000157,false,Rx,0,8,D5,3B,09,C4,FF,E0,00,80,
2050731,000001C7,false,Rx,0,4,AA,A0,FF,C0,00,00,00,00,
2051817,000001A1,false,Rx,0,8,B0,C5,5C,10,F5,8C,80,20,
2056828,0000019F,false,Rx,0,8,E1,E1,7D,02,00,6A,50,FE,
2058465,00000155,false,Rx,0,8,47,87,C5,54,96,88,02,C3,
2060351,00000157,false,Rx,0,8,D5,8B,09,C4,FF,E0,00,80,
2060712,000001C7,false,Rx,0,4,AA,A0,FF,C0,00,00,00,00,
2061912,000001A1,false,Rx,0,8,B1,05,5C,10,F5,8C,80,20,
2066917,0000019F,false,Rx,0,8,E1,E1,7D,07,00,6A,50,FE,
2068390,00000155,false,Rx,0,8,47,87,C6,54,96,88,02,C3,
2070494,00000157,false,Rx,0,8,D5,DB,09,C4,FF,E0,00,80,
2070707,000001C7,false,Rx,0,4,AA,A0,FF,C0,00,00,00,00,
2071816,000001A1,false,Rx,0,8,B0,C5,5C,10,F5,8C,80,20,
2076832,0000019F,false,Rx,0,8,E1,E1,7D,0C,00,6A,50,FE,
2078281,00000155,false,Rx,0,8,47,87,C6,54,96,88,02,C3,
2080523,00000157,false,Rx,0,8,D5,2B,09,C4,FF,E0,00,80,
2080711,000001C7,false,Rx,0,4,AA,A0,FF,C0,00,00,00,00,
2081706,000001A1,false,Rx,0,8,B0,C5,5C,10,F5,8C,80,20,
2086918,0000019F,false,Rx,0,8,E1,E1,7D,01,00,6A,50,FE,
2086928,00000511,false,Rx,0,7,00,BF,C4,40,C4,F2,4E,00,
2088468,00000155,false,Rx,0,8,47,87,C5,54,96,88,02,C3,
2090274,00000157,false,Rx,0,8,D5,7B,09,C4,FF,E0,00,80,
2090854,000001C7,false,Rx,0,4,AA,A0,FF,C0,00,00,00,00,
2091922,000001A1,false,Rx,0,8,B1,05,5C,10,F5,8C,80,20,
2096841,0000019F,false,Rx,0,8,E1,E1,7D,06,00,6A,50,FE,
2098445,00000155,false,Rx,0,8,47,87,C5,54,96,88,02,C3,
2100444,00000157,false,Rx,0,8,D5,CB,09,C4,FF,E0,00,80,
2100720,000001C7,false,Rx,0,4,AA,A0,FF,C0,00,00,00,00,
2101918,000001A1,false,Rx,0,8,B1,05,5C,10,F5,8C,80,20,
2106923,0000019F,false,Rx,0,8,E1,E1,7D,0B,00,6A,50,FE,
2108164,00000155,false,Rx,0,8,47,87,C4,54,96,88,02,C3,
2110447,00000157,false,Rx,0,8,D5,1B,09,C4,FF,E0,00,80,
2110693,000001C7,false,Rx,0,4,AA,A0,FF,C0,00,00,00,00,
2111664,000001A1,false,Rx,0,8,B0,C5,5C,10,F5,8C,80,20,
2113523,00000445,false,Rx,0,7,80,55,55,65,04,82,00,00,
2115139,00000423,false,Rx,0,8,0B,1D,00,02,B2,80,5D,D8,
2116679,0000019F,false,Rx,0,8,E1,E1,7D,00,00,6A,50,FE,
2118106,00000155,false,Rx,0,8,47,87,C5,54,96,88,02,C3,
2118332,00000424,false,Rx,0,8,11,40,56,C8,33,5E,AA,34,
2118559,00000425,false,Rx,0,8,2A,BA,44,9C,42,18,CD,0B,
2120237,00000157,false,Rx,0,8,D5,6B,09,C4,FF,E0,00,80,
2120482,00000426,false,Rx,0,8,00,60,01,00,53,18,00,40,
2120686,000001C7,false,Rx,0,4,AA,A0,FF,C0,00,00,00,00,
2121655,000001A1,false,Rx,0,8,B1,05,5C,10,F5,8C,80,20,
2126656,0000019F,false,Rx,0,8,E1,E1,7D,05,00,6A,50,FE,
2128105,00000155,false,Rx,0,8,47,87,C5,54,96,88,02,C3,
2130180,00000157,false,Rx,0,8,D5,BB,09,C4,FF,E0,00,80,
2130707,000001C7,false,Rx,0,4,AA,A0,FF,C0,00,00,00,00,
2131654,000001A1,false,Rx,0,8,B1,05,5C,10,F5,8C,80,20,
2135130,00000435,false,Rx,0,8,FF,FF,1E,0B,2E,10,00,00,
2136663,0000019F,false,Rx,0,8,E1,E1,7D,0A,00,6A,50,FE,
2136923,00000419,false,Rx,0,6,5E,22,32,E6,40,00,00,00,
2138130,00000155,false,Rx,0,8,47,87,C6,54,96,88,02,C3,
2140230,00000157,false,Rx,0,8,D5,0B,09,C4,FF,E0,00,80,
2140405,00000436,false,Rx,0,6,86,16,64,3C,FF,DC,00,00,
2140785,000004F7,false,Rx,0,8,00,1A,08,00,90,30,06,F0,
2140953,000001C7,false,Rx,0,4,AA,A0,FF,C0,00,00,00,00,
2141206,00000428,false,Rx,0,8,00,00,00,7F,00,00,00,00,
2141384,0000042F,false,Rx,0,2,00,20,00,00,00,00,00,00,
2141662,000001A1,false,Rx,0,8,B0,C5,5C,10,F5,8C,80,20,
2146658,0000019F,false,Rx,0,8,E1,E1,7D,0F,00,6A,50,FE,
2148105,00000155,false,Rx,0,8,47,87,C6,54,96,88,02,C3,
2149379,00000500,false,Rx,0,5,02,23,0B,74,A8,00,00,00,
2150204,00000157,false,Rx,0,8,D5,5B,09,C4,FF,E0,00,80,
2150706,000001C7,false,Rx,0,4,AA,A0,FF,C0,00,00,00,00,
2151654,000001A1,false,Rx,0,8,B0,C5,5C,10,F5,8C,80,20,
2156665,0000019F,false,Rx,0,8,E1,E1,7D,04,00,6A,50,FE,
2158179,00000155,false,Rx,0,8,47,87,C5,54,96,88,02,C3,
2160243,00000157,false,Rx,0,8,D5,AB,09,C4,FF,E0,00,80,
2160708,000001C7,false,Rx,0,4,AA,A0,FF,C0,00,00,00,00,
2161654,000001A1,false,Rx,0,8,B1,05,5C,10,F5,8C,80,20,
2166656,0000019F,false,Rx,0,8,E1,E1,7D,09,00,6A,50,FE,
2168154,00000155,false,Rx,0,8,47,87,C4,54,96,88,02,C3,
2170284,00000157,false,Rx,0,8,D5,FB,09,C4,FF,E0,00,80,
2170729,000001C7,false,Rx,0,4,AA,A0,FF,C0,00,00,00,00,
2171650,000001A1,false,Rx,0,8,B0,C5,5C,10,F5,8C,80,20,
2176660,0000019F,false,Rx,0,8,E1,E1,7D,0E,00,6A,50,FE,
2178157,00000155,false,Rx,0,8,47,87,C4,54,96,88,02,C3,
2180285,00000157,false,Rx,0,8,D5,4B,09,C4,FF,E0,00,80,
2180782,000001C7,false,Rx,0,4,AA,A0,FF,C0,00,00,00,00,
2181701,000001A1,false,Rx,0,8,B0,C5,5C,10,F5,8C,80,20,
2186711,0000019F,false,Rx,0,8,E1,E1,7D,03,00,6A,50,FE,
2186969,00000511,false,Rx,0,7,00,FE,8D,F9,2F,FF,31,00,
2188229,00000155,false,Rx,0,8,47,87,C6,54,96,88,02,C3,
2190303,00000157,false,Rx,0,8,D5,9B,09,C4,FF,E0,00,80,
2190747,000001C7,false,Rx,0,4,AA,A0,FF,C0,00,00,00,00,
2191702,000001A1,false,Rx,0,8,B1,05,5C,10,F5,8C,80,20,
2196700,0000019F,false,Rx,0,8,E1,E1,7D,08,00,6A,50,FE,
2198118,00000155,false,Rx,0,8,47,87,C5,54,96,88,02,C3,
2200176,00000157,false,Rx,0,8,D5,EB,09,C4,FF,E0,00,80,
2200802,000001C7,false,Rx,0,4,AA,A0,FF,C0,00,00,00,00,
2201714,000001A1,false,Rx,0,8,B1,05,5C,10,F5,8C,80,20,
2206704,0000019F,false,Rx,0,8,E1,E1,7D,0D,00,6A,50,FE,
2208155,00000155,false,Rx,0,8,47,87,C6,54,96,88,02,C3,
2210233,00000157,false,Rx,0,8,D5,3B,09,C4,FF,E0,00,80,
2210781,000001C7,false,Rx,0,4,AA,A0,FF,C0,00,00,00,00,
2211701,000001A1,false,Rx,0,8,B0,C5,5C,10,F5,8C,80,20,
2213381,00000445,false,Rx,0,7,80,55,55,65,04,82,00,00,
2215201,00000423,false,Rx,0,8,0B,1D,00,02,5D,80,B2,D8,
2216704,0000019F,false,Rx,0,8,E1,E1,7D,02,00,6A,50,FE,
2218152,00000155,false,Rx,0,8,47,87,C5,54,96,88,02,C3,
2218379,00000424,false,Rx,0,8,11,40,56,C8,33,5E,55,34,
2218562,00000425,false,Rx,0,8,2A,BA,44,9C,42,18,CD,0B,
2220330,00000157,false,Rx,0,8,D5,8B,09,C4,FF,E0,00,80,
2220558,00000426,false,Rx,0,8,00,60,01,00,53,18,00,40,
2220807,000001C7,false,Rx,0,4,AA,A0,FF,C0,00,00,00,00,
2221654,000001A1,false,Rx,0,8,B1,05,5C,10,F5,8C,80,20,
2226703,0000019F,false,Rx,0,8,E1,E1,7D,07,00,6A,50,FE,
2228151,00000155,false,Rx,0,8,47,87,C4,54,96,88,02,C3,
2230251,00000157,false,Rx,0,8,D5,DB,09,C4,FF,E0,00,80,
2230806,000001C7,false,Rx,0,4,AA,A0,FF,C0,00,00,00,00,
2231703,000001A1,false,Rx,0,8,B0,C5,5C,10,F5,8C,80,20,
2235212,00000435,false,Rx,0,8,FF,FF,1E,0B,2E,10,00,00,
2236713,0000019F,false,Rx,0,8,E1,E1,7D,0C,00,6A,50,FE,
2236953,00000419,false,Rx,0,6,5E,22,32,E6,40,00,00,00,
2238159,00000155,false,Rx,0,8,47,87,C4,54,96,88,02,C3,
2240247,00000157,false,Rx,0,8,D5,2B,09,C4,FF,E0,00,80,
2240427,00000436,false,Rx,0,6,86,16,64,3C,FF,DC,00,00,
2240799,000004F7,false,Rx,0,8,00,1A,08,00,90,30,06,F0,
2240974,000001C7,false,Rx,0,4,AA,A0,FF,C0,00,00,00,00,
2241286,00000428,false,Rx,0,8,00,00,00,7F,00,00,00,00,
2241377,0000042F,false,Rx,0,2,00,20,00,00,00,00,00,00,
2241696,000001A1,false,Rx,0,8,B1,05,5C,10,F5,8C,80,20,
2246920,0000019F,false,Rx,0,8,E1,E1,7D,01,00,6A,50,FE,
2248367,00000155,false,Rx,0,8,47,87,C5,54,96,88,02,C3,
2249421,00000500,false,Rx,0,5,02,7E,7D,53,E0,00,00,00,
2250413,00000157,false,Rx,0,8,D5,7B,09,C4,FF,E0,00,80,
2250922,000001C7,false,Rx,0,4,AA,A0,FF,C0,00,00,00,00,
2251920,000001A1,false,Rx,0,8,B0,C5,5C,10,F5,8C,80,20,
2256709,0000019F,false,Rx,0,8,E1,E1,7D,06,00,6A,50,FE,
2258243,00000155,false,Rx,0,8,47,87,C5,54,96,88,02,C3,
2260266,00000157,false,Rx,0,8,D5,CB,09,C4,FF,E0,00,80,
2260728,000001C7,false,Rx,0,4,AA,A0,FF,C0,00,00,00,00,
2261727,000001A1,false,Rx,0,8,B0,C5,5C,10,F5,8C,80,20,
2266935,0000019F,false,Rx,0,8,E1,E1,7D,0B,00,6A,50,FE,
2268293,00000155,false,Rx,0,8,47,87,C6,54,96,88,02,C3,
2269339,0000069F,false,Rx,0,4,71,30,28,2F,00,00,00,00,
2270314,00000157,false,Rx,0,8,D5,1B,09,C4,FF,E0,00,80,
2270853,000001C7,false,Rx,0,4,AA,A0,FF,C0,00,00,00,00,
2271815,000001A1,false,Rx,0,8,B1,05,5C,10,F5,8C,80,20,
2276812,0000019F,false,Rx,0,8,E1,E1,7D,00,00,6A,50,FE,
2278190,00000155,false,Rx,0,8,47,87,C6,54,96,88,02,C3,
2280277,00000157,false,Rx,0,8,D5,6B,09,C4,FF,E0,00,80,
2280838,000001C7,false,Rx,0,4,AA,A0,FF,C0,00,00,00,00,
2281814,000001A1,false,Rx,0,8,B1,05,5C,10,F5,8C,80,20,
2286837,0000019F,false,Rx,0,8,E1,E1,7D,05,00,6A,50,FE,
2286929,00000511,false,Rx,0,7,00,3D,56,B2,9A,0C,14,00,
2288344,00000155,false,Rx,0,8,47,87,C5,54,96,88,02,C3,
2290366,00000157,false,Rx,0,8,D5,BB,09,C4,FF,E0,00,80,
2290799,000001C7,false,Rx,0,4,AA,A0,FF,C0,00,00,00,00,
2291731,000001A1,false,Rx,0,8,B0,C5,5C,10,F5,8C,80,20,
2296741,0000019F,false,Rx,0,8,E1,E1,7D,0A,00,6A,50,FE,
2298418,00000155,false,Rx,0,8,47,87,C5,54,96,88,02,C3,
2300289,00000157,false,Rx,0,8,D5,0B,09,C4,FF,E0,00,80,
2300810,000001C7,false,Rx,0,4,AA,A0,FF,C0,00,00,00,00,
2301916,000001A1,false,Rx,0,8,B1,05,5C,10,F5,8C,80,20,
2306820,0000019F,false,Rx,0,8,E1,E1,7D,0F,00,6A,50,FE,
2308246,00000155,false,Rx,0,8,47,87,C4,54,96,88,02,C3,
2310494,00000157,false,Rx,0,8,D5,5B,09,C4,FF,E0,00,80,
2310841,000001C7,false,Rx,0,4,AA,A0,FF,C0,00,00,00,00,
2311914,000001A1,false,Rx,0,8,B1,05,5C,10,F5,8C,80,20,
2313500,00000445,false,Rx,0,7,80,55,AA,65,04,82,00,00,
2315360,00000423,false,Rx,0,8,0B,1D,00,02,5D,80,B2,D8,
2316758,0000019F,false,Rx,0,8,E1,E1,7D,04,00,6A,50,FE,
2318346,00000155,false,Rx,0,8,47,87,C5,54,96,88,02,C3,
2318355,00000424,false,Rx,0,8,11,40,56,C8,33,5E,55,34,
2318545,00000425,false,Rx,0,8,2A,BA,44,9C,42,18,CD,0B,
2320364,00000157,false,Rx,0,8,D5,AB,09,C4,FF,E0,00,80,
2320454,00000426,false,Rx,0,8,00,60,01,00,53,18,00,40,
2320844,000001C7,false,Rx,0,4,AA,A0,FF,C0,00,00,00,00,
2321663,000001A1,false,Rx,0,8,B0,C5,5C,10,F5,8C,80,20,
2326919,0000019F,false,Rx,0,8,E1,E1,7D,09,00,6A,50,FE,
2328371,00000155,false,Rx,0,8,47,87,C5,54,96,88,02,C3,
2330165,00000157,false,Rx,0,8,D5,FB,09,C4,FF,E0,00,80,
2330998,000001C7,false,Rx,0,4,AA,A0,FF,C0,00,00,00,00,
2331920,000001A1,false,Rx,0,8,B1,05,5C,10,F5,8C,80,20,
2335424,00000435,false,Rx,0,8,FF,FF,1E,0B,2E,10,00,00,
2336853,0000019F,false,Rx,0,8,E1,E1,7D,0E,00,6A,50,FE,
2336939,00000419,false,Rx,0,6,5E,22,32,E6,40,00,00,00,
2338271,00000155,false,Rx,0,8,47,87,C6,54,96,88,02,C3,
2340498,00000157,false,Rx,0,8,D5,4B,09,C4,FF,E0,00,80,
2340508,00000436,false,Rx,0,6,86,16,64,3C,FF,DC,00,00,
2340957,000004F7,false,Rx,0,8,00,1A,08,00,90,30,06,F0,
2341041,000001C7,false,Rx,0,4,AA,A0,FF,C0,00,00,00,00,
2341471,00000428,false,Rx,0,8,00,00,00,7F,00,00,00,00,
2341479,0000042F,false,Rx,0,2,00,20,00,00,00,00,00,00,
2341769,000001A1,false,Rx,0,8,B1,05,5C,10,F5,8C,80,20,
2346923,0000019F,false,Rx,0,8,E1,E1,7D,03,00,6A,50,FE,
2348372,00000155,false,Rx,0,8,47,87,C6,54,96,88,02,C3,
2349393,00000500,false,Rx,0,5,02,4C,61,4D,AA,00,00,00,
2350368,00000157,false,Rx,0,8,D5,9B,09,C4,FF,E0,00,80,
2350857,000001C7,false,Rx,0,4,AA,A0,FF,C0,00,00,00,00,
2351812,000001A1,false,Rx,0,8,B0,C5,5C,10,F5,8C,80,20,
2356696,0000019F,false,Rx,0,8,E1,E1,7D,08,00,6A,50,FE,
2358425,00000155,false,Rx,0,8,47,87,C5,54,96,88,02,C3,
2360345,00000157,false,Rx,0,8,D5,EB,09,C4,FF,E0,00,80,
2360830,000001C7,false,Rx,0,4,AA,A0,FF,C0,00,00,00,00,
2361921,000001A1,false,Rx,0,8,B0,C5,5C,10,F5,8C,80,20,
2366672,0000019F,false,Rx,0,8,E1,E1,7D,0D,00,6A,50,FE,
2368163,00000155,false,Rx,0,8,47,87,C5,54,96,88,02,C3,
2370188,00000157,false,Rx,0,8,D5,3B,09,C4,FF,E0,00,80,
2370817,000001C7,false,Rx,0,4,AA,A0,FF,C0,00,00,00,00,
2371657,000001A1,false,Rx,0,8,B1,05,5C,10,F5,8C,80,20,
2376664,0000019F,false,Rx,0,8,E1,E1,7D,02,00,6A,50,FE,
2378157,00000155,false,Rx,0,8,47,87,C5,54,96,88,02,C3,
2380207,00000157,false,Rx,0,8,D5,8B,09,C4,FF,E0,00,80,
2380809,000001C7,false,Rx,0,4,AA,A0,FF,C0,00,00,00,00,
2381656,000001A1,false,Rx,0,8,B0,C5,5C,10,F5,8C,80,20,
2386659,0000019F,false,Rx,0,8,E1,E1,7D,07,00,6A,50,FE,
2386925,00000511,false,Rx,0,7,00,7C,1F,6B,05,19,F7,00,
2388182,00000155,false,Rx,0,8,47,87,C5,54,96,88,02,C3,
2390158,00000157,false,Rx,0,8,D5,DB,09,C4,FF,E0,00,80,
2390810,000001C7,false,Rx,0,4,AA,A0,FF,C0,00,00,00,00,
2391657,000001A1,false,Rx,0,8,B0,C5,5C,10,F5,8C,80,20,
2396664,0000019F,false,Rx,0,8,E1,E1,7D,0C,00,6A,50,FE,
2398133,00000155,false,Rx,0,8,47,87,C5,54,96,88,02,C3,
2400183,00000157,false,Rx,0,8,D5,2B,09,C4,FF,E0,00,80,
2400810,000001C7,false,Rx,0,4,AA,A0,FF,C0,00,00,00,00,
2401657,000001A1,false,Rx,0,8,B1,05,5C,10,F5,8C,80,20,
2406659,0000019F,false,Rx,0,8,E1,E1,7D,01,00,6A,50,FE,
2408083,00000155,false,Rx,0,8,47,87,C6,54,96,88,02,C3,
2410183,00000157,false,Rx,0,8,D5,7B,09,C4,FF,E0,00,80,
2410810,000001C7,false,Rx,0,4,AA,A0,FF,C0,00,00,00,00,
2411657,000001A1,false,Rx,0,8,B0,C5,5C,10,F5,8C,80,20,
2413332,00000445,false,Rx,0,7,80,55,AA,65,04,82,00,00,
2415183,00000423,false,Rx,0,8,0B,1D,00,02,5D,80,B2,D8,
2416665,0000019F,false,Rx,0,8,E1,E1,7D,06,00,6A,50,FE,
2418082,00000155,false,Rx,0,8,47,87,C6,54,96,88,02,C3,
2418307,00000424,false,Rx,0,8,11,40,56,C8,33,5E,55,34,
2418535,00000425,false,Rx,0,8,2A,BA,44,9C,42,18,CD,0B,
2420262,00000157,false,Rx,0,8,D5,CB,09,C4,FF,E0,00,80,
2420484,00000426,false,Rx,0,8,00,60,01,00,53,18,00,40,
2420813,000001C7,false,Rx,0,4,AA,A0,FF,C0,00,00,00,00,
2421655,000001A1,false,Rx,0,8,B0,C5,5C,10,F5,8C,80,20,
2426655,0000019F,false,Rx,0,8,E1,E1,7D,0B,00,6A,50,FE,
2428105,00000155,false,Rx,0,8,47,87,C5,54,96,88,02,C3,
2430308,00000157,false,Rx,0,8,D5,1B,09,C4,FF,E0,00,80,
2430852,000001C7,false,Rx,0,4,AA,A0,FF,C0,00,00,00,00,
2431703,000001A1,false,Rx,0,8,B0,C5,5C,10,F5,8C,80,20,
2435143,00000435,false,Rx,0,8,FF,FF,1E,0B,2E,10,00,00,
2436672,0000019F,false,Rx,0,8,E1,E1,7D,00,00,6A,50,FE,
2436948,00000419,false,Rx,0,6,5E,22,32,E6,40,00,00,00,
2438143,00000155,false,Rx,0,8,47,87,C4,54,96,88,02,C3,
2440193,00000157,false,Rx,0,8,D5,6B,09,C4,FF,E0,00,80,
2440393,00000436,false,Rx,0,6,86,16,64,3C,FF,DC,00,00,
2440962,000004F7,false,Rx,0,8,00,1A,08,00,90,30,06,F0,
2441098,000001C7,false,Rx,0,4,AA,A0,FF,C0,00,00,00,00,
2441375,00000428,false,Rx,0,8,00,00,00,7F,00,00,00,00,
2441521,0000042F,false,Rx,0,2,00,20,00,00,00,00,00,00,
2441748,000001A1,false,Rx,0,8,B0,C5,5C,10,F5,8C,80,20,
2446669,0000019F,false,Rx,0,8,E1,E1,7D,05,00,6A,50,FE,
2448111,00000155,false,Rx,0,8,47,87,C5,54,96,88,02,C3,
2449506,00000500,false,Rx,0,5,02,39,E0,E8,4A,00,00,00,
2450254,00000157,false,Rx,0,8,D5,BB,09,C4,FF,E0,00,80,
2450833,000001C7,false,Rx,0,4,AA,A0,FF,C0,00,00,00,00,
2451655,000001A1,false,Rx,0,8,B1,05,5C,10,F5,8C,80,20,
2456671,0000019F,false,Rx,0,8,E1,E1,7D,0A,00,6A,50,FE,
2458257,00000155,false,Rx,0,8,47,87,C5,54,96,88,02,C3,
2460242,00000157,false,Rx,0,8,D5,0B,09,C4,FF,E0,00,80,
2460843,000001C7,false,Rx,0,4,AA,A0,FF,C0,00,00,00,00,
2461667,000001A1,false,Rx,0,8,B0,C5,5C,10,F5,8C,80,20,
2466671,0000019F,false,Rx,0,8,E1,E1,7D,0F,00,6A,50,FE,
2468121,00000155,false,Rx,0,8,47,87,C5,54,96,88,02,C3,
2470239,00000157,false,Rx,0,8,D5,5B,09,C4,FF,E0,00,80,
2470836,000001C7,false,Rx,0,4,AA,A0,FF,C0,00,00,00,00,
2471657,000001A1,false,Rx,0,8,B0,C5,5C,10,F5,8C,80,20,
2476673,0000019F,false,Rx,0,8,E1,E1,7D,04,00,6A,50,FE,
2478160,00000155,false,Rx,0,8,47,87,C6,54,96,88,02,C3,
2480269,00000157,false,Rx,0,8,D5,AB,09,C4,FF,E0,00,80,
2480869,000001C7,false,Rx,0,4,AA,A0,FF,C0,00,00,00,00,
2481666,000001A1,false,Rx,0,8,B1,05,5C,10,F5,8C,80,20,
2486671,0000019F,false,Rx,0,8,E1,E1,7D,09,00,6A,50,FE,
2486933,00000511,false,Rx,0,7,00,BB,E8,24,70,26,DA,00,
2488199,00000155,false,Rx,0,8,47,87,C5,54,96,88,02,C3,
2490216,00000157,false,Rx,0,8,D5,FB,09,C4,FF,E0,00,80,
2490911,000001C7,false,Rx,0,4,AA,A0,FF,C0,00,00,00,00,
2491704,000001A1,false,Rx,0,8,B1,05,5C,10,F5,8C,80,20,
2496674,0000019F,false,Rx,0,8,E1,E1,7D,0E,00,6A,50,FE,
2498161,00000155,false,Rx,0,8,47,87,C5,54,96,88,02,C3,
2500238,00000157,false,Rx,0,8,D5,4B,09,C4,FF,E0,00,80,
2500885,000001C7,false,Rx,0,4,AA,A0,FF,C0,00,00,00,00,
2501684,000001A1,false,Rx,0,8,B0,C5,5C,10,F5,8C,80,20,
2506682,0000019F,false,Rx,0,8,E1,E1,7D,03,00,6A,50,FE,
2508093,00000155,false,Rx,0,8,47,87,C5,54,96,88,02,C2,
2510169,00000157,false,Rx,0,8,D5,9B,09,C4,FF,E0,00,80,
2510869,000001C7,false,Rx,0,4,AA,A0,FF,C0,00,00,00,00,
2511663,000001A1,false,Rx,0,8,B1,05,5C,10,F5,8C,80,20,
2513343,00000445,false,Rx,0,7,80,55,AA,65,04,82,00,00,
2515137,00000423,false,Rx,0,8,0B,1D,00,02,5D,80,B2,D8,
2516665,0000019F,false,Rx,0,8,E1,E1,7D,08,00,6A,50,FE,
2518092,00000155,false,Rx,0,8,47,87,C5,54,96,88,02,C2,
2518311,00000424,false,Rx,0,8,11,40,56,C8,33,5E,55,34,
2518539,00000425,false,Rx,0,8,2A,BA,44,9C,42,18,CD,0B,
2520236,00000157,false,Rx,0,8,D5,EB,09,C4,FF,E0,00,80,
2520462,00000426,false,Rx,0,8,00,60,01,00,53,18,00,40,
2520871,000001C7,false,Rx,0,4,AA,A0,FF,C0,00,00,00,00,
2521661,000001A1,false,Rx,0,8,B1,05,5C,10,F5,8C,80,20,
2526670,0000019F,false,Rx,0,8,E1,E1,7D,0D,00,6A,50,FE,
2528092,00000155,false,Rx,0,8,47,87,C6,54,96,88,02,C2,
2530212,00000157,false,Rx,0,8,D5,3B,09,C4,FF,E0,00,80,
2530935,000001C7,false,Rx,0,4,AA,A0,FF,C0,00,00,00,00,
2531656,000001A1,false,Rx,0,8,B0,C5,5C,10,F5,8C,80,20,
2535162,00000435,false,Rx,0,8,FF,FF,1E,0B,2E,10,00,00,
2536671,0000019F,false,Rx,0,8,E1,E1,7D,02,00,6A,50,FE,
2536928,00000419,false,Rx,0,6,5E,22,32,E6,40,00,00,00,
2538106,00000155,false,Rx,0,8,47,87,C6,54,96,88,02,C2,
2540182,00000157,false,Rx,0,8,D5,8B,09,C4,FF,E0,00,80,
2540379,00000436,false,Rx,0,6,86,16,64,3C,FF,DC,00,00,
2540953,000004F7,false,Rx,0,8,00,1A,08,00,90,30,06,F0,
2541153,000001C7,false,Rx,0,4,AA,A0,FF,C0,00,00,00,00,
2541454,00000428,false,Rx,0,8,00,00,00,7F,00,00,00,00,
2541677,000001A1,false,Rx,0,8,B1,05,5C,10,F5,8C,80,20,
2541803,0000042F,false,Rx,0,2,00,20,00,00,00,00,00,00,
2546688,0000019F,false,Rx,0,8,E1,E1,7D,07,00,6A,50,FE,
2548094,00000155,false,Rx,0,8,47,87,C6,54,96,88,02,C2,
2549287,00000500,false,Rx,0,5,02,ED,50,0E,FA,00,00,00,
2550158,00000157,false,Rx,0,8,D5,DB,09,C4,FF,E0,00,80,
2550926,000001C7,false,Rx,0,4,AA,A0,FF,C0,00,00,00,00,
2551656,000001A1,false,Rx,0,8,B1,05,5C,10,F5,8C,80,20,
2556677,0000019F,false,Rx,0,8,E1,E1,7D,0C,00,6A,50,FE,
2558185,00000155,false,Rx,0,8,47,87,C5,54,96,88,02,C2,
2560166,00000157,false,Rx,0,8,D5,2B,09,C4,FF,E0,00,80,
2560936,000001C7,false,Rx,0,4,AA,A0,FF,C0,00,00,00,00,
2561660,000001A1,false,Rx,0,8,B0,C5,5C,10,F5,8C,80,20,
2566664,0000019F,false,Rx,0,8,E1,E1,7D,01,00,6A,50,FE,
2568159,00000155,false,Rx,0,8,47,87,C5,54,96,88,02,C2,
2570197,00000157,false,Rx,0,8,D5,7B,09,C4,FF,E0,00,80,
2570927,000001C7,false,Rx,0,4,AA,A0,FF,C0,00,00,00,00,
2571656,000001A1,false,Rx,0,8,B0,C5,5C,10,F5,8C,80,20,
2576673,0000019F,false,Rx,0,8,E1,E1,7D,06,00,6A,50,FE,
2578168,00000155,false,Rx,0,8,47,87,C4,54,96,88,02,C2,
2580213,00000157,false,Rx,0,8,D5,CB,09,C4,FF,E0,00,80,
2580936,000001C7,false,Rx,0,4,AA,A0,FF,C0,00,00,00,00,
2581676,000001A1,false,Rx,0,8,B1,05,5C,10,F5,8C,80,20,
2586671,0000019F,false,Rx,0,8,E1,E1,7D,0B,00,6A,50,FE,
2586925,00000511,false,Rx,0,7,00,FA,B1,DD,DB,33,BD,00,
2588185,00000155,false,Rx,0,8,47,87,C5,54,96,88,02,C2,
2590194,00000157,false,Rx,0,8,D5,1B,09,C4,FF,E0,00,80,
2590936,000001C7,false,Rx,0,4,AA,A0,FF,C0,00,00,00,00,
2591660,000001A1,false,Rx,0,8,B0,C5,5C,10,F5,8C,80,20,
2596674,0000019F,false,Rx,0,8,E1,E1,7D,00,00,6A,50,FE,
2598114,00000155,false,Rx,0,8,47,87,C5,54,96,88,02,C2,
2600169,00000157,false,Rx,0,8,D5,6B,09,C4,FF,E0,00,80,
2600938,000001C7,false,Rx,0,4,AA,A0,FF,C0,00,00,00,00,
2601659,000001A1,false,Rx,0,8,B0,C5,5C,10,F5,8C,80,20,
2606674,0000019F,false,Rx,0,8,E1,E1,7D,05,00,6A,50,FE,
2608099,00000155,false,Rx,0,8,47,87,C6,54,96,88,02,C2,
2610213,00000157,false,Rx,0,8,D5,BB,09,C4,FF,E0,00,80,
2610930,000001C7,false,Rx,0,4,AA,A0,FF,C0,00,00,00,00,
2611664,000001A1,false,Rx,0,8,B1,05,5C,10,F5,8C,80,20,
2613311,00000445,false,Rx,0,7,80,55,AA,65,04,82,00,00,
2615113,00000423,false,Rx,0,8,0B,1D,00,02,5D,80,B2,D8,
2616661,0000019F,false,Rx,0,8,E1,E1,7D,0A,00,6A,50,FE,
2618088,00000155,false,Rx,0,8,47,87,C6,54,96,88,02,C2,
2618313,00000424,false,Rx,0,8,11,40,56,C8,33,5E,55,34,
2618540,00000425,false,Rx,0,8,2A,BA,44,9C,42,18,CD,0B,
2620236,00000157,false,Rx,0,8,D5,0B,09,C4,FF,E0,00,80,
2620462,00000426,false,Rx,0,8,00,60,01,00,53,18,00,40,
2620928,000001C7,false,Rx,0,4,AA,A0,FF,C0,00,00,00,00,
2621657,000001A1,false,Rx,0,8,B0,C5,5C,10,F5,8C,80,20,
2626671,0000019F,false,Rx,0,8,E1,E1,7D,0F,00,6A,50,FE,
2628088,00000155,false,Rx,0,8,47,87,C5,54,96,88,02,C2,
2630270,00000157,false,Rx,0,8,D5,5B,09,C4,FF,E0,00,80,
2630930,000001C7,false,Rx,0,4,AA,A0,FF,C0,00,00,00,00,
2631660,000001A1,false,Rx,0,8,B0,C5,5C,10,F5,8C,80,20,
2635194,00000435,false,Rx,0,8,FF,FF,1E,0B,2E,10,00,00,
2636666,0000019F,false,Rx,0,8,E1,E1,7D,04,00,6A,50,FE,
2636926,00000419,false,Rx,0,6,5E,22,32,E6,40,00,00,00,
2638110,00000155,false,Rx,0,8,47,87,C4,54,96,88,02,C2,
2640216,00000157,false,Rx,0,8,D5,AB,09,C4,FF,E0,00,80,
2640413,00000436,false,Rx,0,6,86,16,64,3C,FF,DC,00,00,
2641014,000004F7,false,Rx,0,8,00,1A,08,00,90,30,06,F0,
2641187,000001C7,false,Rx,0,4,AA,A0,FF,C0,00,00,00,00,
2641442,00000428,false,Rx,0,8,00,00,00,7F,00,00,00,00,
2641669,000001A1,false,Rx,0,8,B1,05,5C,10,F5,8C,80,20,
2641801,0000042F,false,Rx,0,2,00,20,00,00,00,00,00,00,
2646673,0000019F,false,Rx,0,8,E1,E1,7D,09,00,6A,50,FE,
2648095,00000155,false,Rx,0,8,47,87,C4,54,96,88,02,C2,
2649297,00000500,false,Rx,0,5,02,FC,10,41,F8,00,00,00,
2650225,00000157,false,Rx,0,8,D5,FB,09,C4,FF,E0,00,80,
2650937,000001C7,false,Rx,0,4,AA,A0,FF,C0,00,00,00,00,
2651669,000001A1,false,Rx,0,8,B1,05,5C,10,F5,8C,80,20,
2656673,0000019F,false,Rx,0,8,E1,E1,7D,0E,00,6A,50,FE,
2658214,00000155,false,Rx,0,8,47,87,C5,54,96,88,02,C2,
2660215,00000157,false,Rx,0,8,D5,4B,09,C4,FF,E0,00,80,
2660961,000001C7,false,Rx,0,4,AA,A0,FF,C0,00,00,00,00,
2661669,000001A1,false,Rx,0,8,B1,05,5C,10,F5,8C,80,20,
2666665,0000019F,false,Rx,0,8,E1,E1,7D,03,00,6A,50,FE,
2668113,00000155,false,Rx,0,8,47,87,C5,54,96,88,02,C2,
2670237,00000157,false,Rx,0,8,D5,9B,09,C4,FF,E0,00,80,
2670957,000001C7,false,Rx,0,4,AA,A0,FF,C0,00,00,00,00,
2671661,000001A1,false,Rx,0,8,B0,C5,5C,10,F5,8C,80,20,
2676662,0000019F,false,Rx,0,8,E1,E1,7D,08,00,6A,50,FE,
2678111,00000155,false,Rx,0,8,47,87,C6,54,96,88,02,C2,
2680154,00000157,false,Rx,0,8,D5,EB,09,C4,FF,E0,00,80,
2680958,000001C7,false,Rx,0,4,AA,A0,FF,C0,00,00,00,00,
2681662,000001A1,false,Rx,0,8,B0,C5,5C,10,F5,8C,80,20,
2686663,0000019F,false,Rx,0,8,E1,E1,7D,0D,00,6A,50,FE,
2686925,00000511,false,Rx,0,7,00,39,7A,96,46,40,A0,00,
2688182,00000155,false,Rx,0,8,47,87,C5,54,96,88,02,C2,
2690234,00000157,false,Rx,0,8,D5,3B,09,C4,FF,E0,00,80,
2690958,000001C7,false,Rx,0,4,AA,A0,FF,C0,00,00,00,00,
2691659,000001A1,false,Rx,0,8,B1,05,5C,10,F5,8C,80,20,
2696663,0000019F,false,Rx,0,8,E1,E1,7D,02,00,6A,50,FE,
2698128,00000155,false,Rx,0,8,47,87,C5,54,96,88,02,C2,
2700154,00000157,false,Rx,0,8,D5,8B,09,C4,FF,E0,00,80,
2700951,000001C7,false,Rx,0,4,AA,A0,FF,C0,00,00,00,00,
2701651,000001A1,false,Rx,0,8,B0,C5,5C,10,F5,8C,80,20,
2706663,0000019F,false,Rx,0,8,E1,E1,7D,07,00,6A,50,FE,
2708084,00000155,false,Rx,0,8,47,87,C5,54,96,88,02,C2,
2710212,00000157,false,Rx,0,8,D5,DB,09,C4,FF,E0,00,80,
2710983,000001C7,false,Rx,0,4,AA,A0,FF,C0,00,00,00,00,
2711658,000001A1,false,Rx,0,8,B0,C5,5C,10,F5,8C,80,20,
2713310,00000445,false,Rx,0,7,80,55,AA,65,04,82,00,00,
2715160,00000423,false,Rx,0,8,0B,1D,00,02,B2,80,5D,D8,
2716659,0000019F,false,Rx,0,8,E1,E1,7D,0C,00,6A,50,FE,
2718083,00000155,false,Rx,0,8,47,87,C5,54,96,88,02,C2,
2718308,00000424,false,Rx,0,8,11,40,56,C8,33,5E,AA,34,
2718536,00000425,false,Rx,0,8,2A,BA,44,9C,42,18,CD,0B,
2720258,00000157,false,Rx,0,8,D5,2B,09,C4,FF,E0,00,80,
2720484,00000426,false,Rx,0,8,00,60,01,00,53,18,00,40,
2720981,000001C7,false,Rx,0,4,AA,A0,FF,C0,00,00,00,00,
2721658,000001A1,false,Rx,0,8,B1,05,5C,10,F5,8C,80,20,
2726678,0000019F,false,Rx,0,8,E1,E1,7D,01,00,6A,50,FE,
2728078,00000155,false,Rx,0,8,47,87,C5,54,96,88,02,C2,
2730183,00000157,false,Rx,0,8,D5,7B,09,C4,FF,E0,00,80,
2731007,000001C7,false,Rx,0,4,AA,A0,FF,C0,00,00,00,00,
2731653,000001A1,false,Rx,0,8,B0,C5,5C,10,F5,8C,80,20,
2735181,00000435,false,Rx,0,8,FF,FF,1E,0B,2E,10,00,00,
2736653,0000019F,false,Rx,0,8,E1,E1,7D,06,00,6A,50,FE,
2736918,00000419,false,Rx,0,6,5E,22,32,E6,40,00,00,00,
2738076,00000155,false,Rx,0,8,47,87,C5,54,96,88,02,C2,
2740279,00000157,false,Rx,0,8,D5,CB,09,C4,FF,E0,00,80,
2740429,00000436,false,Rx,0,6,86,16,64,3C,FF,DC,00,00,
2741057,000004F7,false,Rx,0,8,00,1A,08,00,90,30,06,F0,
2741233,000001C7,false,Rx,0,4,AA,A0,FF,C0,00,00,00,00,
2741486,00000428,false,Rx,0,8,00,00,00,7F,00,00,00,00,
2741713,000001A1,false,Rx,0,8,B0,C5,5C,10,F5,8C,80,20,
2741846,0000042F,false,Rx,0,2,00,20,00,00,00,00,00,00,
2746657,0000019F,false,Rx,0,8,E1,E1,7D,0B,00,6A,50,FE,
2748085,00000155,false,Rx,0,8,47,87,C6,54,96,88,02,C2,
2749586,00000500,false,Rx,0,5,02,94,A9,D3,8F,00,00,00,
2750131,00000157,false,Rx,0,8,D5,1B,09,C4,FF,E0,00,80,
2751012,000001C7,false,Rx,0,4,AA,A0,FF,C0,00,00,00,00,
2751665,000001A1,false,Rx,0,8,B1,05,5C,10,F5,8C,80,20,
2756667,0000019F,false,Rx,0,8,E1,E1,7D,00,00,6A,50,FE,
2758160,00000155,false,Rx,0,8,47,87,C5,54,96,88,02,C2,
2760231,00000157,false,Rx,0,8,D5,6B,09,C4,FF,E0,00,80,
2761003,000001C7,false,Rx,0,4,AA,A0,FF,C0,00,00,00,00,
2761652,000001A1,false,Rx,0,8,B1,05,5C,10,F5,8C,80,20,
2766663,0000019F,false,Rx,0,8,E1,E1,7D,05,00,6A,50,FE,
2768134,00000155,false,Rx,0,8,47,87,C5,54,96,88,02,C2,
2770155,00000157,false,Rx,0,8,D5,BB,09,C4,FF,E0,00,80,
2771002,000001C7,false,Rx,0,4,AA,A0,FF,C0,00,00,00,00,
2771651,000001A1,false,Rx,0,8,B0,C5,5C,10,F5,8C,80,20,
2776660,0000019F,false,Rx,0,8,E1,E1,7D,0A,00,6A,50,FE,
2778133,00000155,false,Rx,0,8,47,87,C5,54,96,88,02,C2,
2780182,00000157,false,Rx,0,8,D5,0B,09,C4,FF,E0,00,80,
2781032,000001C7,false,Rx,0,4,AA,A0,FF,C0,00,00,00,00,
2781653,000001A1,false,Rx,0,8,B1,05,5C,10,F5,8C,80,20,
2786668,0000019F,false,Rx,0,8,E1,E1,7D,0F,00,6A,50,FE,
2786926,00000511,false,Rx,0,7,00,78,43,4F,B1,4D,83,00,
2788158,00000155,false,Rx,0,8,47,87,C5,54,96,88,02,C2,
2790230,00000157,false,Rx,0,8,D5,5B,09,C4,FF,E0,00,80,
2791028,000001C7,false,Rx,0,4,AA,A0,FF,C0,00,00,00,00,
2791652,000001A1,false,Rx,0,8,B1,05,5C,10,F5,8C,80,20,
2796661,0000019F,false,Rx,0,8,E1,E1,7D,04,00,6A,50,FE,
2798085,00000155,false,Rx,0,8,47,87,C5,54,96,88,02,C2,
2800186,00000157,false,Rx,0,8,D5,AB,09,C4,FF,E0,00,80,
2801033,000001C7,false,Rx,0,4,AA,A0,FF,C0,00,00,00,00,
2801661,000001A1,false,Rx,0,8,B0,C5,5C,10,F5,8C,80,20,
2806661,0000019F,false,Rx,0,8,E1,E1,7D,09,00,6A,50,FE,
2808081,00000155,false,Rx,0,8,47,87,C6,54,96,88,02,C2,
2810181,00000157,false,Rx,0,8,D5,FB,09,C4,FF,E0,00,80,
2811028,000001C7,false,Rx,0,4,AA,A0,FF,C0,00,00,00,00,
2811679,000001A1,false,Rx,0,8,B1,05,5C,10,F5,8C,80,20,
2813309,00000445,false,Rx,0,7,80,55,55,65,04,82,00,00,
2815160,00000423,false,Rx,0,8,0B,1D,00,02,B2,80,5D,D8,
2816658,0000019F,false,Rx,0,8,E1,E1,7D,0E,00,6A,50,FE,
2818083,00000155,false,Rx,0,8,47,87,C6,54,96,88,02,C2,
2818310,00000424,false,Rx,0,8,11,40,56,C8,33,5E,AA,34,
2818540,00000425,false,Rx,0,8,2A,BA,44,9C,42,18,CD,0B,
2820236,00000157,false,Rx,0,8,D5,4B,09,C4,FF,E0,00,80,
2820463,00000426,false,Rx,0,8,00,60,01,00,53,18,00,40,
2821058,000001C7,false,Rx,0,4,AA,A0,FF,C0,00,00,00,00,
2821661,000001A1,false,Rx,0,8,B1,05,5C,10,F5,8C,80,20,
2826660,0000019F,false,Rx,0,8,E1,E1,7D,03,00,6A,50,FE,
2828085,00000155,false,Rx,0,8,47,87,C5,54,96,88,02,C2,
2830184,00000157,false,Rx,0,8,D5,9B,09,C4,FF,E0,00,80,
2831059,000001C7,false,Rx,0,4,AA,A0,FF,C0,00,00,00,00,
2831661,000001A1,false,Rx,0,8,B0,C5,5C,10,F5,8C,80,20,
2835184,00000435,false,Rx,0,8,FF,FF,1E,0B,2E,10,00,00,
2836732,0000019F,false,Rx,0,8,E1,E1,7D,08,00,6A,50,FE,
2837000,00000419,false,Rx,0,6,5E,22,32,E6,40,00,00,00,
2838275,00000155,false,Rx,0,8,47,87,C4,54,96,88,02,C2,
2840318,00000157,false,Rx,0,8,D5,EB,09,C4,FF,E0,00,80,
2840346,00000436,false,Rx,0,6,86,16,64,3C,FF,DC,00,00,
2841385,000004F7,false,Rx,0,8,00,1A,08,00,90,30,06,F0,
2841390,000001C7,false,Rx,0,4,AA,A0,FF,C0,00,00,00,00,
2841630,00000428,false,Rx,0,8,00,00,00,7F,00,00,00,00,
2841867,000001A1,false,Rx,0,8,B0,C5,5C,10,F5,8C,80,20,
2841924,0000042F,false,Rx,0,2,00,20,00,00,00,00,00,00,
2846925,0000019F,false,Rx,0,8,E1,E1,7D,0D,00,6A,50,FE,
2848158,00000155,false,Rx,0,8,47,87,C4,54,96,88,02,C2,
2849643,00000500,false,Rx,0,5,02,B8,9E,F6,8D,00,00,00,
2850415,00000157,false,Rx,0,8,D5,3B,09,C4,FF,E0,00,80,
2851314,000001C7,false,Rx,0,4,AA,A0,FF,C0,00,00,00,00,
2851943,000001A1,false,Rx,0,8,B1,05,5C,10,F5,8C,80,20,
2856691,0000019F,false,Rx,0,8,E1,E1,7D,02,00,6A,50,FE,
2858444,00000155,false,Rx,0,8,47,87,C5,54,96,88,02,C2,
2860423,00000157,false,Rx,0,8,D5,8B,09,C4,FF,E0,00,80,
2861248,000001C7,false,Rx,0,4,AA,A0,FF,C0,00,00,00,00,
2861923,000001A1,false,Rx,0,8,B1,05,5C,10,F5,8C,80,20,
2866674,0000019F,false,Rx,0,8,E1,E1,7D,07,00,6A,50,FE,
2868120,00000155,false,Rx,0,8,47,87,C5,54,96,88,02,C2,
2870194,00000157,false,Rx,0,8,D5,DB,09,C4,FF,E0,00,80,
2871093,000001C7,false,Rx,0,4,AA,A0,FF,C0,00,00,00,00,
2871671,000001A1,false,Rx,0,8,B0,C5,5C,10,F5,8C,80,20,
2876669,0000019F,false,Rx,0,8,E1,E1,7D,0C,00,6A,50,FE,
2878121,00000155,false,Rx,0,8,47,87,C6,54,96,88,02,C2,
2880171,00000157,false,Rx,0,8,D5,2B,09,C4,FF,E0,00,80,
2881096,000001C7,false,Rx,0,4,AA,A0,FF,C0,00,00,00,00,
2881673,000001A1,false,Rx,0,8,B0,C5,5C,10,F5,8C,80,20,
2886672,0000019F,false,Rx,0,8,E1,E1,7D,01,00,6A,50,FE,
2886939,00000511,false,Rx,0,7,00,B7,0C,08,1C,5A,66,00,
2888171,00000155,false,Rx,0,8,47,87,C6,54,96,88,02,C2,
2890146,00000157,false,Rx,0,8,D5,7B,09,C4,FF,E0,00,80,
2891097,000001C7,false,Rx,0,4,AA,A0,FF,C0,00,00,00,00,
2891674,000001A1,false,Rx,0,8,B0,C5,5C,10,F5,8C,80,20,
2896672,0000019F,false,Rx,0,8,E1,E1,7D,06,00,6A,50,FE,
2898146,00000155,false,Rx,0,8,47,87,C5,54,96,88,02,C2,
2900197,00000157,false,Rx,0,8,D5,CB,09,C4,FF,E0,00,80,
2901121,000001C7,false,Rx,0,4,AA,A0,FF,C0,00,00,00,00,
2901673,000001A1,false,Rx,0,8,B1,05,5C,10,F5,8C,80,20,
2906671,0000019F,false,Rx,0,8,E1,E1,7D,0B,00,6A,50,FE,
2908071,00000155,false,Rx,0,8,47,87,C5,54,96,88,02,C2,
2910198,00000157,false,Rx,0,8,D5,1B,09,C4,FF,E0,00,80,
2911121,000001C7,false,Rx,0,4,AA,A0,FF,C0,00,00,00,00,
2911673,000001A1,false,Rx,0,8,B0,C5,5C,10,F5,8C,80,20,
2913294,00000445,false,Rx,0,7,80,55,55,65,04,82,00,00,
2915145,00000423,false,Rx,0,8,0B,1D,00,02,B2,80,5D,D8,
2916663,0000019F,false,Rx,0,8,E1,E1,7D,00,00,6A,50,FE,
2918058,00000155,false,Rx,0,8,47,87,C5,54,96,88,02,C2,
2918305,00000424,false,Rx,0,8,11,40,56,C8,33,5E,AA,34,
2918505,00000425,false,Rx,0,8,2A,BA,44,9C,42,18,CD,0B,
2920130,00000157,false,Rx,0,8,D5,6B,09,C4,FF,E0,00,80,
2920380,00000426,false,Rx,0,8,00,60,01,00,53,18,00,40,
2921106,000001C7,false,Rx,0,4,AA,A0,FF,C0,00,00,00,00,
2921685,000001A1,false,Rx,0,8,B0,C5,5C,10,F5,8C,80,20,
2926682,0000019F,false,Rx,0,8,E1,E1,7D,05,00,6A,50,FE,
2928139,00000155,false,Rx,0,8,47,87,C5,54,96,88,02,C2,
2930195,00000157,false,Rx,0,8,D5,BB,09,C4,FF,E0,00,80,
2931135,000001C7,false,Rx,0,4,AA,A0,FF,C0,00,00,00,00,
2931672,000001A1,false,Rx,0,8,B1,05,5C,10,F5,8C,80,20,
2935122,00000435,false,Rx,0,8,FF,FF,1E,0B,2E,10,00,00,
2936672,0000019F,false,Rx,0,8,E1,E1,7D,0A,00,6A,50,FE,
2936936,00000419,false,Rx,0,6,5E,22,32,E6,40,00,00,00,
2938096,00000155,false,Rx,0,8,47,87,C5,54,96,88,02,C2,
2940221,00000157,false,Rx,0,8,D5,0B,09,C4,FF,E0,00,80,
2940423,00000436,false,Rx,0,6,86,16,64,3C,FF,DC,00,00,
2941212,000004F7,false,Rx,0,8,00,1A,08,00,90,30,06,F0,
2941362,000001C7,false,Rx,0,4,AA,A0,FF,C0,00,00,00,00,
2941637,00000428,false,Rx,0,8,00,00,00,7F,00,00,00,00,
2941861,000001A1,false,Rx,0,8,B1,05,5C,10,F5,8C,80,20,
2941985,0000042F,false,Rx,0,2,00,20,00,00,00,00,00,00,
2946674,0000019F,false,Rx,0,8,E1,E1,7D,0F,00,6A,50,FE,
2948096,00000155,false,Rx,0,8,47,87,C6,54,96,88,02,C2,
2949446,00000500,false,Rx,0,5,02,69,C1,3B,99,00,00,00,
2950171,00000157,false,Rx,0,8,D5,5B,09,C4,FF,E0,00,80,
2951146,000001C7,false,Rx,0,4,AA,A0,FF,C0,00,00,00,00,
2951673,000001A1,false,Rx,0,8,B0,C5,5C,10,F5,8C,80,20,
2956671,0000019F,false,Rx,0,8,E1,E1,7D,04,00,6A,50,FE,
2958272,00000155,false,Rx,0,8,47,87,C5,54,96,88,02,C2,
2960271,00000157,false,Rx,0,8,D5,AB,09,C4,FF,E0,00,80,
2961147,000001C7,false,Rx,0,4,AA,A0,FF,C0,00,00,00,00,
2961674,000001A1,false,Rx,0,8,B1,05,5C,10,F5,8C,80,20,
2966676,0000019F,false,Rx,0,8,E1,E1,7D,09,00,6A,50,FE,
2968149,00000155,false,Rx,0,8,47,87,C5,54,96,88,02,C2,
2970196,00000157,false,Rx,0,8,D5,FB,09,C4,FF,E0,00,80,
2971144,000001C7,false,Rx,0,4,AA,A0,FF,C0,00,00,00,00,
2971673,000001A1,false,Rx,0,8,B1,05,5C,10,F5,8C,80,20,
2976673,0000019F,false,Rx,0,8,E1,E1,7D,0E,00,6A,50,FE,
2978147,00000155,false,Rx,0,8,47,87,C5,54,96,88,02,C2,
2980247,00000157,false,Rx,0,8,D5,4B,09,C4,FF,E0,00,80,
2981166,000001C7,false,Rx,0,4,AA,A0,FF,C0,00,00,00,00,
2981687,000001A1,false,Rx,0,8,B0,C5,5C,10,F5,8C,80,20,
2986701,0000019F,false,Rx,0,8,E1,E1,7D,03,00,6A,50,FE,
2986965,00000511,false,Rx,0,7,00,F6,D5,C1,87,67,49,00,
2988197,00000155,false,Rx,0,8,47,87,C5,54,96,88,02,C2,
2990197,00000157,false,Rx,0,8,D5,9B,09,C4,FF,E0,00,80,
2991198,000001C7,false,Rx,0,4,AA,A0,FF,C0,00,00,00,00,
2991658,000001A1,false,Rx,0,8,B1,05,5C,10,F5,8C,80,20,
2996754,0000019F,false,Rx,0,8,E1,E1,7D,08,00,6A,50,FE,
2998225,00000155,false,Rx,0,8,47,87,C6,54,96,88,02,C2,
3000165,00000157,false,Rx,0,8,D5,EB,09,C4,FF,E0,00,80,
3001213,000001C7,false,Rx,0,4,AA,A0,FF,C0,00,00,00,00,
3001712,000001A1,false,Rx,0,8,B1,05,5C,10,F5,8C,80,20,
3006823,0000019F,false,Rx,0,8,E1,E1,7D,0D,00,6A,50,FE,
3008224,00000155,false,Rx,0,8,47,87,C5,54,96,88,02,C2,
3010339,00000157,false,Rx,0,8,D5,3B,09,C4,FF,E0,00,80,
3011366,000001C7,false,Rx,0,4,AA,A0,FF,C0,00,00,00,00,
3011856,000001A1,false,Rx,0,8,B0,C5,5C,10,F5,8C,80,20,
3013294,00000445,false,Rx,0,7,80,55,55,65,04,82,00,00,
3015119,00000423,false,Rx,0,8,0B,1D,00,02,B2,80,5D,D8,
3016846,0000019F,false,Rx,0,8,E1,E1,7D,02,00,6A,50,FE,
3018321,00000155,false,Rx,0,8,47,87,C6,54,96,88,02,C2,
3018330,00000424,false,Rx,0,8,11,40,56,C8,33,5E,AA,34,
3018567,00000425,false,Rx,0,8,2A,BA,44,9C,42,18,CD,0B,
3020424,00000157,false,Rx,0,8,D5,8B,09,C4,FF,E0,00,80,
3020433,00000426,false,Rx,0,8,00,60,01,00,53,18,00,40,
3021348,000001C7,false,Rx,0,4,AA,A0,FF,C0,00,00,00,00,
3021725,000001A1,false,Rx,0,8,B0,C5,5C,10,F5,8C,80,20,
3026925,0000019F,false,Rx,0,8,E1,E1,7D,07,00,6A,50,FE,
3028324,00000155,false,Rx,0,8,47,87,C5,54,96,88,02,C2,
3030323,00000157,false,Rx,0,8,D5,DB,09,C4,FF,E0,00,80,
3031449,000001C7,false,Rx,0,4,AA,A0,FF,C0,00,00,00,00,
3031750,000001A1,false,Rx,0,8,B1,05,5C,10,F5,8C,80,20,
3035285,00000435,false,Rx,0,8,FF,FF,1E,0B,2E,10,00,00,
3036746,0000019F,false,Rx,0,8,E1,E1,7D,0C,00,6A,50,FE,
3036979,00000419,false,Rx,0,6,5E,22,32,E6,40,00,00,00,
3038247,00000155,false,Rx,0,8,47,87,C5,54,96,88,02,C2,
3040421,00000157,false,Rx,0,8,D5,2B,09,C4,FF,E0,00,80,
3040430,00000436,false,Rx,0,6,86,16,64,3C,FF,DC,00,00,
3041424,000004F7,false,Rx,0,8,00,1A,08,00,90,30,06,F0,
3041456,000001C7,false,Rx,0,4,AA,A0,FF,C0,00,00,00,00,
3041721,000001A1,false,Rx,0,8,B0,C5,5C,10,F5,8C,80,20,
3042002,00000428,false,Rx,0,8,00,00,00,7F,00,00,00,00,
3042084,0000042F,false,Rx,0,2,00,20,00,00,00,00,00,00,
3046740,0000019F,false,Rx,0,8,E1,E1,7D,01,00,6A,50,FE,
3048248,00000155,false,Rx,0,8,47,87,C4,54,96,88,02,C2,
3049944,00000500,false,Rx,0,5,02,10,19,8F,46,00,00,00,
3050375,00000157,false,Rx,0,8,D5,7B,09,C4,FF,E0,00,80,
3051371,000001C7,false,Rx,0,4,AA,A0,FF,C0,00,00,00,00,
3051841,000001A1,false,Rx,0,8,B0,C5,5C,10,F5,8C,80,20,
3056680,0000019F,false,Rx,0,8,E1,E1,7D,06,00,6A,50,FE,
3058448,00000155,false,Rx,0,8,47,87,C5,54,96,88,02,C2,
3060428,00000157,false,Rx,0,8,D5,CB,09,C4,FF,E0,00,80,
3061471,000001C7,false,Rx,0,4,AA,A0,FF,C0,00,00,00,00,
3061743,000001A1,false,Rx,0,8,B1,05,5C,10,F5,8C,80,20,
3066923,0000019F,false,Rx,0,8,E1,E1,7D,0B,00,6A,50,FE,
3068399,00000155,false,Rx,0,8,47,87,C5,54,96,88,02,C2,
3070500,00000157,false,Rx,0,8,D5,1B,09,C4,FF,E0,00,80,
3071477,000001C7,false,Rx,0,4,AA,A0,FF,C0,00,00,00,00,
3071716,000001A1,false,Rx,0,8,B1,05,5C,10,F5,8C,80,20,
3076850,0000019F,false,Rx,0,8,E1,E1,7D,00,00,6A,50,FE,
3078156,00000155,false,Rx,0,8,47,87,C6,54,96,88,02,C2,
3080406,00000157,false,Rx,0,8,D5,6B,09,C4,FF,E0,00,80,
3081478,000001C7,false,Rx,0,4,AA,A0,FF,C0,00,00,00,00,
3081708,000001A1,false,Rx,0,8,B0,C5,5C,10,F5,8C,80,20,
3086686,0000019F,false,Rx,0,8,E1,E1,7D,05,00,6A,50,FE,
3086948,00000511,false,Rx,0,7,00,35,9E,7A,F2,74,2C,00,
3088276,00000155,false,Rx,0,8,47,87,C6,54,96,88,02,C2,
3090195,00000157,false,Rx,0,8,D5,BB,09,C4,FF,E0,00,80,
3091263,000001C7,false,Rx,0,4,AA,A0,FF,C0,00,00,00,00,
3091842,000001A1,false,Rx,0,8,B1,05,5C,10,F5,8C,80,20,
3096850,0000019F,false,Rx,0,8,E1,E1,7D,0A,00,6A,50,FE,
3098401,00000155,false,Rx,0,8,47,87,C5,54,96,88,02,C2,
3100278,00000157,false,Rx,0,8,D5,0B,09,C4,FF,E0,00,80,
3101453,000001C7,false,Rx,0,4,AA,A0,FF,C0,00,00,00,00,
3101584,000001A1,false,Rx,0,8,B0,C5,5C,10,F5,8C,80,20,
3106881,0000019F,false,Rx,0,8,E1,E1,7D,0F,00,6A,50,FE,
3108327,00000155,false,Rx,0,8,47,87,C5,54,96,88,02,C2,
3110458,00000157,false,Rx,0,8,D5,5B,09,C4,FF,E0,00,80,
3111453,000001C7,false,Rx,0,4,AA,A0,FF,C0,00,00,00,00,
3111745,000001A1,false,Rx,0,8,B1,05,5C,10,F5,8C,80,20,
3113367,00000445,false,Rx,0,7,80,55,55,65,04,82,00,00,
3115188,00000423,false,Rx,0,8,0B,1D,00,02,B2,80,5D,D8,
3116617,0000019F,false,Rx,0,8,E1,E1,7D,04,00,6A,50,FE,
3118076,00000155,false,Rx,0,8,47,87,C5,54,96,88,02,C2,
3118303,00000424,false,Rx,0,8,11,40,56,C8,33,5E,AA,34,
3118536,00000425,false,Rx,0,8,2A,BA,44,9C,42,18,CD,0B,
3120224,00000157,false,Rx,0,8,D5,AB,09,C4,FF,E0,00,80,
3120450,00000426,false,Rx,0,8,00,60,01,00,53,18,00,40,
3121200,000001C7,false,Rx,0,4,AA,A0,FF,C0,00,00,00,00,
3121675,000001A1,false,Rx,0,8,B1,05,5C,10,F5,8C,80,20,
3126593,0000019F,false,Rx,0,8,E1,E1,7D,09,00,6A,50,FE,
3128088,00000155,false,Rx,0,8,47,87,C5,54,96,88,02,C2,
3130237,00000157,false,Rx,0,8,D5,FB,09,C4,FF,E0,00,80,
3131214,000001C7,false,Rx,0,4,AA,A0,FF,C0,00,00,00,00,
3131588,000001A1,false,Rx,0,8,B1,05,5C,10,F5,8C,80,20,
3135115,00000435,false,Rx,0,8,FF,FF,1E,0B,2E,10,00,00,
3136589,0000019F,false,Rx,0,8,E1,E1,7D,0E,00,6A,50,FE,
3136838,00000419,false,Rx,0,6,5E,22,32,E6,40,00,00,00,
3138088,00000155,false,Rx,0,8,47,87,C6,54,96,88,02,C2,
3140214,00000157,false,Rx,0,8,D5,4B,09,C4,FF,E0,00,80,
3140412,00000436,false,Rx,0,6,86,16,64,3C,FF,DC,00,00,
3141288,000004F7,false,Rx,0,8,00,1A,08,00,90,30,06,F0,
3141462,000001C7,false,Rx,0,4,AA,A0,FF,C0,00,00,00,00,
3141687,000001A1,false,Rx,0,8,B1,05,5C,10,F5,8C,80,20,
3141930,00000428,false,Rx,0,8,00,00,00,7F,00,00,00,00,
3142053,0000042F,false,Rx,0,2,00,20,00,00,00,00,00,00,
3146590,0000019F,false,Rx,0,8,E1,E1,7D,03,00,6A,50,FE,
3148089,00000155,false,Rx,0,8,47,87,C6,54,96,88,02,C2,
3149489,00000500,false,Rx,0,5,02,F4,0A,FE,32,00,00,00,
3150188,00000157,false,Rx,0,8,D5,9B,09,C4,FF,E0,00,80,
3151211,000001C7,false,Rx,0,4,AA,A0,FF,C0,00,00,00,00,
3151589,000001A1,false,Rx,0,8,B0,C5,5C,10,F5,8C,80,20,
3156590,0000019F,false,Rx,0,8,E1,E1,7D,08,00,6A,50,FE,
3158138,00000155,false,Rx,0,8,47,87,C6,54,96,88,02,C2,
3160139,00000157,false,Rx,0,8,D5,EB,09,C4,FF,E0,00,80,
3161214,000001C7,false,Rx,0,4,AA,A0,FF,C0,00,00,00,00,
3161587,000001A1,false,Rx,0,8,B0,C5,5C,10,F5,8C,80,20,
3166590,0000019F,false,Rx,0,8,E1,E1,7D,0D,00,6A,50,FE,
3168138,00000155,false,Rx,0,8,47,87,C5,54,96,88,02,C2,
3170137,00000157,false,Rx,0,8,D5,3B,09,C4,FF,E0,00,80,
3171215,000001C7,false,Rx,0,4,AA,A0,FF,C0,00,00,00,00,
3171589,000001A1,false,Rx,0,8,B1,05,5C,10,F5,8C,80,20,
3176588,0000019F,false,Rx,0,8,E1,E1,7D,02,00,6A,50,FE,
3178175,00000155,false,Rx,0,8,47,87,C4,54,96,88,02,C2,
3180233,00000157,false,Rx,0,8,D5,8B,09,C4,FF,E0,00,80,
3181218,000001C7,false,Rx,0,4,AA,A0,FF,C0,00,00,00,00,
3181638,000001A1,false,Rx,0,8,B0,C5,5C,10,F5,8C,80,20,
3186595,0000019F,false,Rx,0,8,E1,E1,7D,07,00,6A,50,FE,
3186862,00000511,false,Rx,0,7,00,74,67,33,5D,81,0F,00,
3188164,00000155,false,Rx,0,8,47,87,C5,54,96,88,02,C2,
3190191,00000157,false,Rx,0,8,D5,DB,09,C4,FF,E0,00,80,
3191240,000001C7,false,Rx,0,4,AA,A0,FF,C0,00,00,00,00,
3191587,000001A1,false,Rx,0,8,B0,C5,5C,10,F5,8C,80,20,
3196592,0000019F,false,Rx,0,8,E1,E1,7D,0C,00,6A,50,FE,
3198091,00000155,false,Rx,0,8,47,87,C5,54,96,88,02,C2,
3200164,00000157,false,Rx,0,8,D5,2B,09,C4,FF,E0,00,80,
3201239,000001C7,false,Rx,0,4,AA,A0,FF,C0,00,00,00,00,
3201588,000001A1,false,Rx,0,8,B1,05,5C,10,F5,8C,80,20,
3206592,0000019F,false,Rx,0,8,E1,E1,7D,01,00,6A,50,FE,
3208065,00000155,false,Rx,0,8,47,87,C6,54,96,88,02,C2,
3210216,00000157,false,Rx,0,8,D5,7B,09,C4,FF,E0,00,80,
3211240,000001C7,false,Rx,0,4,AA,A0,FF,C0,00,00,00,00,
3211588,000001A1,false,Rx,0,8,B1,05,5C,10,F5,8C,80,20,
3213264,00000445,false,Rx,0,7,80,55,55,65,04,82,00,00,
3215165,00000423,false,Rx,0,8,0B,1D,00,02,5D,80,B2,D8,
3216592,0000019F,false,Rx,0,8,E1,E1,7D,06,00,6A,50,FE,
3218064,00000155,false,Rx,0,8,47,87,C6,54,96,88,02,C2,
3218286,00000424,false,Rx,0,8,11,40,56,C8,33,5E,55,34,
3218512,00000425,false,Rx,0,8,2A,BA,44,9C,42,18,CD,0B,
3220243,00000157,false,Rx,0,8,D5,CB,09,C4,FF,E0,00,80,
3220488,00000426,false,Rx,0,8,00,60,01,00,53,18,00,40,
3221264,000001C7,false,Rx,0,4,AA,A0,FF,C0,00,00,00,00,
3221588,000001A1,false,Rx,0,8,B0,C5,5C,10,F5,8C,80,20,
3226591,0000019F,false,Rx,0,8,E1,E1,7D,0B,00,6A,50,FE,
3228065,00000155,false,Rx,0,8,47,87,C5,54,96,88,02,C2,
3230184,00000157,false,Rx,0,8,D5,1B,09,C4,FF,E0,00,80,
3231258,000001C7,false,Rx,0,4,AA,A0,FF,C0,00,00,00,00,
3231585,000001A1,false,Rx,0,8,B1,05,5C,10,F5,8C,80,20,
3235143,00000435,false,Rx,0,8,FF,FF,1E,0B,2E,10,00,00,
3236617,0000019F,false,Rx,0,8,E1,E1,7D,00,00,6A,50,FE,
3236865,00000419,false,Rx,0,6,5E,22,32,E6,40,00,00,00,
3238118,00000155,false,Rx,0,8,47,87,C5,54,96,88,02,C2,
3240167,00000157,false,Rx,0,8,D5,6B,09,C4,FF,E0,00,80,
3240337,00000436,false,Rx,0,6,86,16,64,3C,FF,DC,00,00,
3241335,000004F7,false,Rx,0,8,00,1A,08,00,90,30,06,F0,
3241509,000001C7,false,Rx,0,4,AA,A0,FF,C0,00,00,00,00,
3241735,000001A1,false,Rx,0,8,B1,05,5C,10,F5,8C,80,20,
3242007,00000428,false,Rx,0,8,00,00,00,7F,00,00,00,00,
3242206,0000042F,false,Rx,0,2,00,20,00,00,00,00,00,00,
3246705,0000019F,false,Rx,0,8,E1,E1,7D,05,00,6A,50,FE,
3248124,00000155,false,Rx,0,8,47,87,C4,54,96,88,02,C2,
3249724,00000500,false,Rx,0,5,02,EE,67,75,ED,00,00,00,
3250450,00000157,false,Rx,0,8,D5,BB,09,C4,FF,E0,00,80,
3251474,000001C7,false,Rx,0,4,AA,A0,FF,C0,00,00,00,00,
3251562,000001A1,false,Rx,0,8,B0,C5,5C,10,F5,8C,80,20,
3256588,0000019F,false,Rx,0,8,E1,E1,7D,0A,00,6A,50,FE,
3258343,00000155,false,Rx,0,8,47,87,C5,54,96,88,02,C2,
3260422,00000157,false,Rx,0,8,D5,0B,09,C4,FF,E0,00,80,
3261491,000001C7,false,Rx,0,4,AA,A0,FF,C0,00,00,00,00,
3261626,000001A1,false,Rx,0,8,B0,C5,5C,10,F5,8C,80,20,
3266825,0000019F,false,Rx,0,8,E1,E1,7D,0F,00,6A,50,FE,
3268298,00000155,false,Rx,0,8,47,87,C5,54,96,88,02,C2,
3269594,0000069F,false,Rx,0,4,71,30,28,2F,00,00,00,00,
3270360,00000157,false,Rx,0,8,D5,5B,09,C4,FF,E0,00,80,
3271320,000001C7,false,Rx,0,4,AA,A0,FF,C0,00,00,00,00,
3271707,000001A1,false,Rx,0,8,B1,05,5C,10,F5,8C,80,20,
3276766,0000019F,false,Rx,0,8,E1,E1,7D,04,00,6A,50,FE,
3278127,00000155,false,Rx,0,8,47,87,C6,54,96,88,02,C2,
3280361,00000157,false,Rx,0,8,D5,AB,09,C4,FF,E0,00,80,
3281505,000001C7,false,Rx,0,4,AA,A0,FF,C0,00,00,00,00,
3281563,000001A1,false,Rx,0,8,B1,05,5C,10,F5,8C,80,20,
3286786,0000019F,false,Rx,0,8,E1,E1,7D,09,00,6A,50,FE,
3286846,00000511,false,Rx,0,7,00,B3,30,EC,C8,8E,F2,00,
3288377,00000155,false,Rx,0,8,47,87,C6,54,96,88,02,C2,
3290433,00000157,false,Rx,0,8,D5,FB,09,C4,FF,E0,00,80,
3291334,000001C7,false,Rx,0,4,AA,A0,FF,C0,00,00,00,00,
3291679,000001A1,false,Rx,0,8,B0,C5,5C,10,F5,8C,80,20,
3296835,0000019F,false,Rx,0,8,E1,E1,7D,0E,00,6A,50,FE,
3298327,00000155,false,Rx,0,8,47,87,C5,54,96,88,02,C2,
3300367,00000157,false,Rx,0,8,D5,4B,09,C4,FF,E0,00,80,
3301500,000001C7,false,Rx,0,4,AA,A0,FF,C0,00,00,00,00,
3301565,000001A1,false,Rx,0,8,B1,05,5C,10,F5,8C,80,20,
3306604,0000019F,false,Rx,0,8,E1,E1,7D,03,00,6A,50,FE,
3308067,00000155,false,Rx,0,8,47,87,C4,54,96,88,02,C2,
3310240,00000157,false,Rx,0,8,D5,9B,09,C4,FF,E0,00,80,
3311290,000001C7,false,Rx,0,4,AA,A0,FF,C0,00,00,00,00,
3311588,000001A1,false,Rx,0,8,B1,05,5C,10,F5,8C,80,20,
3313264,00000445,false,Rx,0,7,80,55,AA,65,04,82,00,00,
3315190,00000423,false,Rx,0,8,0B,1D,00,02,5D,80,B2,D8,
3316589,0000019F,false,Rx,0,8,E1,E1,7D,08,00,6A,50,FE,
3318066,00000155,false,Rx,0,8,47,87,C4,54,96,88,02,C2,
3318288,00000424,false,Rx,0,8,11,40,56,C8,33,5E,55,34,
3318513,00000425,false,Rx,0,8,2A,BA,44,9C,42,18,CD,0B,
3320189,00000157,false,Rx,0,8,D5,EB,09,C4,FF,E0,00,80,
3320412,00000426,false,Rx,0,8,00,60,01,00,53,18,00,40,
3321314,000001C7,false,Rx,0,4,AA,A0,FF,C0,00,00,00,00,
3321588,000001A1,false,Rx,0,8,B0,C5,5C,10,F5,8C,80,20,
3326592,0000019F,false,Rx,0,8,E1,E1,7D,0D,00,6A,50,FE,
3328064,00000155,false,Rx,0,8,47,87,C5,54,96,88,02,C2,
3330190,00000157,false,Rx,0,8,D5,3B,09,C4,FF,E0,00,80,
3331315,000001C7,false,Rx,0,4,AA,A0,FF,C0,00,00,00,00,
3331588,000001A1,false,Rx,0,8,B0,C5,5C,10,F5,8C,80,20,
3335143,00000435,false,Rx,0,8,FF,FF,1E,0B,2E,10,00,00,
3336592,0000019F,false,Rx,0,8,E1,E1,7D,02,00,6A,50,FE,
3336839,00000419,false,Rx,0,6,5E,22,32,E6,40,00,00,00,
3338066,00000155,false,Rx,0,8,47,87,C5,54,96,88,02,C2,
3340146,00000157,false,Rx,0,8,D5,8B,09,C4,FF,E0,00,80,
3340339,00000436,false,Rx,0,6,86,16,64,3C,FF,DC,00,00,
3341390,000004F7,false,Rx,0,8,00,1A,08,00,90,30,06,F0,
3341613,000001A1,false,Rx,0,8,B0,C5,5C,10,F5,8C,80,20,
3341787,000001C7,false,Rx,0,4,AA,A0,FF,C0,00,00,00,00,
3342063,00000428,false,Rx,0,8,00,00,00,7F,00,00,00,00,
3342212,0000042F,false,Rx,0,2,00,20,00,00,00,00,00,00,
3346622,0000019F,false,Rx,0,8,E1,E1,7D,07,00,6A,50,FE,
3348279,00000155,false,Rx,0,8,47,87,C6,54,96,88,02,C2,
3349988,00000500,false,Rx,0,5,02,2C,F2,85,07,00,00,00,
3350276,00000157,false,Rx,0,8,D5,DB,09,C4,FF,E0,00,80,
3351398,000001C7,false,Rx,0,4,AA,A0,FF,C0,00,00,00,00,
3351662,000001A1,false,Rx,0,8,B1,05,5C,10,F5,8C,80,20,
3356831,0000019F,false,Rx,0,8,E1,E1,7D,0C,00,6A,50,FE,
3358352,00000155,false,Rx,0,8,47,87,C5,54,96,88,02,C2,
3360254,00000157,false,Rx,0,8,D5,2B,09,C4,FF,E0,00,80,
3361524,000001C7,false,Rx,0,4,AA,A0,FF,C0,00,00,00,00,
3361562,000001A1,false,Rx,0,8,B1,05,5C,10,F5,8C,80,20,
3366634,0000019F,false,Rx,0,8,E1,E1,7D,01,00,6A,50,FE,
3368181,00000155,false,Rx,0,8,47,87,C5,54,96,88,02,C2,
3370230,00000157,false,Rx,0,8,D5,7B,09,C4,FF,E0,00,80,
3371376,000001C7,false,Rx,0,4,AA,A0,FF,C0,00,00,00,00,
3371626,000001A1,false,Rx,0,8,B0,C5,5C,10,F5,8C,80,20,
3376631,0000019F,false,Rx,0,8,E1,E1,7D,06,00,6A,50,FE,
3378177,00000155,false,Rx,0,8,47,87,C4,54,96,88,02,C2,
3380251,00000157,false,Rx,0,8,D5,CB,09,C4,FF,E0,00,80,
3381380,000001C7,false,Rx,0,4,AA,A0,FF,C0,00,00,00,00,
3381625,000001A1,false,Rx,0,8,B1,05,5C,10,F5,8C,80,20,
3386628,0000019F,false,Rx,0,8,E1,E1,7D,0B,00,6A,50,FE,
3386900,00000511,false,Rx,0,7,00,F2,F9,A5,33,9B,D5,00,
3388175,00000155,false,Rx,0,8,47,87,C5,54,96,88,02,C2,
3390227,00000157,false,Rx,0,8,D5,1B,09,C4,FF,E0,00,80,
3391376,000001C7,false,Rx,0,4,AA,A0,FF,C0,00,00,00,00,
3391625,000001A1,false,Rx,0,8,B0,C5,5C,10,F5,8C,80,20,
3396627,0000019F,false,Rx,0,8,E1,E1,7D,00,00,6A,50,FE,
3398135,00000155,false,Rx,0,8,47,87,C5,54,96,88,02,C2,
3400267,00000157,false,Rx,0,8,D5,6B,09,C4,FF,E0,00,80,
3401387,000001C7,false,Rx,0,4,AA,A0,FF,C0,00,00,00,00,
3401614,000001A1,false,Rx,0,8,B0,C5,5C,10,F5,8C,80,20,
3406638,0000019F,false,Rx,0,8,E1,E1,7D,05,00,6A,50,FE,
3408112,00000155,false,Rx,0,8,47,87,C5,54,96,88,02,C2,
3410237,00000157,false,Rx,0,8,D5,BB,09,C4,FF,E0,00,80,
3411388,000001C7,false,Rx,0,4,AA,A0,FF,C0,00,00,00,00,
3411618,000001A1,false,Rx,0,8,B1,05,5C,10,F5,8C,80,20,
3413311,00000445,false,Rx,0,7,80,55,AA,65,04,82,00,00,
3415187,00000423,false,Rx,0,8,0B,1D,00,02,5D,80,B2,D8,
3416637,0000019F,false,Rx,0,8,E1,E1,7D,0A,00,6A,50,FE,
3418112,00000155,false,Rx,0,8,47,87,C6,54,96,88,02,C2,
3418294,00000424,false,Rx,0,8,11,40,56,C8,33,5E,55,34,
3418490,00000425,false,Rx,0,8,2A,BA,44,9C,42,18,CD,0C,
3420238,00000157,false,Rx,0,8,D5,0B,09,C4,FF,E0,00,80,
3420461,00000426,false,Rx,0,8,00,60,01,00,53,18,00,40,
3421363,000001C7,false,Rx,0,4,AA,A0,FF,C0,00,00,00,00,
3421590,000001A1,false,Rx,0,8,B1,05,5C,10,F5,8C,80,20,
3426642,0000019F,false,Rx,0,8,E1,E1,7D,0F,00,6A,50,FE,
3428116,00000155,false,Rx,0,8,47,87,C5,54,96,88,02,C2,
3430265,00000157,false,Rx,0,8,D5,5B,09,C4,FF,E0,00,80,
3431420,000001C7,false,Rx,0,4,AA,A0,FF,C0,00,00,00,00,
3431611,000001A1,false,Rx,0,8,B0,C5,5C,10,F5,8C,80,20,
3435155,00000435,false,Rx,0,8,FF,FF,1E,0B,2E,10,00,00,
3436592,0000019F,false,Rx,0,8,E1,E1,7D,04,00,6A,50,FE,
3436886,00000419,false,Rx,0,6,5E,22,32,E6,40,00,00,00,
3438140,00000155,false,Rx,0,8,47,87,C4,54,96,88,02,C2,
3440190,00000157,false,Rx,0,8,D5,AB,09,C4,FF,E0,00,80,
3440350,00000436,false,Rx,0,6,86,16,64,3C,FF,DC,00,00,
3441488,000004F7,false,Rx,0,8,00,1A,08,00,90,30,06,F0,
3441716,000001A1,false,Rx,0,8,B1,05,5C,10,F5,8C,80,20,
3441848,000001C7,false,Rx,0,4,AA,A0,FF,C0,00,00,00,00,
3442091,00000428,false,Rx,0,8,00,00,00,7F,00,00,00,00,
3442220,0000042F,false,Rx,0,2,00,20,00,00,00,00,00,00,
3446604,0000019F,false,Rx,0,8,E1,E1,7D,09,00,6A,50,FE,
3448070,00000155,false,Rx,0,8,47,87,C4,54,96,88,02,C2,
3449593,00000500,false,Rx,0,5,02,85,5D,0D,C5,00,00,00,
3450217,00000157,false,Rx,0,8,D5,FB,09,C4,FF,E0,00,80,
3451367,000001C7,false,Rx,0,4,AA,A0,FF,C0,00,00,00,00,
3451594,000001A1,false,Rx,0,8,B1,45,5C,10,F5,8C,80,20,
3456594,0000019F,false,Rx,0,8,E1,E1,7D,0E,00,6A,50,FE,
3458165,00000155,false,Rx,0,8,47,87,C5,54,96,88,02,C2,
3460203,00000157,false,Rx,0,8,D5,4B,09,C4,FF,E0,00,80,
3461398,000001C7,false,Rx,0,4,AA,A0,FF,C0,00,00,00,00,
3461622,000001A1,false,Rx,0,8,B0,C5,5C,10,F5,8C,80,20,
3466601,0000019F,false,Rx,0,8,E1,E1,7D,03,00,6A,50,FE,
3468093,00000155,false,Rx,0,8,47,87,C5,54,96,88,02,C2,
3470250,00000157,false,Rx,0,8,D5,9B,09,C4,FF,E0,00,80,
3471367,000001C7,false,Rx,0,4,AA,A0,FF,C0,00,00,00,00,
3471617,000001A1,false,Rx,0,8,B0,C5,5C,10,F5,8C,80,20,
3476625,0000019F,false,Rx,0,8,E1,E1,7D,08,00,6A,50,FE,
3478103,00000155,false,Rx,0,8,47,87,C6,54,96,88,02,C2,
3480203,00000157,false,Rx,0,8,D5,EB,09,C4,FF,E0,00,80,
3481401,000001C7,false,Rx,0,4,AA,A0,FF,C0,00,00,00,00,
3481626,000001A1,false,Rx,0,8,B1,05,5C,10,F5,8C,80,20,
3486580,0000019F,false,Rx,0,8,E1,E1,7D,0D,00,6A,50,FE,
3486880,00000511,false,Rx,0,7,00,31,C2,5E,9E,A8,B8,00,
3488192,00000155,false,Rx,0,8,47,87,C6,54,96,88,02,C2,
3490141,00000157,false,Rx,0,8,D5,3B,09,C4,FF,E0,00,80,
3491391,000001C7,false,Rx,0,4,AA,A0,FF,C0,00,00,00,00,
3491612,000001A1,false,Rx,0,8,B0,C5,5C,10,F5,8C,80,20,
3496577,0000019F,false,Rx,0,8,E1,E1,7D,02,00,6A,50,FE,
3498120,00000155,false,Rx,0,8,47,87,C5,54,96,88,02,C2,
3500145,00000157,false,Rx,0,8,D5,8B,09,C4,FF,E0,00,80,
3501399,000001C7,false,Rx,0,4,AA,A0,FF,C0,00,00,00,00,
3501623,000001A1,false,Rx,0,8,B1,05,5C,10,F5,8C,80,20,
3506604,0000019F,false,Rx,0,8,E1,E1,7D,07,00,6A,50,FE,
3508077,00000155,false,Rx,0,8,47,87,C4,54,96,88,02,C2,
3510164,00000157,false,Rx,0,8,D5,DB,09,C4,FF,E0,00,80,
3511386,000001C7,false,Rx,0,4,AA,A0,FF,C0,00,00,00,00,
3511633,000001A1,false,Rx,0,8,B1,05,5C,10,F5,8C,80,20,
3513219,00000445,false,Rx,0,7,80,55,AA,65,04,82,00,00,
3515196,00000423,false,Rx,0,8,0B,1D,00,02,5D,80,B2,D8,
3516568,0000019F,false,Rx,0,8,E1,E1,7D,0C,00,6A,50,FE,
3518041,00000155,false,Rx,0,8,47,87,C4,54,96,88,02,C2,
3518292,00000424,false,Rx,0,8,11,40,56,C8,33,5E,55,34,
3518520,00000425,false,Rx,0,8,2A,BA,44,9C,42,18,CD,0C,
3520167,00000157,false,Rx,0,8,D5,2B,09,C4,FF,E0,00,80,
3520393,00000426,false,Rx,0,8,00,60,01,00,53,18,00,40,
3521417,000001C7,false,Rx,0,4,AA,A0,FF,C0,00,00,00,00,
3521642,000001A1,false,Rx,0,8,B0,C5,5C,10,F5,8C,80,20,
3526570,0000019F,false,Rx,0,8,E1,E1,7D,01,00,6A,50,FE,
3528067,00000155,false,Rx,0,8,47,87,C5,54,96,88,02,C2,
3530138,00000157,false,Rx,0,8,D5,7B,09,C4,FF,E0,00,80,
3531412,000001C7,false,Rx,0,4,AA,A0,FF,C0,00,00,00,00,
3531634,000001A1,false,Rx,0,8,B0,C5,5C,10,F5,8C,80,20,
3535197,00000435,false,Rx,0,8,FF,FF,1E,0B,2E,10,00,00,
3536591,0000019F,false,Rx,0,8,E1,E1,7D,06,00,6A,50,FE,
3536843,00000419,false,Rx,0,6,5E,22,32,E6,40,00,00,00,
3538067,00000155,false,Rx,0,8,47,87,C5,54,96,88,02,C2,
3540143,00000157,false,Rx,0,8,D5,CB,09,C4,FF,E0,00,80,
3540341,00000436,false,Rx,0,6,86,16,64,3C,FF,DC,00,00,
3541493,000004F7,false,Rx,0,8,00,1A,08,00,90,30,06,F0,
3541716,000001A1,false,Rx,0,8,B1,05,5C,10,F5,8C,80,20,
3541932,000001C7,false,Rx,0,4,AA,A0,FF,C0,00,00,00,00,
3542137,00000428,false,Rx,0,8,00,00,00,7F,00,00,00,00,
3542291,0000042F,false,Rx,0,2,00,20,00,00,00,00,00,00,
3546576,0000019F,false,Rx,0,8,E1,E1,7D,0B,00,6A,50,FE,
3548066,00000155,false,Rx,0,8,47,87,C6,54,96,88,02,C2,
3549618,00000500,false,Rx,0,5,02,4F,76,BE,A2,00,00,00,
3550142,00000157,false,Rx,0,8,D5,1B,09,C4,FF,E0,00,80,
3551414,000001C7,false,Rx,0,4,AA,A0,FF,C0,00,00,00,00,
3551641,000001A1,false,Rx,0,8,B1,05,5C,10,F5,8C,80,20,
3556570,0000019F,false,Rx,0,8,E1,E1,7D,00,00,6A,50,FE,
3558141,00000155,false,Rx,0,8,47,87,C5,54,96,88,02,C3,
3560196,00000157,false,Rx,0,8,D5,6B,09,C4,FF,E0,00,80,
3561441,000001C7,false,Rx,0,4,AA,A0,FF,C0,00,00,00,00,
3561667,000001A1,false,Rx,0,8,B1,05,5C,10,F5,8C,80,20,
3566570,0000019F,false,Rx,0,8,E1,E1,7D,05,00,6A,50,FE,
3568119,00000155,false,Rx,0,8,47,87,C4,54,96,88,02,C3,
3570170,00000157,false,Rx,0,8,D5,BB,09,C4,FF,E0,00,80,
3571447,000001C7,false,Rx,0,4,AA,A0,FF,C0,00,00,00,00,
3571668,000001A1,false,Rx,0,8,B0,C5,5C,10,F5,8C,80,20,
3576578,0000019F,false,Rx,0,8,E1,E1,7D,0A,00,6A,50,FE,
3578119,00000155,false,Rx,0,8,47,87,C4,54,96,88,02,C3,
3580216,00000157,false,Rx,0,8,D5,0B,09,C4,FF,E0,00,80,
3581446,000001C7,false,Rx,0,4,AA,A0,FF,C0,00,00,00,00,
3581674,000001A1,false,Rx,0,8,B1,05,5C,10,F5,8C,80,20,
3586569,0000019F,false,Rx,0,8,E1,E1,7D,0F,00,6A,50,FE,
3586868,00000511,false,Rx,0,7,00,70,8B,17,09,B5,9B,00,
3588140,00000155,false,Rx,0,8,47,87,C5,54,96,88,02,C3,
3590216,00000157,false,Rx,0,8,D5,5B,09,C4,FF,E0,00,80,
3591441,000001C7,false,Rx,0,4,AA,A0,FF,C0,00,00,00,00,
3591668,000001A1,false,Rx,0,8,B1,05,5C,10,F5,8C,80,20,
3596595,0000019F,false,Rx,0,8,E1,E1,7D,04,00,6A,50,FE,
3598091,00000155,false,Rx,0,8,47,87,C5,54,96,88,02,C3,
3600169,00000157,false,Rx,0,8,D5,AB,09,C4,FF,E0,00,80,
3601466,000001C7,false,Rx,0,4,AA,A0,FF,C0,00,00,00,00,
3601691,000001A1,false,Rx,0,8,B1,05,5C,10,F5,8C,80,20,
3606573,0000019F,false,Rx,0,8,E1,E1,7D,09,00,6A,50,FE,
3608043,00000155,false,Rx,0,8,47,87,C6,54,96,88,02,C3,
3610169,00000157,false,Rx,0,8,D5,FB,09,C4,FF,E0,00,80,
3611468,000001C7,false,Rx,0,4,AA,A0,FF,C0,00,00,00,00,
3611692,000001A1,false,Rx,0,8,B0,C5,5C,10,F5,8C,80,20,
3613217,00000445,false,Rx,0,7,80,55,AA,65,04,82,00,00,
3615168,00000423,false,Rx,0,8,0B,1D,00,02,5D,80,B2,D8,
3616571,0000019F,false,Rx,0,8,E1,E1,7D,0E,00,6A,50,FE,
3618092,00000155,false,Rx,0,8,47,87,C6,54,96,88,02,C3,
3618297,00000424,false,Rx,0,8,11,40,56,C8,33,5E,55,34,
3618496,00000425,false,Rx,0,8,2A,BA,44,9C,42,18,CD,0B,
3620227,00000157,false,Rx,0,8,D5,4B,09,C4,FF,E0,00,80,
3620469,00000426,false,Rx,0,8,00,60,01,00,53,18,00,40,
3621470,000001C7,false,Rx,0,4,AA,A0,FF,C0,00,00,00,00,
3621694,000001A1,false,Rx,0,8,B1,05,5C,10,F5,8C,80,20,
3626571,0000019F,false,Rx,0,8,E1,E1,7D,03,00,6A,50,FE,
3628068,00000155,false,Rx,0,8,47,87,C5,54,96,88,02,C3,
3630221,00000157,false,Rx,0,8,D5,9B,09,C4,FF,E0,00,80,
