Time Stamp,ID,Extended,Dir,Bus,LEN,D1,D2,D3,D4,D5,D6,D7,D8
19190309,0000019F,false,Rx,0,8,00,00,7D,00,00,6A,90,FE,
19194818,00000155,false,Rx,0,8,3E,87,CE,54,95,E8,02,C2,
19195283,000001A1,false,Rx,0,8,B1,05,84,10,35,0C,80,20,
19197007,000001C7,false,Rx,0,4,AA,A0,FF,C0,00,00,00,00,
19198491,00000157,false,Rx,0,8,D5,B7,09,C4,FF,E0,00,80,
19200248,0000019F,false,Rx,0,8,00,00,7D,05,00,6A,90,FE,
19200510,00000511,false,Rx,0,7,04,C3,E2,36,38,42,DA,00,
19204684,00000155,false,Rx,0,8,3E,87,CE,54,95,E8,02,C3,
19204929,00000424,false,Rx,0,8,11,40,56,C8,33,5E,55,34,
19205132,00000425,false,Rx,0,8,2A,BE,44,9C,42,1A,CD,0C,
19205374,000001A1,false,Rx,0,8,B1,05,84,10,35,0C,80,20,
19206959,000001C7,false,Rx,0,4,AA,A0,FF,C0,00,00,00,00,
19208280,00000157,false,Rx,0,8,D5,07,09,C4,FF,E0,00,80,
2159,0000019F,false,Rx,0,8,00,00,7D,0A,00,6A,90,FE,
6652,00000155,false,Rx,0,8,3E,87,CE,54,95,E8,02,C3,
7164,000001A1,false,Rx,0,8,B1,45,84,10,A5,0C,80,20,
8959,000001C7,false,Rx,0,4,AA,A0,FF,C0,00,00,00,00,
10283,00000157,false,Rx,0,8,D5,57,09,C4,FF,E0,00,80,
12149,0000019F,false,Rx,0,8,00,00,7D,0F,00,6A,90,FE,
15268,00000423,false,Rx,0,8,07,1D,00,02,B2,80,B2,D8,
16651,00000155,false,Rx,0,8,3E,87,CE,54,95,E8,02,C3,
17156,000001A1,false,Rx,0,8,B1,45,84,10,45,0C,80,20,
18955,000001C7,false,Rx,0,4,AA,A0,FF,C0,00,00,00,00,
20306,00000157,false,Rx,0,8,D5,A7,09,C4,FF,E0,00,80,
20553,00000426,false,Rx,0,8,00,60,01,00,53,18,00,40,
22154,0000019F,false,Rx,0,8,00,00,7D,04,00,6A,90,FE,
26634,00000155,false,Rx,0,8,3E,87,CE,54,95,E8,02,C3,
27183,000001A1,false,Rx,0,8,B1,05,70,10,25,0C,80,20,
29006,000001C7,false,Rx,0,4,AA,A0,FF,C0,00,00,00,00,
30331,00000157,false,Rx,0,8,D5,F7,09,C4,FF,E0,00,80,
32144,0000019F,false,Rx,0,8,00,00,7D,09,00,6A,90,FE,
35299,00000435,false,Rx,0,8,FF,FF,1E,0B,2E,10,00,00,
36731,00000155,false,Rx,0,8,3E,87,CE,54,95,E8,02,C3,
37181,000001A1,false,Rx,0,8,B1,45,84,10,45,0C,80,20,
39007,000001C7,false,Rx,0,4,AA,A0,FF,C0,00,00,00,00,
40356,00000157,false,Rx,0,8,D5,47,09,C4,FF,E0,00,80,
40515,00000436,false,Rx,0,6,86,16,64,37,FF,DC,00,00,
42182,0000019F,false,Rx,0,8,00,00,7D,0E,00,6A,90,FE,
42437,00000419,false,Rx,0,6,5E,08,2A,E6,4C,00,00,00,
46694,00000155,false,Rx,0,8,3E,87,CE,54,95,E8,02,C3,
47176,000001A1,false,Rx,0,8,B1,45,70,10,15,0C,80,20,
48982,000001C7,false,Rx,0,4,AA,A0,FF,C0,00,00,00,00,
50276,00000157,false,Rx,0,8,D5,97,09,C4,FF,E0,00,80,
52152,0000019F,false,Rx,0,8,00,00,7D,03,00,6A,90,FE,
56668,00000155,false,Rx,0,8,3E,87,CD,54,95,E8,02,C3,
57145,000001A1,false,Rx,0,8,B1,05,70,10,25,0C,80,20,
58995,000001C7,false,Rx,0,4,AA,A0,FF,C0,00,00,00,00,
60270,00000157,false,Rx,0,8,D5,E7,09,C4,FF,E0,00,80,
62145,0000019F,false,Rx,0,8,00,00,7D,08,00,6A,90,FE,
63094,00000445,false,Rx,0,7,80,55,AA,65,04,82,00,00,
66666,00000155,false,Rx,0,8,3E,87,CE,54,95,E8,02,C3,
67143,000001A1,false,Rx,0,8,B1,45,84,10,45,0C,80,20,
69005,000001C7,false,Rx,0,4,AA,A0,FF,C0,00,00,00,00,
70295,00000157,false,Rx,0,8,D5,37,09,C4,FF,E0,00,80,
72148,0000019F,false,Rx,0,8,00,00,7D,0D,00,6A,90,FE,
76705,00000155,false,Rx,0,8,3E,87,CE,54,95,E8,02,C3,
77149,000001A1,false,Rx,0,8,B1,45,70,10,25,0C,80,20,
79072,000004F7,false,Rx,0,8,00,1A,08,00,90,2C,06,F0,
79237,000001C7,false,Rx,0,4,AA,A0,FF,C0,00,00,00,00,
79494,00000428,false,Rx,0,8,00,00,00,7F,00,00,00,00,
79646,0000042F,false,Rx,0,2,00,20,00,00,00,00,00,00,
80295,00000157,false,Rx,0,8,D5,87,09,C4,FF,E0,00,80,
82146,0000019F,false,Rx,0,8,00,00,7D,02,00,6A,90,FE,
86598,00000155,false,Rx,0,8,3E,87,CE,54,95,E8,02,C3,
87124,000001A1,false,Rx,0,8,B1,05,70,10,15,0C,80,20,
88990,000001C7,false,Rx,0,4,AA,A0,FF,C0,00,00,00,00,
90318,00000157,false,Rx,0,8,D5,D7,09,C4,FF,E0,00,80,
92143,0000019F,false,Rx,0,8,00,00,7D,07,00,6A,90,FE,
92417,00000511,false,Rx,0,7,04,02,AB,EF,A3,4F,BD,00,
96594,00000155,false,Rx,0,8,3E,87,CE,54,95,E8,02,C3,
96815,00000424,false,Rx,0,8,11,40,56,C8,33,5E,AA,34,
97040,00000425,false,Rx,0,8,2A,BE,44,9C,42,1A,CD,0C,
97290,000001A1,false,Rx,0,8,B1,05,70,10,35,0C,80,20,
98998,000001C7,false,Rx,0,4,AA,A0,FF,C0,00,00,00,00,
100315,00000157,false,Rx,0,8,D5,27,09,C4,FF,E0,00,80,
102146,0000019F,false,Rx,0,8,00,00,7D,0C,00,6A,90,FE,
106618,00000155,false,Rx,0,8,3E,87,CE,54,95,E8,02,C3,
107115,000001A1,false,Rx,0,8,B1,45,70,0F,F5,0C,80,20,
108991,000001C7,false,Rx,0,4,AA,A0,FF,C0,00,00,00,00,
110291,00000157,false,Rx,0,8,D5,77,09,C4,FF,E0,00,80,
112142,0000019F,false,Rx,0,8,00,00,7D,01,00,6A,90,FE,
115240,00000423,false,Rx,0,8,07,1D,00,02,B2,80,B2,D8,
116647,00000155,false,Rx,0,8,3E,87,CE,54,95,E8,02,C3,
117149,000001A1,false,Rx,0,8,B1,05,84,0F,F5,0C,80,20,
119022,000001C7,false,Rx,0,4,AA,A0,FF,C0,00,00,00,00,
120268,00000157,false,Rx,0,8,D5,C7,09,C4,FF,E0,00,80,
120497,00000426,false,Rx,0,8,00,60,01,00,53,18,00,40,
122144,0000019F,false,Rx,0,8,00,00,7D,06,00,6A,90,FE,
126605,00000155,false,Rx,0,8,3E,87,CE,54,95,E8,02,C3,
127177,000001A1,false,Rx,0,8,B1,05,84,10,55,0C,80,20,
129057,000001C7,false,Rx,0,4,AA,A0,FF,C0,00,00,00,00,
130380,00000157,false,Rx,0,8,D5,17,09,C4,FF,E0,00,80,
132177,0000019F,false,Rx,0,8,00,00,7D,0B,00,6A,90,FE,
135251,00000435,false,Rx,0,8,FF,FF,1E,0B,2E,10,00,00,
136687,00000155,false,Rx,0,8,3E,87,CE,54,95,E8,02,C3,
137134,000001A1,false,Rx,0,8,B1,45,70,10,05,0C,80,20,
139032,000001C7,false,Rx,0,4,AA,A0,FF,C0,00,00,00,00,
140367,00000157,false,Rx,0,8,D5,67,09,C4,FF,E0,00,80,
140562,00000436,false,Rx,0,6,86,16,64,37,FF,DC,00,00,
142158,0000019F,false,Rx,0,8,00,00,7D,00,00,6A,90,FE,
142404,00000419,false,Rx,0,6,5E,08,2A,E6,4C,00,00,00,
146681,00000155,false,Rx,0,8,3E,87,CE,54,95,E8,02,C3,
147136,000001A1,false,Rx,0,8,B1,05,70,10,05,0C,80,20,
149049,000001C7,false,Rx,0,4,AA,A0,FF,C0,00,00,00,00,
150324,00000157,false,Rx,0,8,D5,B7,09,C4,FF,E0,00,80,
152159,0000019F,false,Rx,0,8,00,00,7D,05,00,6A,90,FE,
156674,00000155,false,Rx,0,8,3E,87,CE,54,95,E8,02,C3,
157147,000001A1,false,Rx,0,8,B1,05,84,10,25,0C,80,20,
159046,000001C7,false,Rx,0,4,AA,A0,FF,C0,00,00,00,00,
160273,00000157,false,Rx,0,8,D5,07,09,C4,FF,E0,00,80,
162148,0000019F,false,Rx,0,8,00,00,7D,0A,00,6A,90,FE,
163077,00000445,false,Rx,0,7,80,55,AA,65,04,82,00,00,
166675,00000155,false,Rx,0,8,3E,87,CE,54,95,E8,02,C3,
167123,000001A1,false,Rx,0,8,B1,05,84,10,15,0C,80,20,
169065,000001C7,false,Rx,0,4,AA,A0,FF,C0,00,00,00,00,
170307,00000157,false,Rx,0,8,D5,57,09,C4,FF,E0,00,80,
172147,0000019F,false,Rx,0,8,00,00,7D,0F,00,6A,90,FE,
176774,00000155,false,Rx,0,8,3E,87,CE,54,95,E8,02,C3,
177145,000001A1,false,Rx,0,8,B1,05,84,10,05,0C,80,20,
179128,000004F7,false,Rx,0,8,00,1A,08,00,90,2C,06,F0,
179295,000001C7,false,Rx,0,4,AA,A0,FF,C0,00,00,00,00,
179545,00000428,false,Rx,0,8,00,00,00,7F,00,00,00,00,
179721,0000042F,false,Rx,0,2,00,20,00,00,00,00,00,00,
180272,00000157,false,Rx,0,8,D5,A7,09,C4,FF,E0,00,80,
182157,0000019F,false,Rx,0,8,00,00,7D,04,00,6A,90,FE,
186607,00000155,false,Rx,0,8,3E,87,CE,54,95,E8,02,C3,
187160,000001A1,false,Rx,0,8,B1,05,84,10,25,0C,80,20,
189082,000001C7,false,Rx,0,4,AA,A0,FF,C0,00,00,00,00,
190281,00000157,false,Rx,0,8,D5,F7,09,C4,FF,E0,00,80,
192157,0000019F,false,Rx,0,8,00,00,7D,09,00,6A,90,FE,
192431,00000511,false,Rx,0,7,04,41,74,A8,0E,5C,A0,00,
196608,00000155,false,Rx,0,8,3E,87,CE,54,95,E8,02,C3,
196834,00000424,false,Rx,0,8,11,40,56,C8,33,5E,AA,34,
197062,00000425,false,Rx,0,8,2A,BE,44,9C,42,1A,CD,0C,
197306,000001A1,false,Rx,0,8,B1,05,84,10,15,0C,80,20,
199080,000001C7,false,Rx,0,4,AA,A0,FF,C0,00,00,00,00,
200279,00000157,false,Rx,0,8,D5,47,09,C4,FF,E0,00,80,
202157,0000019F,false,Rx,0,8,00,00,7D,0E,00,6A,90,FE,
206636,00000155,false,Rx,0,8,3E,87,CE,54,95,E8,02,C3,
207183,000001A1,false,Rx,0,8,B1,05,70,10,05,0C,80,20,
209103,000001C7,false,Rx,0,4,AA,A0,FF,C0,00,00,00,00,
210300,00000157,false,Rx,0,8,D5,97,09,C4,FF,E0,00,80,
212168,0000019F,false,Rx,0,8,00,00,7D,03,00,6A,90,FE,
215251,00000423,false,Rx,0,8,07,1D,00,02,B2,80,B2,D8,
216690,00000155,false,Rx,0,8,3E,87,CE,54,95,E8,02,C3,
217142,000001A1,false,Rx,0,8,B1,45,70,10,85,0C,80,20,
219097,000001C7,false,Rx,0,4,AA,A0,FF,C0,00,00,00,00,
220310,00000157,false,Rx,0,8,D5,E7,09,C4,FF,E0,00,80,
220535,00000426,false,Rx,0,8,00,60,01,00,53,18,00,40,
222157,0000019F,false,Rx,0,8,00,00,7D,08,00,6A,90,FE,
226610,00000155,false,Rx,0,8,3E,87,CE,54,95,E8,02,C3,
227135,000001A1,false,Rx,0,8,B1,05,70,10,25,0C,80,20,
229111,000001C7,false,Rx,0,4,AA,A0,FF,C0,00,00,00,00,
230301,00000157,false,Rx,0,8,D5,37,09,C4,FF,E0,00,80,
232158,0000019F,false,Rx,0,8,00,00,7D,0D,00,6A,90,FE,
235252,00000435,false,Rx,0,8,FF,FF,1E,0B,2E,10,00,00,
236707,00000155,false,Rx,0,8,3E,87,CE,54,95,E8,02,C3,
237160,000001A1,false,Rx,0,8,B1,05,84,10,25,0C,80,20,
238008,0000069F,false,Rx,0,4,71,30,28,2F,00,00,00,00,
239099,000001C7,false,Rx,0,4,AA,A0,FF,C0,00,00,00,00,
240298,00000157,false,Rx,0,8,D5,87,09,C4,FF,E0,00,80,
240496,00000436,false,Rx,0,6,86,16,64,37,FF,DC,00,00,
242149,0000019F,false,Rx,0,8,00,00,7D,02,00,6A,90,FE,
242396,00000419,false,Rx,0,6,5E,08,2A,E6,4C,00,00,00,
246648,00000155,false,Rx,0,8,3E,87,CE,54,95,E8,02,C3,
247123,000001A1,false,Rx,0,8,B1,45,84,10,75,0C,80,20,
249108,000001C7,false,Rx,0,4,AA,A0,FF,C0,00,00,00,00,
250282,00000157,false,Rx,0,8,D5,D7,09,C4,FF,E0,00,80,
252158,0000019F,false,Rx,0,8,00,00,7D,07,00,6A,90,FE,
256653,00000155,false,Rx,0,8,3E,87,CE,54,95,E8,02,C3,
257128,000001A1,false,Rx,0,8,B1,45,70,10,45,0C,80,20,
259098,000001C7,false,Rx,0,4,AA,A0,FF,C0,00,00,00,00,
260323,00000157,false,Rx,0,8,D5,27,09,C4,FF,E0,00,80,
262148,0000019F,false,Rx,0,8,00,00,7D,0C,00,6A,90,FE,
263047,00000445,false,Rx,0,7,80,55,AA,65,04,82,00,00,
266696,00000155,false,Rx,0,8,3E,87,CE,54,95,E8,02,C3,
267135,000001A1,false,Rx,0,8,B1,05,84,10,45,0C,80,20,
269133,000001C7,false,Rx,0,4,AA,A0,FF,C0,00,00,00,00,
270328,00000157,false,Rx,0,8,D5,77,09,C4,FF,E0,00,80,
272157,0000019F,false,Rx,0,8,00,00,7D,01,00,6A,90,FE,
276669,00000155,false,Rx,0,8,3E,87,CE,54,95,E8,02,C3,
277138,000001A1,false,Rx,0,8,B1,05,70,10,55,0C,80,20,
279232,000004F7,false,Rx,0,8,00,1A,08,00,90,2C,06,F0,
279354,000001C7,false,Rx,0,4,AA,A0,FF,C0,00,00,00,00,
279604,00000428,false,Rx,0,8,00,00,00,7F,00,00,00,00,
279779,0000042F,false,Rx,0,2,00,20,00,00,00,00,00,00,
280287,00000157,false,Rx,0,8,D5,C7,09,C4,FF,E0,00,80,
282139,0000019F,false,Rx,0,8,00,00,7D,06,00,6A,90,FE,
286817,00000155,false,Rx,0,8,3E,87,CE,54,95,E8,02,C3,
287224,000001A1,false,Rx,0,8,B1,45,84,10,25,0C,80,20,
289163,000001C7,false,Rx,0,4,AA,A0,FF,C0,00,00,00,00,
290331,00000157,false,Rx,0,8,D5,17,09,C4,FF,E0,00,80,
292186,0000019F,false,Rx,0,8,00,00,7D,0B,00,6A,90,FE,
292455,00000511,false,Rx,0,7,04,80,3D,61,79,69,83,00,
296760,00000155,false,Rx,0,8,3E,87,CE,54,95,E8,02,C3,
296806,00000424,false,Rx,0,8,11,40,56,C8,33,5E,AA,34,
297095,00000425,false,Rx,0,8,2A,BE,44,9C,42,1A,CD,0C,
297454,000001A1,false,Rx,0,8,B1,05,84,10,25,0C,80,20,
299208,000001C7,false,Rx,0,4,AA,A0,FF,C0,00,00,00,00,
300363,00000157,false,Rx,0,8,D5,67,09,C4,FF,E0,00,80,
302147,0000019F,false,Rx,0,8,00,00,7D,00,00,6A,90,FE,
306596,00000155,false,Rx,0,8,3E,87,CE,54,95,E8,02,C3,
307151,000001A1,false,Rx,0,8,B1,45,84,10,45,0C,80,20,
309143,000001C7,false,Rx,0,4,AA,A0,FF,C0,00,00,00,00,
310343,00000157,false,Rx,0,8,D5,B7,09,C4,FF,E0,00,80,
312143,0000019F,false,Rx,0,8,00,00,7D,05,00,6A,90,FE,
315248,00000423,false,Rx,0,8,07,1D,00,02,B2,80,B2,D8,
316623,00000155,false,Rx,0,8,3E,87,CE,54,95,E8,02,C3,
317153,000001A1,false,Rx,0,8,B1,45,84,10,25,0C,80,20,
319148,000001C7,false,Rx,0,4,AA,A0,FF,C0,00,00,00,00,
320298,00000157,false,Rx,0,8,D5,07,09,C4,FF,E0,00,80,
320550,00000426,false,Rx,0,8,00,60,01,00,53,18,00,40,
322148,0000019F,false,Rx,0,8,00,00,7D,0A,00,6A,90,FE,
326604,00000155,false,Rx,0,8,3E,87,CE,54,95,E8,02,C3,
327127,000001A1,false,Rx,0,8,B1,05,70,10,25,0C,80,20,
329149,000001C7,false,Rx,0,4,AA,A0,FF,C0,00,00,00,00,
330272,00000157,false,Rx,0,8,D5,57,09,C4,FF,E0,00,80,
332148,0000019F,false,Rx,0,8,00,00,7D,0F,00,6A,90,FE,
335293,00000435,false,Rx,0,8,FF,FF,1E,0B,2E,10,00,00,
336641,00000155,false,Rx,0,8,3E,87,CE,54,95,E8,02,C3,
337140,000001A1,false,Rx,0,8,B1,05,84,10,45,0C,80,20,
339140,000001C7,false,Rx,0,4,AA,A0,FF,C0,00,00,00,00,
340338,00000157,false,Rx,0,8,D5,A7,09,C4,FF,E0,00,80,
340538,00000436,false,Rx,0,6,86,16,64,37,FF,DC,00,00,
342138,0000019F,false,Rx,0,8,00,00,7D,04,00,6A,90,FE,
342387,00000419,false,Rx,0,6,5E,08,2A,E6,4C,00,00,00,
346691,00000155,false,Rx,0,8,3E,87,CE,54,95,E8,02,C3,
347160,000001A1,false,Rx,0,8,B1,45,84,10,15,0C,80,20,
349184,000001C7,false,Rx,0,4,AA,A0,FF,C0,00,00,00,00,
350324,00000157,false,Rx,0,8,D5,F7,09,C4,FF,E0,00,80,
352148,0000019F,false,Rx,0,8,00,00,7D,09,00,6A,90,FE,
356625,00000155,false,Rx,0,8,3E,87,CE,54,95,E8,02,C3,
357151,000001A1,false,Rx,0,8,B1,05,84,10,05,0C,80,20,
359173,000001C7,false,Rx,0,4,AA,A0,FF,C0,00,00,00,00,
360276,00000157,false,Rx,0,8,D5,47,09,C4,FF,E0,00,80,
362148,0000019F,false,Rx,0,8,00,00,7D,0E,00,6A,90,FE,
363072,00000445,false,Rx,0,7,80,55,AA,65,04,82,00,00,
366624,00000155,false,Rx,0,8,3E,87,CE,54,95,E8,02,C3,
367151,000001A1,false,Rx,0,8,B1,05,84,10,25,0C,80,20,
369168,000001C7,false,Rx,0,4,AA,A0,FF,C0,00,00,00,00,
370317,00000157,false,Rx,0,8,D5,97,09,C4,FF,E0,00,80,
372142,0000019F,false,Rx,0,8,00,00,7D,03,00,6A,90,FE,
376616,00000155,false,Rx,0,8,3E,87,CD,54,95,E8,02,C3,
377139,000001A1,false,Rx,0,8,B1,45,84,10,05,0C,80,20,
379238,000004F7,false,Rx,0,8,00,1A,08,00,90,2C,06,F0,
379414,000001C7,false,Rx,0,4,AA,A0,FF,C0,00,00,00,00,
379662,00000428,false,Rx,0,8,00,00,00,7F,00,00,00,00,
379838,0000042F,false,Rx,0,2,00,20,00,00,00,00,00,00,
380238,00000157,false,Rx,0,8,D5,E7,09,C4,FF,E0,00,80,
382139,0000019F,false,Rx,0,8,00,00,7D,08,00,6A,90,FE,
386590,00000155,false,Rx,0,8,3E,87,CE,54,95,E8,02,C3,
387159,000001A1,false,Rx,0,8,B1,05,70,10,05,0C,80,20,
389243,000001C7,false,Rx,0,4,AA,A0,FF,C0,00,00,00,00,
390240,00000157,false,Rx,0,8,D5,37,09,C4,FF,E0,00,80,
392149,0000019F,false,Rx,0,8,00,00,7D,0D,00,6A,90,FE,
392422,00000511,false,Rx,0,7,04,BF,06,1A,E4,76,66,00,
396600,00000155,false,Rx,0,8,3E,87,CE,54,95,E8,02,C3,
396825,00000424,false,Rx,0,8,11,40,56,C8,33,5E,AA,34,
397053,00000425,false,Rx,0,8,2A,BE,44,9C,42,1A,CD,0C,
397272,000001A1,false,Rx,0,8,B1,05,70,10,15,0C,80,20,
399242,000001C7,false,Rx,0,4,AA,A0,FF,C0,00,00,00,00,
400348,00000157,false,Rx,0,8,D5,87,09,C4,FF,E0,00,80,
402142,0000019F,false,Rx,0,8,00,00,7D,02,00,6A,90,FE,
406594,00000155,false,Rx,0,8,3E,87,CE,54,95,E8,02,C3,
407142,000001A1,false,Rx,0,8,B1,05,70,10,05,0C,80,20,
409236,000001C7,false,Rx,0,4,AA,A0,FF,C0,00,00,00,00,
410318,00000157,false,Rx,0,8,D5,D7,09,C4,FF,E0,00,80,
412141,0000019F,false,Rx,0,8,00,00,7D,07,00,6A,90,FE,
415233,00000423,false,Rx,0,8,07,1D,00,02,B2,80,B2,D8,
416614,00000155,false,Rx,0,8,3E,87,CE,54,95,E8,02,C3,
417138,000001A1,false,Rx,0,8,B1,05,84,10,05,0C,80,20,
419232,000001C7,false,Rx,0,4,AA,A0,FF,C0,00,00,00,00,
420232,00000157,false,Rx,0,8,D5,27,09,C4,FF,E0,00,80,
420480,00000426,false,Rx,0,8,00,60,01,00,53,18,00,40,
422138,0000019F,false,Rx,0,8,00,00,7D,0C,00,6A,90,FE,
426826,00000155,false,Rx,0,8,3E,87,CE,54,95,E8,02,C3,
427183,000001A1,false,Rx,0,8,B1,05,84,10,25,0C,80,20,
429424,000001C7,false,Rx,0,4,AA,A0,FF,C0,00,00,00,00,
430491,00000157,false,Rx,0,8,D5,77,09,C4,FF,E0,00,80,
432175,0000019F,false,Rx,0,8,00,00,7D,01,00,6A,90,FE,
435281,00000435,false,Rx,0,8,FF,FF,1E,0B,2E,10,00,00,
436706,00000155,false,Rx,0,8,3E,87,CE,54,95,E8,02,C3,
437161,000001A1,false,Rx,0,8,B1,45,70,10,15,0C,80,20,
439310,000001C7,false,Rx,0,4,AA,A0,FF,C0,00,00,00,00,
440501,00000157,false,Rx,0,8,D5,C7,09,C4,FF,E0,00,80,
440529,00000436,false,Rx,0,6,86,16,64,37,FF,DC,00,00,
442336,0000019F,false,Rx,0,8,00,00,7D,06,00,6A,90,FE,
442397,00000419,false,Rx,0,6,5E,08,2A,E6,4C,00,00,00,
446722,00000155,false,Rx,0,8,3E,87,CE,54,95,E8,02,C3,
447206,000001A1,false,Rx,0,8,B1,45,84,10,25,0C,80,20,
449304,000001C7,false,Rx,0,4,AA,A0,FF,C0,00,00,00,00,
450489,00000157,false,Rx,0,8,D5,17,09,C4,FF,E0,00,80,
452312,0000019F,false,Rx,0,8,00,00,7D,0B,00,6A,90,FE,
456860,00000155,false,Rx,0,8,3E,87,CE,54,95,E8,02,C3,
457362,000001A1,false,Rx,0,8,B1,05,84,10,35,0C,80,20,
459406,000001C7,false,Rx,0,4,AA,A0,FF,C0,00,00,00,00,
460452,00000157,false,Rx,0,8,D5,67,09,C4,FF,E0,00,80,
462207,0000019F,false,Rx,0,8,00,00,7D,00,00,6A,90,FE,
463081,00000445,false,Rx,0,7,80,55,AA,65,04,82,00,00,
466807,00000155,false,Rx,0,8,3E,87,CE,54,95,E8,02,C3,
467296,000001A1,false,Rx,0,8,B1,05,84,10,15,0C,80,20,
469237,000001C7,false,Rx,0,4,AA,A0,FF,C0,00,00,00,00,
470484,00000157,false,Rx,0,8,D5,B7,09,C4,FF,E0,00,80,
472308,0000019F,false,Rx,0,8,00,00,7D,05,00,6A,90,FE,
476919,00000155,false,Rx,0,8,3E,87,CE,54,95,E8,02,C3,
477235,000001A1,false,Rx,0,8,B1,45,70,10,25,0C,80,20,
479582,000004F7,false,Rx,0,8,00,1A,08,00,90,2C,06,F0,
479590,000001C7,false,Rx,0,4,AA,A0,FF,C0,00,00,00,00,
479826,00000428,false,Rx,0,8,00,00,00,7F,00,00,00,00,
479912,0000042F,false,Rx,0,2,00,20,00,00,00,00,00,00,
480637,00000157,false,Rx,0,8,D5,07,09,C4,FF,E0,00,80,
482316,0000019F,false,Rx,0,8,00,00,7D,0A,00,6A,90,FE,
486720,00000155,false,Rx,0,8,3E,87,CE,54,95,E8,02,C3,
487212,000001A1,false,Rx,0,8,B1,45,70,10,45,0C,80,20,
489414,000001C7,false,Rx,0,4,AA,A0,FF,C0,00,00,00,00,
490317,00000157,false,Rx,0,8,D5,57,09,C4,FF,E0,00,80,
492348,0000019F,false,Rx,0,8,00,00,7D,0F,00,6A,90,FE,
492430,00000511,false,Rx,0,7,04,FE,CF,D3,4F,83,49,00,
496830,00000155,false,Rx,0,8,3E,87,CE,54,95,E8,02,C3,
496840,00000424,false,Rx,0,8,11,40,56,C8,33,5E,AA,34,
497133,00000425,false,Rx,0,8,2A,BE,44,9C,42,1A,CD,0C,
497279,000001A1,false,Rx,0,8,B1,05,84,10,35,0C,80,20,
499350,000001C7,false,Rx,0,4,AA,A0,FF,C0,00,00,00,00,
500448,00000157,false,Rx,0,8,D5,A7,09,C4,FF,E0,00,80,
502275,0000019F,false,Rx,0,8,00,00,7D,04,00,6A,90,FE,
506827,00000155,false,Rx,0,8,3E,87,CE,54,95,E8,02,C3,
507250,000001A1,false,Rx,0,8,B1,05,84,10,45,0C,80,20,
509356,000001C7,false,Rx,0,4,AA,A0,FF,C0,00,00,00,00,
510320,00000157,false,Rx,0,8,D5,F7,09,C4,FF,E0,00,80,
512230,0000019F,false,Rx,0,8,00,00,7D,09,00,6A,90,FE,
515497,00000423,false,Rx,0,8,07,1D,00,02,5D,80,5D,D8,
516890,00000155,false,Rx,0,8,3E,87,CE,54,95,E8,02,C3,
517223,000001A1,false,Rx,0,8,B1,45,84,10,55,0C,80,20,
519494,000001C7,false,Rx,0,4,AA,A0,FF,C0,00,00,00,00,
520317,00000157,false,Rx,0,8,D5,47,09,C4,FF,E0,00,80,
520626,00000426,false,Rx,0,8,00,60,01,00,53,18,00,40,
522231,0000019F,false,Rx,0,8,00,00,7D,0E,00,6A,90,FE,
526729,00000155,false,Rx,0,8,3E,87,CE,54,95,E8,02,C3,
527374,000001A1,false,Rx,0,8,B1,05,70,10,25,0C,80,20,
529499,000001C7,false,Rx,0,4,AA,A0,FF,C0,00,00,00,00,
530384,00000157,false,Rx,0,8,D5,97,09,C4,FF,E0,00,80,
532249,0000019F,false,Rx,0,8,00,00,7D,03,00,6A,90,FE,
535299,00000435,false,Rx,0,8,FF,FF,1E,0B,2E,10,00,00,
536702,00000155,false,Rx,0,8,3E,87,CD,54,95,E8,02,C3,
537356,000001A1,false,Rx,0,8,B1,05,84,10,25,0C,80,20,
539303,000001C7,false,Rx,0,4,AA,A0,FF,C0,00,00,00,00,
540319,00000157,false,Rx,0,8,D5,E7,09,C4,FF,E0,00,80,
540458,00000436,false,Rx,0,6,86,16,64,37,FF,DC,00,00,
542357,0000019F,false,Rx,0,8,00,00,7D,08,00,6A,90,FE,
542404,00000419,false,Rx,0,6,5E,08,2A,E6,4C,00,00,00,
546841,00000155,false,Rx,0,8,3E,87,CE,54,95,E8,02,C3,
547227,000001A1,false,Rx,0,8,B1,45,70,10,45,0C,80,20,
549333,000001C7,false,Rx,0,4,AA,A0,FF,C0,00,00,00,00,
550489,00000157,false,Rx,0,8,D5,37,09,C4,FF,E0,00,80,
552173,0000019F,false,Rx,0,8,00,00,7D,0D,00,6A,90,FE,
556708,00000155,false,Rx,0,8,3E,87,CE,54,95,E8,02,C3,
557207,000001A1,false,Rx,0,8,B1,45,70,10,25,0C,80,20,
559255,000001C7,false,Rx,0,4,AA,A0,FF,C0,00,00,00,00,
560410,00000157,false,Rx,0,8,D5,87,09,C4,FF,E0,00,80,
562191,0000019F,false,Rx,0,8,00,00,7D,02,00,6A,90,FE,
563059,00000445,false,Rx,0,7,80,55,55,65,04,82,00,00,
566695,00000155,false,Rx,0,8,3E,87,CE,54,95,E8,02,C3,
567203,000001A1,false,Rx,0,8,B1,05,70,10,25,0C,80,20,
569291,000001C7,false,Rx,0,4,AA,A0,FF,C0,00,00,00,00,
570373,00000157,false,Rx,0,8,D5,D7,09,C4,FF,E0,00,80,
572203,0000019F,false,Rx,0,8,00,00,7D,07,00,6A,90,FE,
576672,00000155,false,Rx,0,8,3E,87,CE,54,95,E8,02,C3,
577188,000001A1,false,Rx,0,8,B1,45,70,10,45,0C,80,20,
579371,000004F7,false,Rx,0,8,00,1A,08,00,90,2C,06,F0,
579520,000001C7,false,Rx,0,4,AA,A0,FF,C0,00,00,00,00,
579831,00000428,false,Rx,0,8,00,00,00,7F,00,00,00,00,
579941,0000042F,false,Rx,0,2,00,20,00,00,00,00,00,00,
580345,00000157,false,Rx,0,8,D5,27,09,C4,FF,E0,00,80,
582200,0000019F,false,Rx,0,8,00,00,7D,0C,00,6A,90,FE,
586617,00000155,false,Rx,0,8,3E,87,CE,54,95,E8,02,C3,
587204,000001A1,false,Rx,0,8,B1,45,70,10,25,0C,80,20,
589324,000001C7,false,Rx,0,4,AA,A0,FF,C0,00,00,00,00,
590323,00000157,false,Rx,0,8,D5,77,09,C4,FF,E0,00,80,
592197,0000019F,false,Rx,0,8,00,00,7D,01,00,6A,90,FE,
592472,00000511,false,Rx,0,7,04,3D,98,8C,BA,90,2C,00,
596623,00000155,false,Rx,0,8,3E,87,CE,54,95,E8,02,C3,
596849,00000424,false,Rx,0,8,11,40,56,C8,33,5E,55,34,
597077,00000425,false,Rx,0,8,2A,BE,44,9C,42,1A,CD,0C,
597328,000001A1,false,Rx,0,8,B1,05,70,10,15,0C,80,20,
599295,000001C7,false,Rx,0,4,AA,A0,FF,C0,00,00,00,00,
600346,00000157,false,Rx,0,8,D5,C7,09,C4,FF,E0,00,80,
602198,0000019F,false,Rx,0,8,00,00,7D,06,00,6A,90,FE,
606622,00000155,false,Rx,0,8,3E,87,CE,54,95,E8,02,C3,
607203,000001A1,false,Rx,0,8,B1,05,84,10,25,0C,80,20,
609322,000001C7,false,Rx,0,4,AA,A0,FF,C0,00,00,00,00,
610348,00000157,false,Rx,0,8,D5,17,09,C4,FF,E0,00,80,
612149,0000019F,false,Rx,0,8,00,00,7D,0B,00,6A,90,FE,
615238,00000423,false,Rx,0,8,07,1D,00,02,5D,80,5D,D8,
616622,00000155,false,Rx,0,8,3E,87,CE,54,95,E8,02,C3,
617143,000001A1,false,Rx,0,8,B1,45,84,0F,F5,0C,80,20,
619279,000001C7,false,Rx,0,4,AA,A0,FF,C0,00,00,00,00,
620243,00000157,false,Rx,0,8,D5,67,09,C4,FF,E0,00,80,
620493,00000426,false,Rx,0,8,00,60,01,00,53,18,00,40,
622145,0000019F,false,Rx,0,8,00,00,7D,00,00,6A,90,FE,
626627,00000155,false,Rx,0,8,3E,87,CE,54,95,E8,02,C3,
627174,000001A1,false,Rx,0,8,B1,05,84,0F,F5,0C,80,20,
629326,000001C7,false,Rx,0,4,AA,A0,FF,C0,00,00,00,00,
630398,00000157,false,Rx,0,8,D5,B7,09,C4,FF,E0,00,80,
632164,0000019F,false,Rx,0,8,00,00,7D,05,00,6A,90,FE,
635289,00000435,false,Rx,0,8,FF,FF,1E,0B,2E,10,00,00,
636676,00000155,false,Rx,0,8,3E,87,CE,54,95,E8,02,C3,
637152,000001A1,false,Rx,0,8,B1,05,84,10,15,0C,80,20,
639302,000001C7,false,Rx,0,4,AA,A0,FF,C0,00,00,00,00,
640244,00000157,false,Rx,0,8,D5,07,09,C4,FF,E0,00,80,
640448,00000436,false,Rx,0,6,86,16,64,37,FF,DC,00,00,
642165,0000019F,false,Rx,0,8,00,00,7D,0A,00,6A,90,FE,
642398,00000419,false,Rx,0,6,5E,08,2A,E6,4C,00,00,00,
646629,00000155,false,Rx,0,8,3E,87,CE,54,95,E8,02,C3,
647147,000001A1,false,Rx,0,8,B1,45,70,10,05,0C,80,20,
649300,000001C7,false,Rx,0,4,AA,A0,FF,C0,00,00,00,00,
650344,00000157,false,Rx,0,8,D5,57,09,C4,FF,E0,00,80,
652147,0000019F,false,Rx,0,8,00,00,7D,0F,00,6A,90,FE,
656655,00000155,false,Rx,0,8,3E,87,CE,54,95,E8,02,C3,
657152,000001A1,false,Rx,0,8,B1,05,70,10,05,0C,80,20,
659300,000001C7,false,Rx,0,4,AA,A0,FF,C0,00,00,00,00,
660328,00000157,false,Rx,0,8,D5,A7,09,C4,FF,E0,00,80,
662149,0000019F,false,Rx,0,8,00,00,7D,04,00,6A,90,FE,
663081,00000445,false,Rx,0,7,80,55,55,65,04,82,00,00,
666702,00000155,false,Rx,0,8,3E,87,CE,54,95,E8,02,C3,
667180,000001A1,false,Rx,0,8,B1,05,70,10,25,0C,80,20,
669354,000001C7,false,Rx,0,4,AA,A0,FF,C0,00,00,00,00,
670350,00000157,false,Rx,0,8,D5,F7,09,C4,FF,E0,00,80,
672160,0000019F,false,Rx,0,8,00,00,7D,09,00,6A,90,FE,
676725,00000155,false,Rx,0,8,3E,87,CE,54,95,E8,02,C3,
677201,000001A1,false,Rx,0,8,B1,45,70,10,15,0C,80,20,
679418,000004F7,false,Rx,0,8,00,1A,08,00,90,2C,06,F0,
679619,000001C7,false,Rx,0,4,AA,A0,FF,C0,00,00,00,00,
679897,00000428,false,Rx,0,8,00,00,00,7F,00,00,00,00,
679991,0000042F,false,Rx,0,2,00,20,00,00,00,00,00,00,
680371,00000157,false,Rx,0,8,D5,47,09,C4,FF,E0,00,80,
682199,0000019F,false,Rx,0,8,00,00,7D,0E,00,6A,90,FE,
686593,00000155,false,Rx,0,8,3E,87,CE,54,95,E8,02,C3,
687139,000001A1,false,Rx,0,8,B1,45,84,10,05,0C,80,20,
689339,000001C7,false,Rx,0,4,AA,A0,FF,C0,00,00,00,00,
690282,00000157,false,Rx,0,8,D5,97,09,C4,FF,E0,00,80,
692157,0000019F,false,Rx,0,8,00,00,7D,03,00,6A,90,FE,
692426,00000511,false,Rx,0,7,04,7C,61,45,25,9D,0F,00,
696588,00000155,false,Rx,0,8,3E,87,CE,54,95,E8,02,C3,
696802,00000424,false,Rx,0,8,11,40,56,C8,33,5E,55,34,
697041,00000425,false,Rx,0,8,2A,BE,44,9C,42,1A,CD,0C,
697276,000001A1,false,Rx,0,8,B1,45,70,10,25,0C,80,20,
699330,000001C7,false,Rx,0,4,AA,A0,FF,C0,00,00,00,00,
700276,00000157,false,Rx,0,8,D5,E7,09,C4,FF,E0,00,80,
702150,0000019F,false,Rx,0,8,00,00,7D,08,00,6A,90,FE,
706576,00000155,false,Rx,0,8,3E,87,CE,54,95,E8,02,C3,
707145,000001A1,false,Rx,0,8,B1,05,84,10,25,0C,80,20,
709321,000001C7,false,Rx,0,4,AA,A0,FF,C0,00,00,00,00,
710349,00000157,false,Rx,0,8,D5,37,09,C4,FF,E0,00,80,
712147,0000019F,false,Rx,0,8,00,00,7D,0D,00,6A,90,FE,
715271,00000423,false,Rx,0,8,07,1D,00,02,5D,80,5D,D8,
716626,00000155,false,Rx,0,8,3E,87,CE,54,95,E8,02,C3,
717152,000001A1,false,Rx,0,8,B1,45,84,10,25,0C,80,20,
719326,000001C7,false,Rx,0,4,AA,A0,FF,C0,00,00,00,00,
720354,00000157,false,Rx,0,8,D5,87,09,C4,FF,E0,00,80,
720577,00000426,false,Rx,0,8,00,60,01,00,53,18,00,40,
722153,0000019F,false,Rx,0,8,00,00,7D,02,00,6A,90,FE,
726579,00000155,false,Rx,0,8,3E,87,CE,54,95,E8,02,C3,
727153,000001A1,false,Rx,0,8,B1,45,70,10,45,0C,80,20,
729352,000001C7,false,Rx,0,4,AA,A0,FF,C0,00,00,00,00,
730275,00000157,false,Rx,0,8,D5,D7,09,C4,FF,E0,00,80,
732152,0000019F,false,Rx,0,8,00,00,7D,07,00,6A,90,FE,
735278,00000435,false,Rx,0,8,FF,FF,1E,0B,2E,10,00,00,
736626,00000155,false,Rx,0,8,3E,87,CE,54,95,E8,02,C3,
737152,000001A1,false,Rx,0,8,B1,05,84,10,35,0C,80,20,
739351,000001C7,false,Rx,0,4,AA,A0,FF,C0,00,00,00,00,
740243,00000157,false,Rx,0,8,D5,27,09,C4,FF,E0,00,80,
740470,00000436,false,Rx,0,6,86,16,64,37,FF,DC,00,00,
742150,0000019F,false,Rx,0,8,00,00,7D,0C,00,6A,90,FE,
742398,00000419,false,Rx,0,6,5E,08,2A,E6,4C,00,00,00,
746658,00000155,false,Rx,0,8,3E,87,CE,54,95,E8,02,C3,
747143,000001A1,false,Rx,0,8,B1,05,84,10,35,0C,80,20,
749346,000001C7,false,Rx,0,4,AA,A0,FF,C0,00,00,00,00,
750237,00000157,false,Rx,0,8,D5,77,09,C4,FF,E0,00,80,
752145,0000019F,false,Rx,0,8,00,00,7D,01,00,6A,90,FE,
756656,00000155,false,Rx,0,8,3E,87,CE,54,95,E8,02,C3,
757152,000001A1,false,Rx,0,8,B1,45,84,10,45,0C,80,20,
759351,000001C7,false,Rx,0,4,AA,A0,FF,C0,00,00,00,00,
760325,00000157,false,Rx,0,8,D5,C7,09,C4,FF,E0,00,80,
762150,0000019F,false,Rx,0,8,00,00,7D,06,00,6A,90,FE,
763028,00000445,false,Rx,0,7,80,55,55,65,04,82,00,00,
766625,00000155,false,Rx,0,8,3E,87,CE,54,95,E8,02,C3,
767152,000001A1,false,Rx,0,8,B1,05,84,10,25,0C,80,20,
769353,000001C7,false,Rx,0,4,AA,A0,FF,C0,00,00,00,00,
770334,00000157,false,Rx,0,8,D5,17,09,C4,FF,E0,00,80,
772151,0000019F,false,Rx,0,8,00,00,7D,0B,00,6A,90,FE,
776629,00000155,false,Rx,0,8,3E,87,CE,54,95,E8,02,C3,
777152,000001A1,false,Rx,0,8,B1,05,70,10,25,0C,80,20,
779433,000004F7,false,Rx,0,8,00,1A,08,00,90,2C,06,F0,
779626,000001C7,false,Rx,0,4,AA,A0,FF,C0,00,00,00,00,
779929,00000428,false,Rx,0,8,00,00,00,7F,00,00,00,00,
780072,0000042F,false,Rx,0,2,00,20,00,00,00,00,00,00,
780297,00000157,false,Rx,0,8,D5,67,09,C4,FF,E0,00,80,
782170,0000019F,false,Rx,0,8,00,00,7D,00,00,6A,90,FE,
786580,00000155,false,Rx,0,8,3E,87,CE,54,95,E8,02,C4,
787153,000001A1,false,Rx,0,8,B1,45,84,10,45,0C,80,20,
789377,000001C7,false,Rx,0,4,AA,A0,FF,C0,00,00,00,00,
790327,00000157,false,Rx,0,8,D5,B7,09,C4,FF,E0,00,80,
792151,0000019F,false,Rx,0,8,00,00,7D,05,00,6A,90,FE,
792423,00000511,false,Rx,0,7,04,BB,2A,FE,90,AA,F2,00,
796579,00000155,false,Rx,0,8,3E,87,CE,54,95,E8,02,C4,
796803,00000424,false,Rx,0,8,11,40,56,C8,33,5E,55,34,
797031,00000425,false,Rx,0,8,2A,BE,44,9C,42,1A,CD,0C,
797248,000001A1,false,Rx,0,8,B1,45,84,10,35,0C,80,20,
799378,000001C7,false,Rx,0,4,AA,A0,FF,C0,00,00,00,00,
800328,00000157,false,Rx,0,8,D5,07,09,C4,FF,E0,00,80,
802152,0000019F,false,Rx,0,8,00,00,7D,0A,00,6A,90,FE,
806607,00000155,false,Rx,0,8,3E,87,CE,54,95,E8,02,C4,
807156,000001A1,false,Rx,0,8,B1,05,84,10,35,0C,80,20,
809378,000001C7,false,Rx,0,4,AA,A0,FF,C0,00,00,00,00,
810277,00000157,false,Rx,0,8,D5,57,09,C4,FF,E0,00,80,
812153,0000019F,false,Rx,0,8,00,00,7D,0F,00,6A,90,FE,
815247,00000423,false,Rx,0,8,07,1D,00,02,5D,80,5D,D8,
816602,00000155,false,Rx,0,8,3E,87,CE,54,95,E8,02,C4,
817153,000001A1,false,Rx,0,8,B1,45,70,10,55,0C,80,20,
819378,000001C7,false,Rx,0,4,AA,A0,FF,C0,00,00,00,00,
820327,00000157,false,Rx,0,8,D5,A7,09,C4,FF,E0,00,80,
820577,00000426,false,Rx,0,8,00,60,01,00,53,18,00,40,
822172,0000019F,false,Rx,0,8,00,00,7D,04,00,6A,90,FE,
826601,00000155,false,Rx,0,8,3E,87,CE,54,95,E8,02,C4,
827155,000001A1,false,Rx,0,8,B1,45,84,10,15,0C,80,20,
829405,000001C7,false,Rx,0,4,AA,A0,FF,C0,00,00,00,00,
830302,00000157,false,Rx,0,8,D5,F7,09,C4,FF,E0,00,80,
832153,0000019F,false,Rx,0,8,00,00,7D,09,00,6A,90,FE,
835248,00000435,false,Rx,0,8,FF,FF,1E,0B,2E,10,00,00,
836676,00000155,false,Rx,0,8,3E,87,CE,54,95,E8,02,C4,
837153,000001A1,false,Rx,0,8,B1,05,84,10,05,0C,80,20,
839404,000001C7,false,Rx,0,4,AA,A0,FF,C0,00,00,00,00,
840275,00000157,false,Rx,0,8,D5,47,09,C4,FF,E0,00,80,
840452,00000436,false,Rx,0,6,86,16,64,37,FF,DC,00,00,
842151,0000019F,false,Rx,0,8,00,00,7D,0E,00,6A,90,FE,
842400,00000419,false,Rx,0,6,5E,08,2A,E6,4C,00,00,00,
846629,00000155,false,Rx,0,8,3E,87,CE,54,95,E8,02,C4,
847154,000001A1,false,Rx,0,8,B1,45,70,10,35,0C,80,20,
849398,000001C7,false,Rx,0,4,AA,A0,FF,C0,00,00,00,00,
850244,00000157,false,Rx,0,8,D5,97,09,C4,FF,E0,00,80,
852150,0000019F,false,Rx,0,8,00,00,7D,03,00,6A,90,FE,
856650,00000155,false,Rx,0,8,3E,87,CE,54,95,E8,02,C4,
857146,000001A1,false,Rx,0,8,B1,45,70,10,15,0C,80,20,
859399,000001C7,false,Rx,0,4,AA,A0,FF,C0,00,00,00,00,
860337,00000157,false,Rx,0,8,D5,E7,09,C4,FF,E0,00,80,
862154,0000019F,false,Rx,0,8,00,00,7D,08,00,6A,90,FE,
863028,00000445,false,Rx,0,7,80,55,55,65,04,82,00,00,
866663,00000155,false,Rx,0,8,3E,87,CE,54,95,E8,02,C4,
867154,000001A1,false,Rx,0,8,B1,05,84,10,15,0C,80,20,
869399,000001C7,false,Rx,0,4,AA,A0,FF,C0,00,00,00,00,
870276,00000157,false,Rx,0,8,D5,37,09,C4,FF,E0,00,80,
872152,0000019F,false,Rx,0,8,00,00,7D,0D,00,6A,90,FE,
876656,00000155,false,Rx,0,8,3E,87,CE,54,95,E8,02,C4,
877150,000001A1,false,Rx,0,8,B1,05,84,10,35,0C,80,20,
879504,000004F7,false,Rx,0,8,00,1A,08,00,90,2C,06,F0,
879652,000001C7,false,Rx,0,4,AA,A0,FF,C0,00,00,00,00,
879905,00000428,false,Rx,0,8,00,00,00,7F,00,00,00,00,
880058,0000042F,false,Rx,0,2,00,20,00,00,00,00,00,00,
880299,00000157,false,Rx,0,8,D5,87,09,C4,FF,E0,00,80,
882148,0000019F,false,Rx,0,8,00,00,7D,02,00,6A,90,FE,
886575,00000155,false,Rx,0,8,3E,87,CE,54,95,E8,02,C4,
887146,000001A1,false,Rx,0,8,B1,45,70,10,15,0C,80,20,
889424,000001C7,false,Rx,0,4,AA,A0,FF,C0,00,00,00,00,
890296,00000157,false,Rx,0,8,D5,D7,09,C4,FF,E0,00,80,
892147,0000019F,false,Rx,0,8,00,00,7D,07,00,6A,90,FE,
892420,00000511,false,Rx,0,7,04,FA,F3,B7,FB,B7,D5,00,
896580,00000155,false,Rx,0,8,3E,87,CE,54,95,E8,02,C4,
896803,00000424,false,Rx,0,8,11,40,56,C8,33,5E,55,34,
897031,00000425,false,Rx,0,8,2A,BE,44,9C,42,1A,CD,0C,
897249,000001A1,false,Rx,0,8,B1,05,70,0F,F5,0C,80,20,
899428,000001C7,false,Rx,0,4,AA,A0,FF,C0,00,00,00,00,
900275,00000157,false,Rx,0,8,D5,27,09,C4,FF,E0,00,80,
902154,0000019F,false,Rx,0,8,00,00,7D,0C,00,6A,90,FE,
906578,00000155,false,Rx,0,8,3E,87,CE,54,95,E8,02,C4,
907148,000001A1,false,Rx,0,8,B1,05,70,10,15,0C,80,20,
909422,000001C7,false,Rx,0,4,AA,A0,FF,C0,00,00,00,00,
910322,00000157,false,Rx,0,8,D5,77,09,C4,FF,E0,00,80,
912148,0000019F,false,Rx,0,8,00,00,7D,01,00,6A,90,FE,
915242,00000423,false,Rx,0,8,07,1D,00,02,5D,80,5D,D8,
916602,00000155,false,Rx,0,8,3E,87,CE,54,95,E8,02,C4,
917151,000001A1,false,Rx,0,8,B1,05,84,0F,F5,0C,80,20,
919428,000001C7,false,Rx,0,4,AA,A0,FF,C0,00,00,00,00,
920325,00000157,false,Rx,0,8,D5,C7,09,C4,FF,E0,00,80,
920574,00000426,false,Rx,0,8,00,60,01,00,53,18,00,40,
922180,0000019F,false,Rx,0,8,00,00,7D,06,00,6A,90,FE,
926575,00000155,false,Rx,0,8,3E,87,CE,54,95,E8,02,C4,
927147,000001A1,false,Rx,0,8,B1,05,70,10,05,0C,80,20,
929452,000001C7,false,Rx,0,4,AA,A0,FF,C0,00,00,00,00,
930300,00000157,false,Rx,0,8,D5,17,09,C4,FF,E0,00,80,
932153,0000019F,false,Rx,0,8,00,00,7D,0B,00,6A,90,FE,
935178,00000435,false,Rx,0,8,FF,FF,1E,0B,2E,10,00,00,
936646,00000155,false,Rx,0,8,3E,87,CE,54,95,E8,02,C4,
937145,000001A1,false,Rx,0,8,B1,05,84,10,25,0C,80,20,
939603,000001C7,false,Rx,0,4,AA,A0,FF,C0,00,00,00,00,
940423,00000157,false,Rx,0,8,D5,67,09,C4,FF,E0,00,80,
940529,00000436,false,Rx,0,6,86,16,64,37,FF,DC,00,00,
942306,0000019F,false,Rx,0,8,00,00,7D,00,00,6A,90,FE,
942428,00000419,false,Rx,0,6,5E,08,2A,E6,4C,00,00,00,
946729,00000155,false,Rx,0,8,3E,87,CE,54,95,E8,02,C4,
947215,000001A1,false,Rx,0,8,B1,05,70,10,25,0C,80,20,
949495,000001C7,false,Rx,0,4,AA,A0,FF,C0,00,00,00,00,
950322,00000157,false,Rx,0,8,D5,B7,09,C4,FF,E0,00,80,
952323,0000019F,false,Rx,0,8,00,00,7D,05,00,6A,90,FE,
956750,00000155,false,Rx,0,8,3E,87,CE,54,95,E8,02,C4,
957303,000001A1,false,Rx,0,8,B1,05,84,10,25,0C,80,20,
959514,000001C7,false,Rx,0,4,AA,A0,FF,C0,00,00,00,00,
960450,00000157,false,Rx,0,8,D5,07,09,C4,FF,E0,00,80,
962254,0000019F,false,Rx,0,8,00,00,7D,0A,00,6A,90,FE,
963156,00000445,false,Rx,0,7,80,55,55,65,04,82,00,00,
966815,00000155,false,Rx,0,8,3E,87,CE,54,95,E8,02,C4,
967313,000001A1,false,Rx,0,8,B1,45,70,10,25,0C,80,20,
969737,000001C7,false,Rx,0,4,AA,A0,FF,C0,00,00,00,00,
970318,00000157,false,Rx,0,8,D5,57,09,C4,FF,E0,00,80,
972182,0000019F,false,Rx,0,8,00,00,7D,0F,00,6A,90,FE,
976829,00000155,false,Rx,0,8,3E,87,CE,54,95,E8,02,C4,
977236,000001A1,false,Rx,0,8,B1,05,84,10,25,0C,80,20,
979733,000004F7,false,Rx,0,8,00,1A,08,00,90,2C,06,F0,
979741,000001C7,false,Rx,0,4,AA,A0,FF,C0,00,00,00,00,
980032,00000428,false,Rx,0,8,00,00,00,7F,00,00,00,00,
980174,0000042F,false,Rx,0,2,00,20,00,00,00,00,00,00,
980589,00000157,false,Rx,0,8,D5,A7,09,C4,FF,E0,00,80,
982405,0000019F,false,Rx,0,8,00,00,7D,04,00,6A,90,FE,
986710,00000155,false,Rx,0,8,3E,87,CE,54,95,E8,02,C4,
987356,000001A1,false,Rx,0,8,B1,05,70,10,25,0C,80,20,
989717,000001C7,false,Rx,0,4,AA,A0,FF,C0,00,00,00,00,
990438,00000157,false,Rx,0,8,D5,F7,09,C4,FF,E0,00,80,
992359,0000019F,false,Rx,0,8,00,00,7D,09,00,6A,90,FE,
992485,00000511,false,Rx,0,7,04,39,BC,70,66,C4,B8,00,
996842,00000155,false,Rx,0,8,3E,87,CE,54,95,E8,02,C4,
996851,00000424,false,Rx,0,8,11,40,56,C8,33,5E,55,34,
997081,00000425,false,Rx,0,8,2A,BE,44,9C,42,1A,CD,0B,
997318,000001A1,false,Rx,0,8,B1,45,70,10,45,0C,80,20,
999743,000001C7,false,Rx,0,4,AA,A0,FF,C0,00,00,00,00,
1000566,00000157,false,Rx,0,8,D5,47,09,C4,FF,E0,00,80,
1002172,0000019F,false,Rx,0,8,00,00,7D,0E,00,6A,90,FE,
1006836,00000155,false,Rx,0,8,3E,87,CE,54,95,E8,02,C4,
1007223,000001A1,false,Rx,0,8,B1,05,70,10,35,0C,80,20,
1009775,000001C7,false,Rx,0,4,AA,A0,FF,C0,00,00,00,00,
1010369,00000157,false,Rx,0,8,D5,97,09,C4,FF,E0,00,80,
1012278,0000019F,false,Rx,0,8,00,00,7D,03,00,6A,90,FE,
1015419,00000423,false,Rx,0,8,07,1D,00,02,B2,80,B2,D8,
1016663,00000155,false,Rx,0,8,3E,87,CE,54,95,E8,02,C4,
1017374,000001A1,false,Rx,0,8,B1,05,84,10,15,0C,80,20,
1019772,000001C7,false,Rx,0,4,AA,A0,FF,C0,00,00,00,00,
1020568,00000157,false,Rx,0,8,D5,E7,09,C4,FF,E0,00,80,
1020577,00000426,false,Rx,0,8,00,60,01,00,53,18,00,40,
1022386,0000019F,false,Rx,0,8,00,00,7D,08,00,6A,90,FE,
1026822,00000155,false,Rx,0,8,3E,87,CE,54,95,E8,02,C4,
1027229,000001A1,false,Rx,0,8,B1,45,84,10,45,0C,80,20,
1029561,000001C7,false,Rx,0,4,AA,A0,FF,C0,00,00,00,00,
1030420,00000157,false,Rx,0,8,D5,37,09,C4,FF,E0,00,80,
1032361,0000019F,false,Rx,0,8,00,00,7D,0D,00,6A,90,FE,
1035306,00000435,false,Rx,0,8,FF,FF,1E,0B,2E,10,00,00,
1036928,00000155,false,Rx,0,8,3E,87,CE,54,95,E8,02,C4,
1037212,000001A1,false,Rx,0,8,B1,45,84,10,25,0C,80,20,
1039736,000001C7,false,Rx,0,4,AA,A0,FF,C0,00,00,00,00,
1040603,00000157,false,Rx,0,8,D5,87,09,C4,FF,E0,00,80,
1040614,00000436,false,Rx,0,6,86,16,64,37,FF,DC,00,00,
1042260,0000019F,false,Rx,0,8,00,00,7D,02,00,6A,90,FE,
1042459,00000419,false,Rx,0,6,5E,08,2A,E6,4C,00,00,00,
1046845,00000155,false,Rx,0,8,3E,87,CE,54,95,E8,02,C4,
1047170,000001A1,false,Rx,0,8,B1,05,84,10,25,0C,80,20,
1049783,000001C7,false,Rx,0,4,AA,A0,FF,C0,00,00,00,00,
1050523,00000157,false,Rx,0,8,D5,D7,09,C4,FF,E0,00,80,
1052396,0000019F,false,Rx,0,8,00,00,7D,07,00,6A,90,FE,
1056684,00000155,false,Rx,0,8,3E,87,CE,54,95,E8,02,C4,
1057208,000001A1,false,Rx,0,8,B1,45,84,10,75,0C,80,20,
1059582,000001C7,false,Rx,0,4,AA,A0,FF,C0,00,00,00,00,
1060405,00000157,false,Rx,0,8,D5,27,09,C4,FF,E0,00,80,
1062209,0000019F,false,Rx,0,8,00,00,7D,0C,00,6A,90,FE,
1063035,00000445,false,Rx,0,7,80,55,AA,65,04,82,00,00,
1066703,00000155,false,Rx,0,8,3E,87,CE,54,95,E8,02,C4,
1067204,000001A1,false,Rx,0,8,B1,45,84,10,35,0C,80,20,
1069576,000001C7,false,Rx,0,4,AA,A0,FF,C0,00,00,00,00,
1070354,00000157,false,Rx,0,8,D5,77,09,C4,FF,E0,00,80,
1072231,0000019F,false,Rx,0,8,00,00,7D,01,00,6A,90,FE,
1076703,00000155,false,Rx,0,8,3E,87,CE,54,95,E8,02,C4,
1077204,000001A1,false,Rx,0,8,B1,05,70,10,25,0C,80,20,
1079644,000004F7,false,Rx,0,8,00,1A,08,00,90,2C,06,F0,
1079791,000001C7,false,Rx,0,4,AA,A0,FF,C0,00,00,00,00,
1080044,00000428,false,Rx,0,8,00,00,00,7F,00,00,00,00,
1080293,00000157,false,Rx,0,8,D5,C7,09,C4,FF,E0,00,80,
1080415,0000042F,false,Rx,0,2,00,20,00,00,00,00,00,00,
1082201,0000019F,false,Rx,0,8,00,00,7D,06,00,6A,90,FE,
1086620,00000155,false,Rx,0,8,3E,87,CE,54,95,E8,02,C4,
1087197,000001A1,false,Rx,0,8,B1,05,70,10,25,0C,80,20,
1089569,000001C7,false,Rx,0,4,AA,A0,FF,C0,00,00,00,00,
1090288,00000157,false,Rx,0,8,D5,17,09,C4,FF,E0,00,80,
1092226,0000019F,false,Rx,0,8,00,00,7D,0B,00,6A,90,FE,
1092475,00000511,false,Rx,0,7,04,78,85,29,D1,D1,9B,00,
1096601,00000155,false,Rx,0,8,3E,87,CE,54,95,E8,02,C4,
1096828,00000424,false,Rx,0,8,11,40,56,C8,33,5E,AA,34,
1097057,00000425,false,Rx,0,8,2A,BE,44,9C,42,1A,CD,0B,
1097294,000001A1,false,Rx,0,8,B1,45,70,10,05,0C,80,20,
1099602,000001C7,false,Rx,0,4,AA,A0,FF,C0,00,00,00,00,
1100376,00000157,false,Rx,0,8,D5,67,09,C4,FF,E0,00,80,
1102163,0000019F,false,Rx,0,8,00,00,7D,00,00,6A,90,FE,
1106592,00000155,false,Rx,0,8,3E,87,CE,54,95,E8,02,C4,
1107204,000001A1,false,Rx,0,8,B1,05,84,10,05,0C,80,20,
1109602,000001C7,false,Rx,0,4,AA,A0,FF,C0,00,00,00,00,
1110290,00000157,false,Rx,0,8,D5,B7,09,C4,FF,E0,00,80,
1112199,0000019F,false,Rx,0,8,00,00,7D,05,00,6A,90,FE,
1115268,00000423,false,Rx,0,8,07,1D,00,02,B2,80,B2,D8,
1116625,00000155,false,Rx,0,8,3E,87,CE,54,95,E8,02,C4,
1117163,000001A1,false,Rx,0,8,B1,45,84,10,45,0C,80,20,
1119566,000001C7,false,Rx,0,4,AA,A0,FF,C0,00,00,00,00,
1120259,00000157,false,Rx,0,8,D5,07,09,C4,FF,E0,00,80,
1120481,00000426,false,Rx,0,8,00,60,01,00,53,18,00,40,
1122189,0000019F,false,Rx,0,8,00,00,7D,0A,00,6A,90,FE,
1126569,00000155,false,Rx,0,8,3E,87,CE,54,95,E8,02,C4,
1127158,000001A1,false,Rx,0,8,B1,45,84,10,15,0C,80,20,
1129585,000001C7,false,Rx,0,4,AA,A0,FF,C0,00,00,00,00,
1130332,00000157,false,Rx,0,8,D5,57,09,C4,FF,E0,00,80,
1132170,0000019F,false,Rx,0,8,00,00,7D,0F,00,6A,90,FE,
1135294,00000435,false,Rx,0,8,FF,FF,1E,0B,2E,10,00,00,
1136667,00000155,false,Rx,0,8,3E,87,CE,54,95,E8,02,C4,
1137168,000001A1,false,Rx,0,8,B1,05,84,10,05,0C,80,20,
1139592,000001C7,false,Rx,0,4,AA,A0,FF,C0,00,00,00,00,
1140331,00000157,false,Rx,0,8,D5,A7,09,C4,FF,E0,00,80,
1140538,00000436,false,Rx,0,6,86,16,64,37,FF,DC,00,00,
1142194,0000019F,false,Rx,0,8,00,00,7D,04,00,6A,90,FE,
1142418,00000419,false,Rx,0,6,5E,08,2A,E6,4C,00,00,00,
1146661,00000155,false,Rx,0,8,3E,87,CE,54,95,E8,02,C4,
1147155,000001A1,false,Rx,0,8,B1,05,84,10,15,0C,80,20,
1149582,000001C7,false,Rx,0,4,AA,A0,FF,C0,00,00,00,00,
1150331,00000157,false,Rx,0,8,D5,F7,09,C4,FF,E0,00,80,
1152156,0000019F,false,Rx,0,8,00,00,7D,09,00,6A,90,FE,
1156617,00000155,false,Rx,0,8,3E,87,CE,54,95,E8,02,C4,
1157167,000001A1,false,Rx,0,8,B1,05,84,10,05,0C,80,20,
1159600,000001C7,false,Rx,0,4,AA,A0,FF,C0,00,00,00,00,
1160296,00000157,false,Rx,0,8,D5,47,09,C4,FF,E0,00,80,
1162165,0000019F,false,Rx,0,8,00,00,7D,0E,00,6A,90,FE,
1163008,00000445,false,Rx,0,7,80,55,AA,65,04,82,00,00,
1166618,00000155,false,Rx,0,8,3E,87,CE,54,95,E8,02,C4,
1167162,000001A1,false,Rx,0,8,B1,05,84,0F,F5,0C,80,20,
1169617,000001C7,false,Rx,0,4,AA,A0,FF,C0,00,00,00,00,
1170289,00000157,false,Rx,0,8,D5,97,09,C4,FF,E0,00,80,
1172167,0000019F,false,Rx,0,8,00,00,7D,03,00,6A,90,FE,
1176895,00000155,false,Rx,0,8,3E,87,CE,54,95,E8,02,C4,
1177164,000001A1,false,Rx,0,8,B1,05,84,10,25,0C,80,20,
1179691,000004F7,false,Rx,0,8,00,1A,08,00,90,2C,06,F0,
1179841,000001C7,false,Rx,0,4,AA,A0,FF,C0,00,00,00,00,
1180095,00000428,false,Rx,0,8,00,00,00,7F,00,00,00,00,
1180340,00000157,false,Rx,0,8,D5,E7,09,C4,FF,E0,00,80,
1180467,0000042F,false,Rx,0,2,00,20,00,00,00,00,00,00,
1182165,0000019F,false,Rx,0,8,00,00,7D,08,00,6A,90,FE,
1186576,00000155,false,Rx,0,8,3E,87,CE,54,95,E8,02,C4,
1187169,000001A1,false,Rx,0,8,B1,05,84,10,05,0C,80,20,
1189637,000001C7,false,Rx,0,4,AA,A0,FF,C0,00,00,00,00,
1190311,00000157,false,Rx,0,8,D5,37,09,C4,FF,E0,00,80,
1192186,0000019F,false,Rx,0,8,00,00,7D,0D,00,6A,90,FE,
1192460,00000511,false,Rx,0,7,04,B7,4E,E2,3C,DE,7E,00,
1196552,00000155,false,Rx,0,8,3E,87,CE,54,95,E8,02,C4,
1196822,00000424,false,Rx,0,8,11,40,56,C8,33,5E,AA,34,
1197048,00000425,false,Rx,0,8,2A,BE,44,9C,42,1A,CD,0B,
1197268,000001A1,false,Rx,0,8,B1,45,84,10,25,0C,80,20,
1197495,000004AE,false,Rx,0,8,D2,B2,3C,A0,92,5A,88,84,
1197663,00000659,false,Rx,0,4,26,00,03,36,00,00,00,00,
1197814,000004AF,false,Rx,0,5,65,3B,4B,3A,40,00,00,00,
1199621,000001C7,false,Rx,0,4,AA,A0,FF,C0,00,00,00,00,
1200298,00000157,false,Rx,0,8,D5,87,09,C4,FF,E0,00,80,
1202189,0000019F,false,Rx,0,8,00,00,7D,02,00,6A,90,FE,
1206581,00000155,false,Rx,0,8,3E,87,CE,54,95,E8,02,C4,
1207155,000001A1,false,Rx,0,8,B1,45,84,10,45,0C,80,20,
1209683,000001C7,false,Rx,0,4,AA,A0,FF,C0,00,00,00,00,
1210341,00000157,false,Rx,0,8,D5,D7,09,C4,FF,E0,00,80,
1212359,0000019F,false,Rx,0,8,00,00,7D,07,00,6A,90,FE,
1215327,00000423,false,Rx,0,8,07,1D,00,02,B2,80,B2,D8,
1216626,00000155,false,Rx,0,8,3E,87,CE,54,95,E8,02,C4,
1217222,000001A1,false,Rx,0,8,B1,45,84,10,25,0C,80,20,
1219890,000001C7,false,Rx,0,4,AA,A0,FF,C0,00,00,00,00,
1220327,00000157,false,Rx,0,8,D5,27,09,C4,FF,E0,00,80,
1220506,00000426,false,Rx,0,8,00,60,01,00,53,18,00,40,
1222240,0000019F,false,Rx,0,8,00,00,7D,0C,00,6A,90,FE,
1226559,00000155,false,Rx,0,8,3E,87,CE,54,95,E8,02,C4,
1227152,000001A1,false,Rx,0,8,B1,05,84,10,25,0C,80,20,
1229626,000001C7,false,Rx,0,4,AA,A0,FF,C0,00,00,00,00,
1230240,00000157,false,Rx,0,8,D5,77,09,C4,FF,E0,00,80,
1232269,0000019F,false,Rx,0,8,00,00,7D,01,00,6A,90,FE,
1235325,00000435,false,Rx,0,8,FF,FF,1E,0B,2E,10,00,00,
1236919,00000155,false,Rx,0,8,3E,87,CE,54,95,E8,02,C4,
1237239,000001A1,false,Rx,0,8,B1,45,84,10,45,0C,80,20,
1238620,0000069F,false,Rx,0,4,71,30,28,2F,00,00,00,00,
1239722,000001C7,false,Rx,0,4,AA,A0,FF,C0,00,00,00,00,
1240591,00000157,false,Rx,0,8,D5,C7,09,C4,FF,E0,00,80,
1240600,00000436,false,Rx,0,6,86,16,64,37,FF,DC,00,00,
1242357,0000019F,false,Rx,0,8,00,00,7D,06,00,6A,90,FE,
1242401,00000419,false,Rx,0,6,5E,08,2A,E6,4C,00,00,00,
1246824,00000155,false,Rx,0,8,3E,87,CE,54,95,E8,02,C4,
1247234,000001A1,false,Rx,0,8,B1,05,84,10,25,0C,80,20,
1249803,000001C7,false,Rx,0,4,AA,A0,FF,C0,00,00,00,00,
1250323,00000157,false,Rx,0,8,D5,17,09,C4,FF,E0,00,80,
1252351,0000019F,false,Rx,0,8,00,00,7D,0B,00,6A,90,FE,
1256792,00000155,false,Rx,0,8,3E,87,CE,54,95,E8,02,C4,
1257159,000001A1,false,Rx,0,8,B1,05,84,10,25,0C,80,20,
1259807,000001C7,false,Rx,0,4,AA,A0,FF,C0,00,00,00,00,
1260431,00000157,false,Rx,0,8,D5,67,09,C4,FF,E0,00,80,
1262313,0000019F,false,Rx,0,8,00,00,7D,00,00,6A,90,FE,
1263033,00000445,false,Rx,0,7,80,55,AA,65,04,82,00,00,
1266731,00000155,false,Rx,0,8,3E,87,CE,54,95,E8,02,C4,
1267266,000001A1,false,Rx,0,8,B1,45,84,10,45,0C,80,20,
1269923,000001C7,false,Rx,0,4,AA,A0,FF,C0,00,00,00,00,
1270265,00000157,false,Rx,0,8,D5,B7,09,C4,FF,E0,00,80,
1272365,0000019F,false,Rx,0,8,00,00,7D,05,00,6A,90,FE,
1276903,00000155,false,Rx,0,8,3E,87,CE,54,95,E8,02,C4,
1277246,000001A1,false,Rx,0,8,B1,05,70,10,25,0C,80,20,
1279990,000004F7,false,Rx,0,8,00,1A,08,00,90,2C,06,F0,
1280000,000001C7,false,Rx,0,4,AA,A0,FF,C0,00,00,00,00,
1280210,00000428,false,Rx,0,8,00,00,00,7F,00,00,00,00,
1280458,00000157,false,Rx,0,8,D5,07,09,C4,FF,E0,00,80,
1280616,0000042F,false,Rx,0,2,00,20,00,00,00,00,00,00,
1282385,0000019F,false,Rx,0,8,00,00,7D,0A,00,6A,90,FE,
1286828,00000155,false,Rx,0,8,3E,87,CE,54,95,E8,02,C4,
1287225,000001A1,false,Rx,0,8,B1,05,70,10,15,0C,80,20,
1289925,000001C7,false,Rx,0,4,AA,A0,FF,C0,00,00,00,00,
1290319,00000157,false,Rx,0,8,D5,57,09,C4,FF,E0,00,80,
1292391,0000019F,false,Rx,0,8,00,00,7D,0F,00,6A,90,FE,
1292440,00000511,false,Rx,0,7,04,F6,17,9B,A7,EB,61,00,
1296760,00000155,false,Rx,0,8,3E,87,CE,54,95,E8,02,C4,
1296779,00000424,false,Rx,0,8,11,40,56,C8,33,5E,AA,34,
1297062,00000425,false,Rx,0,8,2A,BE,44,9C,42,1A,CD,0B,
1297343,000001A1,false,Rx,0,8,B1,45,84,10,45,0C,80,20,
1299947,000001C7,false,Rx,0,4,AA,A0,FF,C0,00,00,00,00,
1300393,00000157,false,Rx,0,8,D5,A7,09,C4,FF,E0,00,80,
1302387,0000019F,false,Rx,0,8,00,00,7D,04,00,6A,90,FE,
1306640,00000155,false,Rx,0,8,3E,87,CE,54,95,E8,02,C4,
1307210,000001A1,false,Rx,0,8,B1,45,84,10,25,0C,80,20,
1309733,000001C7,false,Rx,0,4,AA,A0,FF,C0,00,00,00,00,
1310301,00000157,false,Rx,0,8,D5,F7,09,C4,FF,E0,00,80,
1312209,0000019F,false,Rx,0,8,00,00,7D,09,00,6A,90,FE,
1315233,00000423,false,Rx,0,8,07,1D,00,02,B2,80,B2,D8,
1316647,00000155,false,Rx,0,8,3E,87,CE,54,95,E8,02,C4,
1317206,000001A1,false,Rx,0,8,B1,05,84,10,15,0C,80,20,
1319725,000001C7,false,Rx,0,4,AA,A0,FF,C0,00,00,00,00,
1320328,00000157,false,Rx,0,8,D5,47,09,C4,FF,E0,00,80,
1320559,00000426,false,Rx,0,8,00,60,01,00,53,18,00,40,
1322203,0000019F,false,Rx,0,8,00,00,7D,0E,00,6A,90,FE,
1326597,00000155,false,Rx,0,8,3E,87,CE,54,95,E8,02,C4,
1327209,000001A1,false,Rx,0,8,B1,45,84,10,45,0C,80,20,
1329756,000001C7,false,Rx,0,4,AA,A0,FF,C0,00,00,00,00,
1330292,00000157,false,Rx,0,8,D5,97,09,C4,FF,E0,00,80,
1332228,0000019F,false,Rx,0,8,00,00,7D,03,00,6A,90,FE,
1335231,00000435,false,Rx,0,8,FF,FF,1E,0B,2E,10,00,00,
1336654,00000155,false,Rx,0,8,3E,87,CE,54,95,E8,02,C4,
1337207,000001A1,false,Rx,0,8,B1,45,70,10,25,0C,80,20,
1339754,000001C7,false,Rx,0,4,AA,A0,FF,C0,00,00,00,00,
1340298,00000157,false,Rx,0,8,D5,E7,09,C4,FF,E0,00,80,
1340506,00000436,false,Rx,0,6,86,16,64,37,FF,DC,00,00,
1342203,0000019F,false,Rx,0,8,00,00,7D,08,00,6A,90,FE,
1342478,00000419,false,Rx,0,6,5E,08,2A,E6,4C,00,00,00,
1346686,00000155,false,Rx,0,8,3E,87,CE,54,95,E8,02,C4,
1347163,000001A1,false,Rx,0,8,B1,05,70,10,35,0C,80,20,
1349753,000001C7,false,Rx,0,4,AA,A0,FF,C0,00,00,00,00,
1350354,00000157,false,Rx,0,8,D5,37,09,C4,FF,E0,00,80,
1352203,0000019F,false,Rx,0,8,00,00,7D,0D,00,6A,90,FE,
1356679,00000155,false,Rx,0,8,3E,87,CE,54,95,E8,02,C4,
1357211,000001A1,false,Rx,0,8,B1,05,84,10,45,0C,80,20,
1359753,000001C7,false,Rx,0,4,AA,A0,FF,C0,00,00,00,00,
1360353,00000157,false,Rx,0,8,D5,87,09,C4,FF,E0,00,80,
1362230,0000019F,false,Rx,0,8,00,00,7D,02,00,6A,90,FE,
1363046,00000445,false,Rx,0,7,80,55,AA,65,04,82,00,00,
1366613,00000155,false,Rx,0,8,3E,87,CE,54,95,E8,02,C4,
1367153,000001A1,false,Rx,0,8,B1,45,84,10,05,0C,80,20,
1369710,000001C7,false,Rx,0,4,AA,A0,FF,C0,00,00,00,00,
1370306,00000157,false,Rx,0,8,D5,D7,09,C4,FF,E0,00,80,
1372180,0000019F,false,Rx,0,8,00,00,7D,07,00,6A,90,FE,
1376606,00000155,false,Rx,0,8,3E,87,CE,54,95,E8,02,C4,
1377160,000001A1,false,Rx,0,8,B1,05,84,10,05,0C,80,20,
1379792,000004F7,false,Rx,0,8,00,1A,08,00,90,2C,06,F0,
1379958,000001C7,false,Rx,0,4,AA,A0,FF,C0,00,00,00,00,
1380246,00000428,false,Rx,0,8,00,00,00,7F,00,00,00,00,
1380452,00000157,false,Rx,0,8,D5,27,09,C4,FF,E0,00,80,
1380580,0000042F,false,Rx,0,2,00,20,00,00,00,00,00,00,
1382155,0000019F,false,Rx,0,8,00,00,7D,0C,00,6A,90,FE,
1386568,00000155,false,Rx,0,8,3E,87,CE,54,95,E8,02,C4,
1387157,000001A1,false,Rx,0,8,B1,05,84,10,15,0C,80,20,
1389729,000001C7,false,Rx,0,4,AA,A0,FF,C0,00,00,00,00,
1390305,00000157,false,Rx,0,8,D5,77,09,C4,FF,E0,00,80,
1392189,0000019F,false,Rx,0,8,00,00,7D,01,00,6A,90,FE,
1392503,00000511,false,Rx,0,7,04,35,E0,54,12,F8,44,00,
1396602,00000155,false,Rx,0,8,3E,87,CE,54,95,E8,02,C4,
1396832,00000424,false,Rx,0,8,11,40,56,C8,33,5E,AA,34,
1397061,00000425,false,Rx,0,8,2A,BE,44,9C,42,1A,CD,0C,
1397297,000001A1,false,Rx,0,8,B1,45,70,0F,F5,0C,80,20,
1399754,000001C7,false,Rx,0,4,AA,A0,FF,C0,00,00,00,00,
1400323,00000157,false,Rx,0,8,D5,C7,09,C4,FF,E0,00,80,
1402218,0000019F,false,Rx,0,8,00,00,7D,06,00,6A,90,FE,
1406555,00000155,false,Rx,0,8,3E,87,CE,54,95,E8,02,C4,
1407193,000001A1,false,Rx,0,8,B1,05,84,10,05,0C,80,20,
1409743,000001C7,false,Rx,0,4,AA,A0,FF,C0,00,00,00,00,
1410330,00000157,false,Rx,0,8,D5,17,09,C4,FF,E0,00,80,
1412208,0000019F,false,Rx,0,8,00,00,7D,0B,00,6A,90,FE,
1415297,00000423,false,Rx,0,8,07,1D,00,02,B2,80,B2,D8,
1416629,00000155,false,Rx,0,8,3E,87,CE,54,95,E8,02,C4,
1417207,000001A1,false,Rx,0,8,B1,05,84,10,15,0C,80,20,
1419755,000001C7,false,Rx,0,4,AA,A0,FF,C0,00,00,00,00,
1420297,00000157,false,Rx,0,8,D5,67,09,C4,FF,E0,00,80,
1420553,00000426,false,Rx,0,8,00,60,01,00,53,18,00,40,
1422230,0000019F,false,Rx,0,8,00,00,7D,00,00,6A,90,FE,
1426598,00000155,false,Rx,0,8,3E,87,CE,54,95,E8,02,C4,
1427207,000001A1,false,Rx,0,8,B1,45,84,10,05,0C,80,20,
1429748,000001C7,false,Rx,0,4,AA,A0,FF,C0,00,00,00,00,
1430303,00000157,false,Rx,0,8,D5,B7,09,C4,FF,E0,00,80,
1432229,0000019F,false,Rx,0,8,00,00,7D,05,00,6A,90,FE,
1435297,00000435,false,Rx,0,8,FF,FF,1E,0B,2E,10,00,00,
1436704,00000155,false,Rx,0,8,3E,87,CE,54,95,E8,02,C4,
1437201,000001A1,false,Rx,0,8,B1,05,84,10,05,0C,80,20,
1439712,000001C7,false,Rx,0,4,AA,A0,FF,C0,00,00,00,00,
1440332,00000157,false,Rx,0,8,D5,07,09,C4,FF,E0,00,80,
1440531,00000436,false,Rx,0,6,86,16,64,37,FF,DC,00,00,
1442181,0000019F,false,Rx,0,8,00,00,7D,0A,00,6A,90,FE,
1442429,00000419,false,Rx,0,6,5E,08,2A,E6,4C,00,00,00,
1446609,00000155,false,Rx,0,8,3E,87,CE,54,95,E8,02,C4,
1447156,000001A1,false,Rx,0,8,B1,45,84,10,25,0C,80,20,
1449733,000001C7,false,Rx,0,4,AA,A0,FF,C0,00,00,00,00,
1450280,00000157,false,Rx,0,8,D5,57,09,C4,FF,E0,00,80,
1452160,0000019F,false,Rx,0,8,00,00,7D,0F,00,6A,90,FE,
1456635,00000155,false,Rx,0,8,3E,87,CE,54,95,E8,02,C4,
1457157,000001A1,false,Rx,0,8,B1,45,84,10,25,0C,80,20,
1459891,000001C7,false,Rx,0,4,AA,A0,FF,C0,00,00,00,00,
1460332,00000157,false,Rx,0,8,D5,A7,09,C4,FF,E0,00,80,
1462182,0000019F,false,Rx,0,8,00,00,7D,04,00,6A,90,FE,
1462954,00000445,false,Rx,0,7,80,55,AA,65,04,82,00,00,
1466629,00000155,false,Rx,0,8,3E,87,CE,54,95,E8,02,C4,
1467156,000001A1,false,Rx,0,8,B1,45,84,10,15,0C,80,20,
1469999,000001C7,false,Rx,0,4,AA,A0,FF,C0,00,00,00,00,
1470385,00000157,false,Rx,0,8,D5,F7,09,C4,FF,E0,00,80,
1472337,0000019F,false,Rx,0,8,00,00,7D,09,00,6A,90,FE,
1476788,00000155,false,Rx,0,8,3E,87,CE,54,95,E8,02,C4,
1477233,000001A1,false,Rx,0,8,B1,45,84,10,25,0C,80,20,
1479959,000004F7,false,Rx,0,8,00,1A,08,00,90,2C,06,F0,
1479973,000001C7,false,Rx,0,4,AA,A0,FF,C0,00,00,00,00,
1480314,00000157,false,Rx,0,8,D5,47,09,C4,FF,E0,00,80,
1480571,00000428,false,Rx,0,8,00,00,00,7F,00,00,00,00,
1480715,0000042F,false,Rx,0,2,00,20,00,00,00,00,00,00,
1482224,0000019F,false,Rx,0,8,00,00,7D,0E,00,6A,90,FE,
1486736,00000155,false,Rx,0,8,3E,87,CE,54,95,E8,02,C4,
1487219,000001A1,false,Rx,0,8,B1,05,70,10,15,0C,80,20,
1489891,000001C7,false,Rx,0,4,AA,A0,FF,C0,00,00,00,00,
1490309,00000157,false,Rx,0,8,D5,97,09,C4,FF,E0,00,80,
1492312,0000019F,false,Rx,0,8,00,00,7D,03,00,6A,90,FE,
1492483,00000511,false,Rx,0,7,04,74,A9,0D,7D,05,27,00,
1496720,00000155,false,Rx,0,8,3E,87,CE,54,95,E8,02,C4,
1496783,00000424,false,Rx,0,8,11,40,56,C8,33,5E,AA,34,
1497086,00000425,false,Rx,0,8,2A,BE,44,9C,42,1A,CD,0C,
1497341,000001A1,false,Rx,0,8,B1,05,84,10,25,0C,80,20,
1499920,000001C7,false,Rx,0,4,AA,A0,FF,C0,00,00,00,00,
1500299,00000157,false,Rx,0,8,D5,E7,09,C4,FF,E0,00,80,
1502376,0000019F,false,Rx,0,8,00,00,7D,08,00,6A,90,FE,
1506828,00000155,false,Rx,0,8,3E,87,CE,54,95,E8,02,C4,
1507221,000001A1,false,Rx,0,8,B1,45,84,10,45,0C,80,20,
1510016,000001C7,false,Rx,0,4,AA,A0,FF,C0,00,00,00,00,
1510338,00000157,false,Rx,0,8,D5,37,09,C4,FF,E0,00,80,
1512283,0000019F,false,Rx,0,8,00,00,7D,0D,00,6A,90,FE,
1515257,00000423,false,Rx,0,8,07,1D,00,02,5D,80,5D,D8,
1516759,00000155,false,Rx,0,8,3E,87,CE,54,95,E8,02,C4,
1517252,000001A1,false,Rx,0,8,B1,05,84,10,35,0C,80,20,
1520010,000001C7,false,Rx,0,4,AA,A0,FF,C0,00,00,00,00,
1520350,00000157,false,Rx,0,8,D5,87,09,C4,FF,E0,00,80,
1520563,00000426,false,Rx,0,8,00,60,01,00,53,18,00,40,
1522289,0000019F,false,Rx,0,8,00,00,7D,02,00,6A,90,FE,
1526726,00000155,false,Rx,0,8,3E,87,CE,54,95,E8,02,C4,
1527357,000001A1,false,Rx,0,8,B1,05,84,10,35,0C,80,20,
1529928,000001C7,false,Rx,0,4,AA,A0,FF,C0,00,00,00,00,
1530323,00000157,false,Rx,0,8,D5,D7,09,C4,FF,E0,00,80,
1532387,0000019F,false,Rx,0,8,00,00,7D,07,00,6A,90,FE,
1535398,00000435,false,Rx,0,8,FF,FF,1E,0B,2E,10,00,00,
1536798,00000155,false,Rx,0,8,3E,87,CE,54,95,E8,02,C4,
1537273,000001A1,false,Rx,0,8,B1,45,84,10,55,0C,80,20,
1540025,000001C7,false,Rx,0,4,AA,A0,FF,C0,00,00,00,00,
1540345,00000157,false,Rx,0,8,D5,27,09,C4,FF,E0,00,80,
1540520,00000436,false,Rx,0,6,86,16,64,37,FF,DC,00,00,
1542390,0000019F,false,Rx,0,8,00,00,7D,0C,00,6A,90,FE,
1542437,00000419,false,Rx,0,6,5E,08,2A,E6,4C,00,00,00,
1546832,00000155,false,Rx,0,8,3E,87,CE,54,95,E8,02,C4,
1547264,000001A1,false,Rx,0,8,B1,05,70,10,25,0C,80,20,
1549994,000001C7,false,Rx,0,4,AA,A0,FF,C0,00,00,00,00,
1550383,00000157,false,Rx,0,8,D5,77,09,C4,FF,E0,00,80,
1552201,0000019F,false,Rx,0,8,00,00,7D,01,00,6A,90,FE,
1556631,00000155,false,Rx,0,8,3E,87,CE,54,95,E8,02,C4,
1557213,000001A1,false,Rx,0,8,B1,05,84,10,25,0C,80,20,
1559836,000001C7,false,Rx,0,4,AA,A0,FF,C0,00,00,00,00,
1560334,00000157,false,Rx,0,8,D5,C7,09,C4,FF,E0,00,80,
1562235,0000019F,false,Rx,0,8,00,00,7D,06,00,6A,90,FE,
1563004,00000445,false,Rx,0,7,80,55,55,65,04,82,00,00,
1566630,00000155,false,Rx,0,8,3E,87,CE,54,95,E8,02,C4,
1567210,000001A1,false,Rx,0,8,B1,45,70,10,45,0C,80,20,
1569830,000001C7,false,Rx,0,4,AA,A0,FF,C0,00,00,00,00,
1570332,00000157,false,Rx,0,8,D5,17,09,C4,FF,E0,00,80,
1572231,0000019F,false,Rx,0,8,00,00,7D,0B,00,6A,90,FE,
1576655,00000155,false,Rx,0,8,3E,87,CE,54,95,E8,02,C4,
1577208,000001A1,false,Rx,0,8,B1,45,84,10,35,0C,80,20,
1579905,000004F7,false,Rx,0,8,00,1A,08,00,90,2C,06,F0,
1580109,000001C7,false,Rx,0,4,AA,A0,FF,C0,00,00,00,00,
1580381,00000157,false,Rx,0,8,D5,67,09,C4,FF,E0,00,80,
1580610,00000428,false,Rx,0,8,00,00,00,7F,00,00,00,00,
1580762,0000042F,false,Rx,0,2,00,20,00,00,00,00,00,00,
1582234,0000019F,false,Rx,0,8,00,00,7D,00,00,6A,90,FE,
1586605,00000155,false,Rx,0,8,3E,87,CE,54,95,E8,02,C4,
1587208,000001A1,false,Rx,0,8,B1,05,70,10,35,0C,80,20,
1589831,000001C7,false,Rx,0,4,AA,A0,FF,C0,00,00,00,00,
1590300,00000157,false,Rx,0,8,D5,B7,09,C4,FF,E0,00,80,
1592231,0000019F,false,Rx,0,8,00,00,7D,05,00,6A,90,FE,
1592480,00000511,false,Rx,0,7,04,B3,72,C6,E8,12,0A,00,
1596608,00000155,false,Rx,0,8,3E,87,CE,54,95,E8,02,C4,
1596834,00000424,false,Rx,0,8,11,40,56,C8,33,5E,55,34,
1597061,00000425,false,Rx,0,8,2A,BE,44,9C,42,1A,CD,0C,
1597299,000001A1,false,Rx,0,8,B1,05,84,10,55,0C,80,20,
1599857,000001C7,false,Rx,0,4,AA,A0,FF,C0,00,00,00,00,
1600299,00000157,false,Rx,0,8,D5,07,09,C4,FF,E0,00,80,
1602230,0000019F,false,Rx,0,8,00,00,7D,0A,00,6A,90,FE,
1606606,00000155,false,Rx,0,8,3E,87,CE,54,95,E8,02,C4,
1607208,000001A1,false,Rx,0,8,B1,45,70,10,15,0C,80,20,
1609853,000001C7,false,Rx,0,4,AA,A0,FF,C0,00,00,00,00,
1610264,00000157,false,Rx,0,8,D5,57,09,C4,FF,E0,00,80,
1612162,0000019F,false,Rx,0,8,00,00,7D,0F,00,6A,90,FE,
1615159,00000423,false,Rx,0,8,07,1D,00,02,5D,80,5D,D8,
1616583,00000155,false,Rx,0,8,3E,87,CE,54,95,E8,02,C4,
1617157,000001A1,false,Rx,0,8,B1,05,84,10,05,0C,80,20,
1619808,000001C7,false,Rx,0,4,AA,A0,FF,C0,00,00,00,00,
1620309,00000157,false,Rx,0,8,D5,A7,09,C4,FF,E0,00,80,
1620537,00000426,false,Rx,0,8,00,60,01,00,53,18,00,40,
1622182,0000019F,false,Rx,0,8,00,00,7D,04,00,6A,90,FE,
1626595,00000155,false,Rx,0,8,3E,87,CE,54,95,E8,02,C4,
1627158,000001A1,false,Rx,0,8,B1,45,70,10,25,0C,80,20,
1629818,000001C7,false,Rx,0,4,AA,A0,FF,C0,00,00,00,00,
1630340,00000157,false,Rx,0,8,D5,F7,09,C4,FF,E0,00,80,
1632161,0000019F,false,Rx,0,8,00,00,7D,09,00,6A,90,FE,
1635264,00000435,false,Rx,0,8,FF,FF,1E,0B,2E,10,00,00,
1636639,00000155,false,Rx,0,8,3E,87,CE,54,95,E8,02,C4,
1637162,000001A1,false,Rx,0,8,B1,45,84,10,15,0C,80,20,
1639835,000001C7,false,Rx,0,4,AA,A0,FF,C0,00,00,00,00,
1640251,00000157,false,Rx,0,8,D5,47,09,C4,FF,E0,00,80,
1640435,00000436,false,Rx,0,6,86,16,64,37,FF,DC,00,00,
1642186,0000019F,false,Rx,0,8,00,00,7D,0E,00,6A,90,FE,
1642430,00000419,false,Rx,0,6,5E,08,2A,E6,4C,00,00,00,
1646583,00000155,false,Rx,0,8,3E,87,CE,54,95,E8,02,C4,
1647153,000001A1,false,Rx,0,8,B1,05,70,10,15,0C,80,20,
1649836,000001C7,false,Rx,0,4,AA,A0,FF,C0,00,00,00,00,
1650282,00000157,false,Rx,0,8,D5,97,09,C4,FF,E0,00,80,
1652183,0000019F,false,Rx,0,8,00,00,7D,03,00,6A,90,FE,
1656640,00000155,false,Rx,0,8,3E,87,CE,54,95,E8,02,C4,
1657171,000001A1,false,Rx,0,8,B1,05,84,10,15,0C,80,20,
1659839,000001C7,false,Rx,0,4,AA,A0,FF,C0,00,00,00,00,
1660250,00000157,false,Rx,0,8,D5,E7,09,C4,FF,E0,00,80,
1662189,0000019F,false,Rx,0,8,00,00,7D,08,00,6A,90,FE,
1662967,00000445,false,Rx,0,7,80,55,55,65,04,82,00,00,
1666639,00000155,false,Rx,0,8,3E,87,CE,54,95,E8,02,C4,
1667159,000001A1,false,Rx,0,8,B1,45,84,0F,F5,0C,80,20,
1669847,000001C7,false,Rx,0,4,AA,A0,FF,C0,00,00,00,00,
1670293,00000157,false,Rx,0,8,D5,37,09,C4,FF,E0,00,80,
1672221,0000019F,false,Rx,0,8,00,00,7D,0D,00,6A,90,FE,
1676701,00000155,false,Rx,0,8,3E,87,CE,54,95,E8,02,C4,
1677174,000001A1,false,Rx,0,8,B1,05,84,10,05,0C,80,20,
1679960,000004F7,false,Rx,0,8,00,1A,08,00,90,2C,06,F0,
1680111,000001C7,false,Rx,0,4,AA,A0,FF,C0,00,00,00,00,
1680358,00000157,false,Rx,0,8,D5,87,09,C4,FF,E0,00,80,
1680612,00000428,false,Rx,0,8,00,00,00,7F,00,00,00,00,
1680737,0000042F,false,Rx,0,2,00,20,00,00,00,00,00,00,
1682186,0000019F,false,Rx,0,8,00,00,7D,02,00,6A,90,FE,
1686573,00000155,false,Rx,0,8,3E,87,CE,54,95,E8,02,C4,
1687165,000001A1,false,Rx,0,8,B1,05,84,10,25,0C,80,20,
1689848,000001C7,false,Rx,0,4,AA,A0,FF,C0,00,00,00,00,
1690328,00000157,false,Rx,0,8,D5,D7,09,C4,FF,E0,00,80,
1692199,0000019F,false,Rx,0,8,00,00,7D,07,00,6A,90,FE,
1692445,00000511,false,Rx,0,7,04,F2,3B,7F,53,1F,ED,00,
1696562,00000155,false,Rx,0,8,3E,87,CE,54,95,E8,02,C4,
1696781,00000424,false,Rx,0,8,11,40,56,C8,33,5E,55,34,
1697005,00000425,false,Rx,0,8,2A,BE,44,9C,42,1A,CD,0C,
1697248,000001A1,false,Rx,0,8,B1,45,84,10,15,0C,80,20,
1699859,000001C7,false,Rx,0,4,AA,A0,FF,C0,00,00,00,00,
1700247,00000157,false,Rx,0,8,D5,27,09,C4,FF,E0,00,80,
1702182,0000019F,false,Rx,0,8,00,00,7D,0C,00,6A,90,FE,
1706565,00000155,false,Rx,0,8,3E,87,CE,54,95,E8,02,C4,
1707159,000001A1,false,Rx,0,8,B1,05,84,10,05,0C,80,20,
1709860,000001C7,false,Rx,0,4,AA,A0,FF,C0,00,00,00,00,
1710280,00000157,false,Rx,0,8,D5,77,09,C4,FF,E0,00,80,
1712185,0000019F,false,Rx,0,8,00,00,7D,01,00,6A,90,FE,
1715188,00000423,false,Rx,0,8,07,1D,00,02,5D,80,5D,D8,
1716584,00000155,false,Rx,0,8,3E,87,CE,54,95,E8,02,C3,
1717157,000001A1,false,Rx,0,8,B1,05,70,10,25,0C,80,20,
1719862,000001C7,false,Rx,0,4,AA,A0,FF,C0,00,00,00,00,
1720251,00000157,false,Rx,0,8,D5,C7,09,C4,FF,E0,00,80,
1720448,00000426,false,Rx,0,8,00,60,01,00,53,18,00,40,
1722183,0000019F,false,Rx,0,8,00,00,7D,06,00,6A,90,FE,
1726561,00000155,false,Rx,0,8,3E,87,CE,54,95,E8,02,C3,
1727157,000001A1,false,Rx,0,8,B1,05,84,10,25,0C,80,20,
1729864,000001C7,false,Rx,0,4,AA,A0,FF,C0,00,00,00,00,
1730282,00000157,false,Rx,0,8,D5,17,09,C4,FF,E0,00,80,
1732188,0000019F,false,Rx,0,8,00,00,7D,0B,00,6A,90,FE,
1735281,00000435,false,Rx,0,8,FF,FF,1E,0B,2E,10,00,00,
1736639,00000155,false,Rx,0,8,3E,87,CE,54,95,E8,02,C3,
1737157,000001A1,false,Rx,0,8,B1,05,84,10,25,0C,80,20,
1739857,000001C7,false,Rx,0,4,AA,A0,FF,C0,00,00,00,00,
1740250,00000157,false,Rx,0,8,D5,67,09,C4,FF,E0,00,80,
1740421,00000436,false,Rx,0,6,86,16,64,37,FF,DC,00,00,
1742181,0000019F,false,Rx,0,8,00,00,7D,00,00,6A,90,FE,
1742429,00000419,false,Rx,0,6,5E,08,2A,E6,4C,00,00,00,
1746635,00000155,false,Rx,0,8,3E,87,CE,54,95,E8,02,C3,
1747161,000001A1,false,Rx,0,8,B1,45,84,10,45,0C,80,20,
1749894,000001C7,false,Rx,0,4,AA,A0,FF,C0,00,00,00,00,
1750306,00000157,false,Rx,0,8,D5,B7,09,C4,FF,E0,00,80,
1752186,0000019F,false,Rx,0,8,00,00,7D,05,00,6A,90,FE,
1756612,00000155,false,Rx,0,8,3E,87,CE,54,95,E8,02,C3,
1757157,000001A1,false,Rx,0,8,B1,05,84,10,25,0C,80,20,
1759888,000001C7,false,Rx,0,4,AA,A0,FF,C0,00,00,00,00,
1760284,00000157,false,Rx,0,8,D5,07,09,C4,FF,E0,00,80,
1762200,0000019F,false,Rx,0,8,00,00,7D,0A,00,6A,90,FE,
1762937,00000445,false,Rx,0,7,80,55,55,65,04,82,00,00,
1766601,00000155,false,Rx,0,8,3E,87,CE,54,95,E8,02,C3,
1767158,000001A1,false,Rx,0,8,B1,05,84,10,05,0C,80,20,
1769891,000001C7,false,Rx,0,4,AA,A0,FF,C0,00,00,00,00,
1770250,00000157,false,Rx,0,8,D5,57,09,C4,FF,E0,00,80,
1772162,0000019F,false,Rx,0,8,00,00,7D,0F,00,6A,90,FE,
1776592,00000155,false,Rx,0,8,3E,87,CE,54,95,E8,02,C3,
1777162,000001A1,false,Rx,0,8,B1,45,84,10,45,0C,80,20,
1779963,000004F7,false,Rx,0,8,00,1A,08,00,90,2C,06,F0,
1780129,000001C7,false,Rx,0,4,AA,A0,FF,C0,00,00,00,00,
1780354,00000157,false,Rx,0,8,D5,A7,09,C4,FF,E0,00,80,
1780606,00000428,false,Rx,0,8,00,00,00,7F,00,00,00,00,
1780755,0000042F,false,Rx,0,2,00,20,00,00,00,00,00,00,
1782183,0000019F,false,Rx,0,8,00,00,7D,04,00,6A,90,FE,
1786541,00000155,false,Rx,0,8,3E,87,CE,54,95,E8,02,C3,
1787155,000001A1,false,Rx,0,8,B1,05,84,10,45,0C,80,20,
1789896,000001C7,false,Rx,0,4,AA,A0,FF,C0,00,00,00,00,
1790250,00000157,false,Rx,0,8,D5,F7,09,C4,FF,E0,00,80,
1792185,0000019F,false,Rx,0,8,00,00,7D,09,00,6A,90,FE,
1792433,00000511,false,Rx,0,7,04,31,04,38,BE,2C,D0,00,
1796536,00000155,false,Rx,0,8,3E,87,CE,54,95,E8,02,C3,
1796783,00000424,false,Rx,0,8,11,40,56,C8,33,5E,55,34,
1797005,00000425,false,Rx,0,8,2A,BE,44,9C,42,1A,CD,0C,
1797247,000001A1,false,Rx,0,8,B1,05,84,10,05,0C,80,20,
1799915,000001C7,false,Rx,0,4,AA,A0,FF,C0,00,00,00,00,
1800280,00000157,false,Rx,0,8,D5,47,09,C4,FF,E0,00,80,
1802160,0000019F,false,Rx,0,8,00,00,7D,0E,00,6A,90,FE,
1806590,00000155,false,Rx,0,8,3E,87,CE,54,95,E8,02,C2,
1807161,000001A1,false,Rx,0,8,B1,45,84,10,05,0C,80,20,
1809921,000001C7,false,Rx,0,4,AA,A0,FF,C0,00,00,00,00,
1810283,00000157,false,Rx,0,8,D5,97,09,C4,FF,E0,00,80,
1812193,0000019F,false,Rx,0,8,00,00,7D,03,00,6A,90,FE,
1815258,00000423,false,Rx,0,8,07,1D,00,02,5D,80,5D,D8,
1816584,00000155,false,Rx,0,8,3E,87,CE,54,95,E8,02,C3,
1817156,000001A1,false,Rx,0,8,B1,45,84,10,45,0C,80,20,
1819909,000001C7,false,Rx,0,4,AA,A0,FF,C0,00,00,00,00,
1820331,00000157,false,Rx,0,8,D5,E7,09,C4,FF,E0,00,80,
1820580,00000426,false,Rx,0,8,00,60,01,00,53,18,00,40,
1822156,0000019F,false,Rx,0,8,00,00,7D,08,00,6A,90,FE,
1826535,00000155,false,Rx,0,8,3E,87,CE,54,95,E8,02,C2,
1827156,000001A1,false,Rx,0,8,B1,05,70,10,25,0C,80,20,
1829907,000001C7,false,Rx,0,4,AA,A0,FF,C0,00,00,00,00,
1830278,00000157,false,Rx,0,8,D5,37,09,C4,FF,E0,00,80,
1832158,0000019F,false,Rx,0,8,00,00,7D,0D,00,6A,90,FE,
1835159,00000435,false,Rx,0,8,FF,FF,1E,0B,2E,10,00,00,
1836634,00000155,false,Rx,0,8,3E,87,CE,54,95,E8,02,C3,
1837155,000001A1,false,Rx,0,8,B1,45,70,10,25,0C,80,20,
1839961,000001C7,false,Rx,0,4,AA,A0,FF,C0,00,00,00,00,
1840256,00000157,false,Rx,0,8,D5,87,09,C4,FF,E0,00,80,
1840418,00000436,false,Rx,0,6,86,16,64,37,FF,DC,00,00,
1842179,0000019F,false,Rx,0,8,00,00,7D,02,00,6A,90,FE,
1842427,00000419,false,Rx,0,6,5E,08,2A,E6,4C,00,00,00,
1846584,00000155,false,Rx,0,8,3E,87,CE,54,95,E8,02,C3,
1847157,000001A1,false,Rx,0,8,B1,45,84,10,45,0C,80,20,
1849933,000001C7,false,Rx,0,4,AA,A0,FF,C0,00,00,00,00,
1850304,00000157,false,Rx,0,8,D5,D7,09,C4,FF,E0,00,80,
1852156,0000019F,false,Rx,0,8,00,00,7D,07,00,6A,90,FE,
1856608,00000155,false,Rx,0,8,3E,87,CE,54,95,E8,02,C3,
1857152,000001A1,false,Rx,0,8,B1,05,70,10,25,0C,80,20,
1859934,000001C7,false,Rx,0,4,AA,A0,FF,C0,00,00,00,00,
1860304,00000157,false,Rx,0,8,D5,27,09,C4,FF,E0,00,80,
1862181,0000019F,false,Rx,0,8,00,00,7D,0C,00,6A,90,FE,
1862926,00000445,false,Rx,0,7,80,55,55,65,04,82,00,00,
1866606,00000155,false,Rx,0,8,3E,87,CE,54,95,E8,02,C3,
1867154,000001A1,false,Rx,0,8,B1,05,84,10,25,0C,80,20,
1869940,000001C7,false,Rx,0,4,AA,A0,FF,C0,00,00,00,00,
1870248,00000157,false,Rx,0,8,D5,77,09,C4,FF,E0,00,80,
1872181,0000019F,false,Rx,0,8,00,00,7D,01,00,6A,90,FE,
1876610,00000155,false,Rx,0,8,3E,87,CE,54,95,E8,02,C2,
1877152,000001A1,false,Rx,0,8,B1,45,84,10,75,0C,80,20,
1880033,000004F7,false,Rx,0,8,00,1A,08,00,90,2C,06,F0,
1880178,000001C7,false,Rx,0,4,AA,A0,FF,C0,00,00,00,00,
1880427,00000157,false,Rx,0,8,D5,C7,09,C4,FF,E0,00,80,
1880677,00000428,false,Rx,0,8,00,00,00,7F,00,00,00,00,
1880825,0000042F,false,Rx,0,2,00,20,00,00,00,00,00,00,
1882191,0000019F,false,Rx,0,8,00,00,7D,06,00,6A,90,FE,
1886535,00000155,false,Rx,0,8,3E,87,CE,54,95,E8,02,C3,
1887153,000001A1,false,Rx,0,8,B1,05,84,10,45,0C,80,20,
1889959,000001C7,false,Rx,0,4,AA,A0,FF,C0,00,00,00,00,
1890246,00000157,false,Rx,0,8,D5,17,09,C4,FF,E0,00,80,
1892182,0000019F,false,Rx,0,8,00,00,7D,0B,00,6A,90,FE,
1892427,00000511,false,Rx,0,7,04,70,CD,F1,29,39,B3,00,
1896533,00000155,false,Rx,0,8,3E,87,CE,54,95,E8,02,C3,
1896752,00000424,false,Rx,0,8,11,40,56,C8,33,5E,55,34,
1896979,00000425,false,Rx,0,8,2A,BE,44,9C,42,1A,CD,0C,
1897246,000001A1,false,Rx,0,8,B1,05,70,10,05,0C,80,20,
1899956,000001C7,false,Rx,0,4,AA,A0,FF,C0,00,00,00,00,
1900246,00000157,false,Rx,0,8,D5,67,09,C4,FF,E0,00,80,
1902179,0000019F,false,Rx,0,8,00,00,7D,00,00,6A,90,FE,
1906561,00000155,false,Rx,0,8,3E,87,CE,54,95,E8,02,C3,
1907155,000001A1,false,Rx,0,8,B1,45,70,10,45,0C,80,20,
1909958,000001C7,false,Rx,0,4,AA,A0,FF,C0,00,00,00,00,
1910249,00000157,false,Rx,0,8,D5,B7,09,C4,FF,E0,00,80,
1912194,0000019F,false,Rx,0,8,00,00,7D,05,00,6A,90,FE,
1915184,00000423,false,Rx,0,8,07,1D,00,02,5D,80,5D,D8,
1916579,00000155,false,Rx,0,8,3E,87,CE,54,95,E8,02,C3,
1917079,000001A1,false,Rx,0,8,B1,05,84,10,45,0C,80,20,
1919983,000001C7,false,Rx,0,4,AA,A0,FF,C0,00,00,00,00,
1920246,00000157,false,Rx,0,8,D5,07,09,C4,FF,E0,00,80,
1920443,00000426,false,Rx,0,8,00,60,01,00,53,18,00,40,
1922109,0000019F,false,Rx,0,8,00,00,7D,0A,00,6A,90,FE,
1926534,00000155,false,Rx,0,8,3E,87,CE,54,95,E8,02,C3,
1927078,000001A1,false,Rx,0,8,B1,05,84,10,25,0C,80,20,
1929983,000001C7,false,Rx,0,4,AA,A0,FF,C0,00,00,00,00,
1930328,00000157,false,Rx,0,8,D5,57,09,C4,FF,E0,00,80,
1932083,0000019F,false,Rx,0,8,00,00,7D,0F,00,6A,90,FE,
1935185,00000435,false,Rx,0,8,FF,FF,1E,0B,2E,10,00,00,
1936605,00000155,false,Rx,0,8,3E,87,CE,54,95,E8,02,C3,
1937078,000001A1,false,Rx,0,8,B1,45,70,10,35,0C,80,20,
1939983,000001C7,false,Rx,0,4,AA,A0,FF,C0,00,00,00,00,
1940245,00000157,false,Rx,0,8,D5,A7,09,C4,FF,E0,00,80,
1940443,00000436,false,Rx,0,6,86,16,64,37,FF,DC,00,00,
1942106,0000019F,false,Rx,0,8,00,00,7D,04,00,6A,90,FE,
1942328,00000419,false,Rx,0,6,5E,08,2A,E6,4C,00,00,00,
1946608,00000155,false,Rx,0,8,3E,87,CE,54,95,E8,02,C3,
1947078,000001A1,false,Rx,0,8,B1,05,70,10,15,0C,80,20,
1950007,000001C7,false,Rx,0,4,AA,A0,FF,C0,00,00,00,00,
1950251,00000157,false,Rx,0,8,D5,F7,09,C4,FF,E0,00,80,
1952079,0000019F,false,Rx,0,8,00,00,7D,09,00,6A,90,FE,
1956609,00000155,false,Rx,0,8,3E,87,CE,54,95,E8,02,C3,
1957077,000001A1,false,Rx,0,8,B1,05,84,0F,F5,0C,80,20,
1960007,000001C7,false,Rx,0,4,AA,A0,FF,C0,00,00,00,00,
1960328,00000157,false,Rx,0,8,D5,47,09,C4,FF,E0,00,80,
1962078,0000019F,false,Rx,0,8,00,00,7D,0E,00,6A,90,FE,
1962903,00000445,false,Rx,0,7,80,55,55,65,04,82,00,00,
1966583,00000155,false,Rx,0,8,3E,87,CE,54,95,E8,02,C3,
1967078,000001A1,false,Rx,0,8,B1,45,84,10,25,0C,80,20,
1970009,000001C7,false,Rx,0,4,AA,A0,FF,C0,00,00,00,00,
1970280,00000157,false,Rx,0,8,D5,97,09,C4,FF,E0,00,80,
1972083,0000019F,false,Rx,0,8,00,00,7D,03,00,6A,90,FE,
1976582,00000155,false,Rx,0,8,3E,87,CE,54,95,E8,02,C3,
1977081,000001A1,false,Rx,0,8,B1,45,84,10,25,0C,80,20,
1980083,000004F7,false,Rx,0,8,00,1A,08,00,90,2C,06,F0,
1980335,00000157,false,Rx,0,8,D5,E7,09,C4,FF,E0,00,80,
1980488,000001C7,false,Rx,0,4,AA,A0,FF,C0,00,00,00,00,
1980740,00000428,false,Rx,0,8,00,00,00,7F,00,00,00,00,
1980894,0000042F,false,Rx,0,2,00,20,00,00,00,00,00,00,
1982086,0000019F,false,Rx,0,8,00,00,7D,08,00,6A,90,FE,
1986539,00000155,false,Rx,0,8,3E,87,CE,54,95,E8,02,C3,
1987089,000001A1,false,Rx,0,8,B1,45,84,10,05,0C,80,20,
1990033,000001C7,false,Rx,0,4,AA,A0,FF,C0,00,00,00,00,
1990247,00000157,false,Rx,0,8,D5,37,09,C4,FF,E0,00,80,
1992082,0000019F,false,Rx,0,8,00,00,7D,0D,00,6A,90,FE,
1992329,00000511,false,Rx,0,7,04,AF,96,AA,94,46,96,00,
1996533,00000155,false,Rx,0,8,3E,87,CE,54,95,E8,02,C3,
1996755,00000424,false,Rx,0,8,11,40,56,C8,33,5E,55,34,
1996979,00000425,false,Rx,0,8,2A,BE,44,9C,42,1A,CD,0B,
1997248,000001A1,false,Rx,0,8,B1,05,84,10,15,0C,80,20,
2000069,000001C7,false,Rx,0,4,AA,A0,FF,C0,00,00,00,00,
2000282,00000157,false,Rx,0,8,D5,87,09,C4,FF,E0,00,80,
2002119,0000019F,false,Rx,0,8,00,00,7D,02,00,6A,90,FE,
2006569,00000155,false,Rx,0,8,3E,87,CE,54,95,E8,02,C3,
2007122,000001A1,false,Rx,0,8,B1,05,84,10,05,0C,80,20,
2010069,000001C7,false,Rx,0,4,AA,A0,FF,C0,00,00,00,00,
2010322,00000157,false,Rx,0,8,D5,D7,09,C4,FF,E0,00,80,
2012180,0000019F,false,Rx,0,8,00,00,7D,07,00,6A,90,FE,
2015420,00000423,false,Rx,0,8,07,1D,00,02,B2,80,B2,D8,
2016746,00000155,false,Rx,0,8,3E,87,CE,54,95,E8,02,C2,
2017118,000001A1,false,Rx,0,8,B1,45,84,10,05,0C,80,20,
2020272,000001C7,false,Rx,0,4,AA,A0,FF,C0,00,00,00,00,
2020283,00000157,false,Rx,0,8,D5,27,09,C4,FF,E0,00,80,
2020678,00000426,false,Rx,0,8,00,60,01,00,53,18,00,40,
2022190,0000019F,false,Rx,0,8,00,00,7D,0C,00,6A,90,FE,
2026819,00000155,false,Rx,0,8,3E,87,CE,54,95,E8,02,C3,
2027264,000001A1,false,Rx,0,8,B1,05,84,10,25,0C,80,20,
2030157,000001C7,false,Rx,0,4,AA,A0,FF,C0,00,00,00,00,
2030363,00000157,false,Rx,0,8,D5,77,09,C4,FF,E0,00,80,
2032274,0000019F,false,Rx,0,8,00,00,7D,01,00,6A,90,FE,
2035425,00000435,false,Rx,0,8,FF,FF,1E,0B,2E,10,00,00,
2036807,00000155,false,Rx,0,8,3E,87,CE,54,95,E8,02,C3,
2037184,000001A1,false,Rx,0,8,B1,05,84,10,15,0C,80,20,
2040275,000001C7,false,Rx,0,4,AA,A0,FF,C0,00,00,00,00,
2040310,00000157,false,Rx,0,8,D5,C7,09,C4,FF,E0,00,80,
2040589,00000436,false,Rx,0,6,86,16,64,37,FF,DC,00,00,
2042193,0000019F,false,Rx,0,8,00,00,7D,06,00,6A,90,FE,
2042387,00000419,false,Rx,0,6,5E,08,2A,E6,4C,00,00,00,
2046855,00000155,false,Rx,0,8,3E,87,CE,54,95,E8,02,C3,
2047087,000001A1,false,Rx,0,8,B1,45,84,10,05,0C,80,20,
2050077,000001C7,false,Rx,0,4,AA,A0,FF,C0,00,00,00,00,
2050399,00000157,false,Rx,0,8,D5,17,09,C4,FF,E0,00,80,
2052198,0000019F,false,Rx,0,8,00,00,7D,0B,00,6A,90,FE,
2056669,00000155,false,Rx,0,8,3E,87,CE,54,95,E8,02,C3,
2057140,000001A1,false,Rx,0,8,B1,05,84,10,45,0C,80,20,
2060065,000001C7,false,Rx,0,4,AA,A0,FF,C0,00,00,00,00,
2060358,00000157,false,Rx,0,8,D5,67,09,C4,FF,E0,00,80,
2062128,0000019F,false,Rx,0,8,00,00,7D,00,00,6A,90,FE,
2062952,00000445,false,Rx,0,7,80,55,AA,65,04,82,00,00,
2066655,00000155,false,Rx,0,8,3E,87,CE,54,95,E8,02,C3,
2067139,000001A1,false,Rx,0,8,B1,05,70,10,25,0C,80,20,
2070132,000001C7,false,Rx,0,4,AA,A0,FF,C0,00,00,00,00,
2070353,00000157,false,Rx,0,8,D5,B7,09,C4,FF,E0,00,80,
2072128,0000019F,false,Rx,0,8,00,00,7D,05,00,6A,90,FE,
2076653,00000155,false,Rx,0,8,3E,87,CE,54,95,E8,02,C3,
2077070,000001A1,false,Rx,0,8,B1,45,84,10,05,0C,80,20,
2080203,000004F7,false,Rx,0,8,00,1A,08,00,90,2C,06,F0,
2080428,00000157,false,Rx,0,8,D5,07,09,C4,FF,E0,00,80,
2080608,000001C7,false,Rx,0,4,AA,A0,FF,C0,00,00,00,00,
2080858,00000428,false,Rx,0,8,00,00,00,7F,00,00,00,00,
2080946,0000042F,false,Rx,0,2,00,20,00,00,00,00,00,00,
2082135,0000019F,false,Rx,0,8,00,00,7D,0A,00,6A,90,FE,
2086581,00000155,false,Rx,0,8,3E,87,CE,54,95,E8,02,C3,
2087137,000001A1,false,Rx,0,8,B1,45,84,10,25,0C,80,20,
2090139,000001C7,false,Rx,0,4,AA,A0,FF,C0,00,00,00,00,
2090385,00000157,false,Rx,0,8,D5,57,09,C4,FF,E0,00,80,
2092128,0000019F,false,Rx,0,8,00,00,7D,0F,00,6A,90,FE,
2092384,00000511,false,Rx,0,7,04,EE,5F,63,FF,53,79,00,
2096579,00000155,false,Rx,0,8,3E,87,CE,54,95,E8,02,C3,
2096807,00000424,false,Rx,0,8,11,40,56,C8,33,5E,AA,34,
2097040,00000425,false,Rx,0,8,2A,BE,44,9C,42,1A,CD,0B,
2097306,000001A1,false,Rx,0,8,B1,05,84,10,25,0C,80,20,
2100129,000001C7,false,Rx,0,4,AA,A0,FF,C0,00,00,00,00,
2100381,00000157,false,Rx,0,8,D5,A7,09,C4,FF,E0,00,80,
2102129,0000019F,false,Rx,0,8,00,00,7D,04,00,6A,90,FE,
2106546,00000155,false,Rx,0,8,3E,87,CE,54,95,E8,02,C3,
2107131,000001A1,false,Rx,0,8,B1,45,70,10,25,0C,80,20,
2110096,000001C7,false,Rx,0,4,AA,A0,FF,C0,00,00,00,00,
2110343,00000157,false,Rx,0,8,D5,F7,09,C4,FF,E0,00,80,
2112090,0000019F,false,Rx,0,8,00,00,7D,09,00,6A,90,FE,
2115256,00000423,false,Rx,0,8,07,1D,00,02,B2,80,B2,D8,
2116586,00000155,false,Rx,0,8,3E,87,CE,54,95,E8,02,C3,
2117084,000001A1,false,Rx,0,8,B1,45,84,10,45,0C,80,20,
2120112,000001C7,false,Rx,0,4,AA,A0,FF,C0,00,00,00,00,
2120342,00000157,false,Rx,0,8,D5,47,09,C4,FF,E0,00,80,
2120585,00000426,false,Rx,0,8,00,60,01,00,53,18,00,40,
2122087,0000019F,false,Rx,0,8,00,00,7D,0E,00,6A,90,FE,
2126552,00000155,false,Rx,0,8,3E,87,CE,54,95,E8,02,C3,
2127063,000001A1,false,Rx,0,8,B1,05,84,10,35,0C,80,20,
2130123,000001C7,false,Rx,0,4,AA,A0,FF,C0,00,00,00,00,
2130357,00000157,false,Rx,0,8,D5,97,09,C4,FF,E0,00,80,
2132093,0000019F,false,Rx,0,8,00,00,7D,03,00,6A,90,FE,
2135255,00000435,false,Rx,0,8,FF,FF,1E,0B,2E,10,00,00,
2136585,00000155,false,Rx,0,8,3E,87,CE,54,95,E8,02,C3,
2137098,000001A1,false,Rx,0,8,B1,45,70,10,15,0C,80,20,
2140156,000001C7,false,Rx,0,4,AA,A0,FF,C0,00,00,00,00,
2140372,00000157,false,Rx,0,8,D5,E7,09,C4,FF,E0,00,80,
2140610,00000436,false,Rx,0,6,86,16,64,37,FF,DC,00,00,
2142129,0000019F,false,Rx,0,8,00,00,7D,08,00,6A,90,FE,
2142379,00000419,false,Rx,0,6,5E,08,2A,E6,4C,00,00,00,
2146645,00000155,false,Rx,0,8,3E,87,CE,54,95,E8,02,C3,
2147119,000001A1,false,Rx,0,8,B1,45,70,10,45,0C,80,20,
2150168,000001C7,false,Rx,0,4,AA,A0,FF,C0,00,00,00,00,
2150395,00000157,false,Rx,0,8,D5,37,09,C4,FF,E0,00,80,
2152118,0000019F,false,Rx,0,8,00,00,7D,0D,00,6A,90,FE,
2156623,00000155,false,Rx,0,8,3E,87,CE,54,95,E8,02,C3,
2157095,000001A1,false,Rx,0,8,B1,05,70,10,45,0C,80,20,
2160174,000001C7,false,Rx,0,4,AA,A0,FF,C0,00,00,00,00,
2160358,00000157,false,Rx,0,8,D5,87,09,C4,FF,E0,00,80,
2162093,0000019F,false,Rx,0,8,00,00,7D,02,00,6A,90,FE,
2162948,00000445,false,Rx,0,7,80,55,AA,65,04,82,00,00,
2166593,00000155,false,Rx,0,8,3E,87,CE,54,95,E8,02,C3,
2167087,000001A1,false,Rx,0,8,B1,05,70,10,25,0C,80,20,
2170153,000001C7,false,Rx,0,4,AA,A0,FF,C0,00,00,00,00,
2170365,00000157,false,Rx,0,8,D5,D7,09,C4,FF,E0,00,80,
2172100,0000019F,false,Rx,0,8,00,00,7D,07,00,6A,90,FE,
2176733,00000155,false,Rx,0,8,3E,87,CE,54,95,E8,02,C3,
2177107,000001A1,false,Rx,0,8,B1,45,70,10,55,0C,80,20,
2180260,000004F7,false,Rx,0,8,00,1A,08,00,90,2C,06,F0,
2180503,00000157,false,Rx,0,8,D5,27,09,C4,FF,E0,00,80,
2180622,000001C7,false,Rx,0,4,AA,A0,FF,C0,00,00,00,00,
2180909,00000428,false,Rx,0,8,00,00,00,7F,00,00,00,00,
2181028,0000042F,false,Rx,0,2,00,20,00,00,00,00,00,00,
2182134,0000019F,false,Rx,0,8,00,00,7D,0C,00,6A,90,FE,
2186580,00000155,false,Rx,0,8,3E,87,CE,54,95,E8,02,C3,
2187127,000001A1,false,Rx,0,8,B1,05,84,10,35,0C,80,20,
2190183,000001C7,false,Rx,0,4,AA,A0,FF,C0,00,00,00,00,
2190398,00000157,false,Rx,0,8,D5,77,09,C4,FF,E0,00,80,
2192101,0000019F,false,Rx,0,8,00,00,7D,01,00,6A,90,FE,
2192373,00000511,false,Rx,0,7,04,2D,28,1C,6A,60,5C,00,
2196576,00000155,false,Rx,0,8,3E,87,CE,54,95,E8,02,C2,
2196787,00000424,false,Rx,0,8,11,40,56,C8,33,5E,AA,34,
2196989,00000425,false,Rx,0,8,2A,BE,44,9C,42,1A,CD,0B,
2197267,000001A1,false,Rx,0,8,B1,05,70,10,15,0C,80,20,
2200241,000001C7,false,Rx,0,4,AA,A0,FF,C0,00,00,00,00,
2200390,00000157,false,Rx,0,8,D5,C7,09,C4,FF,E0,00,80,
2202093,0000019F,false,Rx,0,8,00,00,7D,06,00,6A,90,FE,
2206534,00000155,false,Rx,0,8,3E,87,CD,54,95,E8,02,C3,
2207168,000001A1,false,Rx,0,8,B1,45,84,10,25,0C,80,20,
2210268,000001C7,false,Rx,0,4,AA,A0,FF,C0,00,00,00,00,
2210395,00000157,false,Rx,0,8,D5,17,09,C4,FF,E0,00,80,
2212282,0000019F,false,Rx,0,8,00,00,7D,0B,00,6A,90,FE,
2215269,00000423,false,Rx,0,8,07,1D,00,02,B2,80,B2,D8,
2216828,00000155,false,Rx,0,8,3E,87,CE,54,95,E8,02,C3,
2217136,000001A1,false,Rx,0,8,B1,45,84,10,25,0C,80,20,
2220321,000001C7,false,Rx,0,4,AA,A0,FF,C0,00,00,00,00,
2220411,00000157,false,Rx,0,8,D5,67,09,C4,FF,E0,00,80,
2220699,00000426,false,Rx,0,8,00,60,01,00,53,18,00,40,
2222148,0000019F,false,Rx,0,8,00,00,7D,00,00,6A,90,FE,
2226542,00000155,false,Rx,0,8,3E,87,CE,54,95,E8,02,C3,
2227058,000001A1,false,Rx,0,8,B1,05,70,10,15,0C,80,20,
2230260,00000157,false,Rx,0,8,D5,B7,09,C4,FF,E0,00,80,
2230412,000001C7,false,Rx,0,4,AA,A0,FF,C0,00,00,00,00,
2232164,0000019F,false,Rx,0,8,00,00,7D,05,00,6A,90,FE,
2235285,00000435,false,Rx,0,8,FF,FF,1E,0B,2E,10,00,00,
2236685,00000155,false,Rx,0,8,3E,87,CE,54,95,E8,02,C3,
2237291,000001A1,false,Rx,0,8,B1,05,84,10,25,0C,80,20,
2238743,0000069F,false,Rx,0,4,71,30,28,2F,00,00,00,00,
2240292,00000157,false,Rx,0,8,D5,07,09,C4,FF,E0,00,80,
2240427,000001C7,false,Rx,0,4,AA,A0,FF,C0,00,00,00,00,
2240684,00000436,false,Rx,0,6,86,16,64,37,FF,DC,00,00,
2242282,0000019F,false,Rx,0,8,00,00,7D,0A,00,6A,90,FE,
2242347,00000419,false,Rx,0,6,5E,08,2A,E6,4C,00,00,00,
2246830,00000155,false,Rx,0,8,3E,87,CE,54,95,E8,02,C3,
2247180,000001A1,false,Rx,0,8,B1,05,84,10,15,0C,80,20,
2250327,000001C7,false,Rx,0,4,AA,A0,FF,C0,00,00,00,00,
2250405,00000157,false,Rx,0,8,D5,57,09,C4,FF,E0,00,80,
2252243,0000019F,false,Rx,0,8,00,00,7D,0F,00,6A,90,FE,
2256745,00000155,false,Rx,0,8,3E,87,CE,54,95,E8,02,C3,
2257150,000001A1,false,Rx,0,8,B1,45,70,0F,E5,0C,80,20,
2260293,000001C7,false,Rx,0,4,AA,A0,FF,C0,00,00,00,00,
2260389,00000157,false,Rx,0,8,D5,A7,09,C4,FF,E0,00,80,
2262099,0000019F,false,Rx,0,8,00,00,7D,04,00,6A,90,FE,
2263053,00000445,false,Rx,0,7,80,55,AA,65,04,82,00,00,
2266610,00000155,false,Rx,0,8,3E,87,CE,54,95,E8,02,C3,
2267233,000001A1,false,Rx,0,8,B1,05,84,10,05,0C,80,20,
2270373,000001C7,false,Rx,0,4,AA,A0,FF,C0,00,00,00,00,
2270389,00000157,false,Rx,0,8,D5,F7,09,C4,FF,E0,00,80,
2272286,0000019F,false,Rx,0,8,00,00,7D,09,00,6A,90,FE,
2276906,00000155,false,Rx,0,8,3E,87,CE,54,95,E8,02,C3,
2277148,000001A1,false,Rx,0,8,B1,05,84,10,05,0C,80,20,
2280432,000004F7,false,Rx,0,8,00,1A,08,00,90,2C,06,F0,
2280458,00000157,false,Rx,0,8,D5,47,09,C4,FF,E0,00,80,
2280695,000001C7,false,Rx,0,4,AA,A0,FF,C0,00,00,00,00,
2280974,00000428,false,Rx,0,8,00,00,00,7F,00,00,00,00,
2281047,0000042F,false,Rx,0,2,00,20,00,00,00,00,00,00,
2282327,0000019F,false,Rx,0,8,00,00,7D,0E,00,6A,90,FE,
2286812,00000155,false,Rx,0,8,3E,87,CE,54,95,E8,02,C3,
2287176,000001A1,false,Rx,0,8,B1,45,84,10,05,0C,80,20,
2290437,00000157,false,Rx,0,8,D5,97,09,C4,FF,E0,00,80,
2290447,000001C7,false,Rx,0,4,AA,A0,FF,C0,00,00,00,00,
2292196,0000019F,false,Rx,0,8,00,00,7D,03,00,6A,90,FE,
2292386,00000511,false,Rx,0,7,04,6C,F1,D5,D5,6D,3F,00,
2296668,00000155,false,Rx,0,8,3E,87,CD,54,95,E8,02,C3,
2296746,00000424,false,Rx,0,8,11,40,56,C8,33,5E,AA,34,
2297083,00000425,false,Rx,0,8,2A,BE,44,9C,42,1A,CD,0B,
2297316,000001A1,false,Rx,0,8,B1,05,70,10,25,0C,80,20,
2300436,00000157,false,Rx,0,8,D5,E7,09,C4,FF,E0,00,80,
2300447,000001C7,false,Rx,0,4,AA,A0,FF,C0,00,00,00,00,
2302333,0000019F,false,Rx,0,8,00,00,7D,08,00,6A,90,FE,
2306553,00000155,false,Rx,0,8,3E,87,CD,54,95,E8,02,C3,
2307069,000001A1,false,Rx,0,8,B1,05,70,10,15,0C,80,20,
2310174,000001C7,false,Rx,0,4,AA,A0,FF,C0,00,00,00,00,
2310414,00000157,false,Rx,0,8,D5,37,09,C4,FF,E0,00,80,
2312100,0000019F,false,Rx,0,8,00,00,7D,0D,00,6A,90,FE,
2315172,00000423,false,Rx,0,8,07,1D,00,02,B2,80,B2,D8,
2316565,00000155,false,Rx,0,8,3E,87,CE,54,95,E8,02,C3,
2317067,000001A1,false,Rx,0,8,B1,45,84,10,05,0C,80,20,
2320273,00000157,false,Rx,0,8,D5,87,09,C4,FF,E0,00,80,
2320363,000001C7,false,Rx,0,4,AA,A0,FF,C0,00,00,00,00,
2320616,00000426,false,Rx,0,8,00,60,01,00,53,18,00,40,
2322091,0000019F,false,Rx,0,8,00,00,7D,02,00,6A,90,FE,
2326517,00000155,false,Rx,0,8,3E,87,CE,54,95,E8,02,C3,
2327069,000001A1,false,Rx,0,8,B1,45,70,10,45,0C,80,20,
2330185,000001C7,false,Rx,0,4,AA,A0,FF,C0,00,00,00,00,
2330413,00000157,false,Rx,0,8,D5,D7,09,C4,FF,E0,00,80,
2332096,0000019F,false,Rx,0,8,00,00,7D,07,00,6A,90,FE,
2335260,00000435,false,Rx,0,8,FF,FF,1E,0B,2E,10,00,00,
2336590,00000155,false,Rx,0,8,3E,87,CE,54,95,E8,02,C3,
2337067,000001A1,false,Rx,0,8,B0,C5,84,10,25,0C,80,20,
2340264,00000157,false,Rx,0,8,D5,27,09,C4,FF,E0,00,80,
2340388,000001C7,false,Rx,0,4,AA,A0,FF,C0,00,00,00,00,
2340591,00000436,false,Rx,0,6,86,16,64,37,FF,DC,00,00,
2342090,0000019F,false,Rx,0,8,00,00,7D,0C,00,6A,90,FE,
2342340,00000419,false,Rx,0,6,5E,08,2A,E6,4C,00,00,00,
2346622,00000155,false,Rx,0,8,3E,87,CE,54,95,E8,02,C3,
2347067,000001A1,false,Rx,0,8,B1,45,84,10,25,0C,80,20,
2350193,00000157,false,Rx,0,8,D5,77,09,C4,FF,E0,00,80,
2350362,000001C7,false,Rx,0,4,AA,A0,FF,C0,00,00,00,00,
2352092,0000019F,false,Rx,0,8,00,00,7D,01,00,6A,90,FE,
2356597,00000155,false,Rx,0,8,3E,87,CE,54,95,E8,02,C3,
2357067,000001A1,false,Rx,0,8,B1,45,84,10,45,0C,80,20,
2360261,00000157,false,Rx,0,8,D5,C7,09,C4,FF,E0,00,80,
2360415,000001C7,false,Rx,0,4,AA,A0,FF,C0,00,00,00,00,
2362096,0000019F,false,Rx,0,8,00,00,7D,06,00,6A,90,FE,
2362886,00000445,false,Rx,0,7,80,55,AA,65,04,82,00,00,
2366564,00000155,false,Rx,0,8,3E,87,CE,54,95,E8,02,C3,
2367086,000001A1,false,Rx,0,8,B1,05,84,10,35,0C,80,20,
2370278,000001C7,false,Rx,0,4,AA,A0,FF,C0,00,00,00,00,
2370440,00000157,false,Rx,0,8,D5,17,09,C4,FF,E0,00,80,
2372103,0000019F,false,Rx,0,8,00,00,7D,0B,00,6A,90,FE,
2376577,00000155,false,Rx,0,8,3E,87,CE,54,95,E8,02,C3,
2377069,000001A1,false,Rx,0,8,B1,45,84,10,25,0C,80,20,
2380263,00000157,false,Rx,0,8,D5,67,09,C4,FF,E0,00,80,
2380464,000004F7,false,Rx,0,8,00,1A,08,00,90,2C,06,F0,
2380667,000001C7,false,Rx,0,4,AA,A0,FF,C0,00,00,00,00,
2380945,00000428,false,Rx,0,8,00,00,00,7F,00,00,00,00,
2381098,0000042F,false,Rx,0,2,00,20,00,00,00,00,00,00,
2382085,0000019F,false,Rx,0,8,00,00,7D,00,00,6A,90,FE,
2386528,00000155,false,Rx,0,8,3E,87,CE,54,95,E8,02,C3,
2387070,000001A1,false,Rx,0,8,B1,45,84,10,45,0C,80,20,
2390263,000001C7,false,Rx,0,4,AA,A0,FF,C0,00,00,00,00,
2390472,00000157,false,Rx,0,8,D5,B7,09,C4,FF,E0,00,80,
2392101,0000019F,false,Rx,0,8,00,00,7D,05,00,6A,90,FE,
2392365,00000511,false,Rx,0,7,04,AB,BA,8E,40,7A,22,00,
2396527,00000155,false,Rx,0,8,3E,87,CE,54,95,E8,02,C3,
2396753,00000424,false,Rx,0,8,11,40,56,C8,33,5E,AA,34,
2396981,00000425,false,Rx,0,8,2A,BE,44,9C,42,1A,CD,0C,
2397208,000001A1,false,Rx,0,8,B1,05,84,10,45,0C,80,20,
2400261,00000157,false,Rx,0,8,D5,07,09,C4,FF,E0,00,80,
2400406,000001C7,false,Rx,0,4,AA,A0,FF,C0,00,00,00,00,
2402090,0000019F,false,Rx,0,8,00,00,7D,0A,00,6A,90,FE,
2406542,00000155,false,Rx,0,8,3E,87,CE,54,95,E8,02,C3,
2407092,000001A1,false,Rx,0,8,B1,05,84,10,25,0C,80,20,
2410269,00000157,false,Rx,0,8,D5,57,09,C4,FF,E0,00,80,
2410398,000001C7,false,Rx,0,4,AA,A0,FF,C0,00,00,00,00,
2412101,0000019F,false,Rx,0,8,00,00,7D,0F,00,6A,90,FE,
2415203,00000423,false,Rx,0,8,07,1D,00,02,B2,80,B2,D8,
2416575,00000155,false,Rx,0,8,3E,87,CE,54,95,E8,02,C3,
2417078,000001A1,false,Rx,0,8,B1,45,84,10,45,0C,80,20,
2420269,00000157,false,Rx,0,8,D5,A7,09,C4,FF,E0,00,80,
2420447,000001C7,false,Rx,0,4,AA,A0,FF,C0,00,00,00,00,
2420676,00000426,false,Rx,0,8,00,60,01,00,53,18,00,40,
2422100,0000019F,false,Rx,0,8,00,00,7D,04,00,6A,90,FE,
2426526,00000155,false,Rx,0,8,3E,87,CE,54,95,E8,02,C3,
2427079,000001A1,false,Rx,0,8,B1,05,84,10,25,0C,80,20,
2430270,00000157,false,Rx,0,8,D5,F7,09,C4,FF,E0,00,80,
2430395,000001C7,false,Rx,0,4,AA,A0,FF,C0,00,00,00,00,
2432101,0000019F,false,Rx,0,8,00,00,7D,09,00,6A,90,FE,
2435258,00000435,false,Rx,0,8,FF,FF,1E,0B,2E,10,00,00,
2436608,00000155,false,Rx,0,8,3E,87,CE,54,95,E8,02,C3,
2437060,000001A1,false,Rx,0,8,B1,05,84,10,25,0C,80,20,
2440283,00000157,false,Rx,0,8,D5,47,09,C4,FF,E0,00,80,
2440432,000001C7,false,Rx,0,4,AA,A0,FF,C0,00,00,00,00,
2440631,00000436,false,Rx,0,6,86,16,64,37,FF,DC,00,00,
2442082,0000019F,false,Rx,0,8,00,00,7D,0E,00,6A,90,FE,
2442331,00000419,false,Rx,0,6,5E,08,2A,E6,4C,00,00,00,
2446599,00000155,false,Rx,0,8,3E,87,CE,54,95,E8,02,C3,
2447104,000001A1,false,Rx,0,8,B1,45,84,10,55,0C,80,20,
2450292,00000157,false,Rx,0,8,D5,97,09,C4,FF,E0,00,80,
2450473,000001C7,false,Rx,0,4,AA,A0,FF,C0,00,00,00,00,
2452125,0000019F,false,Rx,0,8,00,00,7D,03,00,6A,90,FE,
2456673,00000155,false,Rx,0,8,3E,87,CE,54,95,E8,02,C3,
2457155,000001A1,false,Rx,0,8,B1,05,70,10,35,0C,80,20,
2460287,00000157,false,Rx,0,8,D5,E7,09,C4,FF,E0,00,80,
2460404,000001C7,false,Rx,0,4,AA,A0,FF,C0,00,00,00,00,
2462124,0000019F,false,Rx,0,8,00,00,7D,08,00,6A,90,FE,
2462918,00000445,false,Rx,0,7,80,55,AA,65,04,82,00,00,
2466815,00000155,false,Rx,0,8,3E,87,CE,54,95,E8,02,C3,
2467159,000001A1,false,Rx,0,8,B1,05,70,10,15,0C,80,20,
2470254,00000157,false,Rx,0,8,D5,37,09,C4,FF,E0,00,80,
2470389,000001C7,false,Rx,0,4,AA,A0,FF,C0,00,00,00,00,
2472160,0000019F,false,Rx,0,8,00,00,7D,0D,00,6A,90,FE,
2476740,00000155,false,Rx,0,8,3E,87,CE,54,95,E8,02,C3,
2477130,000001A1,false,Rx,0,8,B1,05,84,10,25,0C,80,20,
2480426,00000157,false,Rx,0,8,D5,87,09,C4,FF,E0,00,80,
2480435,000004F7,false,Rx,0,8,00,1A,08,00,90,2C,06,F0,
2480712,000001C7,false,Rx,0,4,AA,A0,FF,C0,00,00,00,00,
2481003,00000428,false,Rx,0,8,00,00,00,7F,00,00,00,00,
2481108,0000042F,false,Rx,0,2,00,20,00,00,00,00,00,00,
2482179,0000019F,false,Rx,0,8,00,00,7D,02,00,6A,90,FE,
2486681,00000155,false,Rx,0,8,3E,87,CE,54,95,E8,02,C3,
2487063,000001A1,false,Rx,0,8,B1,45,84,10,15,0C,80,20,
2490345,00000157,false,Rx,0,8,D5,D7,09,C4,FF,E0,00,80,
2490354,000001C7,false,Rx,0,4,AA,A0,FF,C0,00,00,00,00,
2492237,0000019F,false,Rx,0,8,00,00,7D,07,00,6A,90,FE,
2492423,00000511,false,Rx,0,7,04,EA,83,47,AB,87,05,00,
2496773,00000155,false,Rx,0,8,3E,87,CE,54,95,E8,02,C3,
2496780,00000424,false,Rx,0,8,11,40,56,C8,33,5E,AA,34,
2497065,00000425,false,Rx,0,8,2A,BE,44,9C,42,1A,CD,0B,
2497267,000001A1,false,Rx,0,8,B1,05,84,10,05,0C,80,20,
2500419,00000157,false,Rx,0,8,D5,27,09,C4,FF,E0,00,80,
2500426,000001C7,false,Rx,0,4,AA,A0,FF,C0,00,00,00,00,
2502271,0000019F,false,Rx,0,8,00,00,7D,0C,00,6A,90,FE,
2506824,00000155,false,Rx,0,8,3E,87,CE,54,95,E8,02,C3,
2507165,000001A1,false,Rx,0,8,B1,05,84,10,25,0C,80,20,
2510427,00000157,false,Rx,0,8,D5,77,09,C4,FF,E0,00,80,
2510435,000001C7,false,Rx,0,4,AA,A0,FF,C0,00,00,00,00,
2512330,0000019F,false,Rx,0,8,00,00,7D,01,00,6A,90,FE,
2515184,00000423,false,Rx,0,8,07,1D,00,02,5D,80,5D,D8,
2516828,00000155,false,Rx,0,8,3E,87,CE,54,95,E8,02,C3,
2517077,000001A1,false,Rx,0,8,B1,05,84,10,05,0C,80,20,
2520514,00000157,false,Rx,0,8,D5,C7,09,C4,FF,E0,00,80,
2520523,000001C7,false,Rx,0,4,AA,A0,FF,C0,00,00,00,00,
2520790,00000426,false,Rx,0,8,00,60,01,00,53,18,00,40,
2522322,0000019F,false,Rx,0,8,00,00,7D,06,00,6A,90,FE,
2526712,00000155,false,Rx,0,8,3E,87,CE,54,95,E8,02,C3,
2527191,000001A1,false,Rx,0,8,B1,45,84,10,05,0C,80,20,
2530314,00000157,false,Rx,0,8,D5,17,09,C4,FF,E0,00,80,
2530447,000001C7,false,Rx,0,4,AA,A0,FF,C0,00,00,00,00,
2532301,0000019F,false,Rx,0,8,00,00,7D,0B,00,6A,90,FE,
2535371,00000435,false,Rx,0,8,FF,FF,1E,0B,2E,10,00,00,
2536834,00000155,false,Rx,0,8,3E,87,CE,54,95,E8,02,C3,
2537171,000001A1,false,Rx,0,8,B1,05,84,10,25,0C,80,20,
2540434,00000157,false,Rx,0,8,D5,67,09,C4,FF,E0,00,80,
2540443,000001C7,false,Rx,0,4,AA,A0,FF,C0,00,00,00,00,
2540729,00000436,false,Rx,0,6,86,16,64,37,FF,DC,00,00,
2542284,0000019F,false,Rx,0,8,00,00,7D,00,00,6A,90,FE,
2542341,00000419,false,Rx,0,6,5E,08,2A,E6,4C,00,00,00,
2546826,00000155,false,Rx,0,8,3E,87,CE,54,95,E8,02,C3,
2547157,000001A1,false,Rx,0,8,B1,05,84,10,25,0C,80,20,
2550439,00000157,false,Rx,0,8,D5,B7,09,C4,FF,E0,00,80,
2550449,000001C7,false,Rx,0,4,AA,A0,FF,C0,00,00,00,00,
2552152,0000019F,false,Rx,0,8,00,00,7D,05,00,6A,90,FE,
2556559,00000155,false,Rx,0,8,3E,87,CE,54,95,E8,02,C3,
2557079,000001A1,false,Rx,0,8,B1,45,84,10,05,0C,80,20,
2560335,00000157,false,Rx,0,8,D5,07,09,C4,FF,E0,00,80,
2560444,000001C7,false,Rx,0,4,AA,A0,FF,C0,00,00,00,00,
2562139,0000019F,false,Rx,0,8,00,00,7D,0A,00,6A,90,FE,
2562939,00000445,false,Rx,0,7,80,55,55,65,04,82,00,00,
2566613,00000155,false,Rx,0,8,3E,87,CE,54,95,E8,02,C3,
2567118,000001A1,false,Rx,0,8,B1,05,84,10,25,0C,80,20,
2570307,00000157,false,Rx,0,8,D5,57,09,C4,FF,E0,00,80,
2570390,000001C7,false,Rx,0,4,AA,A0,FF,C0,00,00,00,00,
2572138,0000019F,false,Rx,0,8,00,00,7D,0F,00,6A,90,FE,
2576615,00000155,false,Rx,0,8,3E,87,CE,54,95,E8,02,C3,
2577118,000001A1,false,Rx,0,8,B1,05,84,10,25,0C,80,20,
2580307,00000157,false,Rx,0,8,D5,A7,09,C4,FF,E0,00,80,
2580562,000004F7,false,Rx,0,8,00,1A,08,00,90,2C,06,F0,
2580767,000001C7,false,Rx,0,4,AA,A0,FF,C0,00,00,00,00,
2581043,00000428,false,Rx,0,8,00,00,00,7F,00,00,00,00,
2581123,0000042F,false,Rx,0,2,00,20,00,00,00,00,00,00,
2582141,0000019F,false,Rx,0,8,00,00,7D,04,00,6A,90,FE,
2586563,00000155,false,Rx,0,8,3E,87,CE,54,95,E8,02,C3,
2587118,000001A1,false,Rx,0,8,B1,45,84,10,25,0C,80,20,
2590273,00000157,false,Rx,0,8,D5,F7,09,C4,FF,E0,00,80,
2590462,000001C7,false,Rx,0,4,AA,A0,FF,C0,00,00,00,00,
2592140,0000019F,false,Rx,0,8,00,00,7D,09,00,6A,90,FE,
2592415,00000511,false,Rx,0,7,04,29,4C,00,16,94,E8,00,
2596559,00000155,false,Rx,0,8,3E,87,CE,54,95,E8,02,C3,
2596786,00000424,false,Rx,0,8,11,40,56,C8,33,5E,55,34,
2597014,00000425,false,Rx,0,8,2A,BE,44,9C,42,1A,CD,0C,
2597238,000001A1,false,Rx,0,8,B1,45,84,10,45,0C,80,20,
2600309,00000157,false,Rx,0,8,D5,47,09,C4,FF,E0,00,80,
2600389,000001C7,false,Rx,0,4,AA,A0,FF,C0,00,00,00,00,
2602159,0000019F,false,Rx,0,8,00,00,7D,0E,00,6A,90,FE,
2606582,00000155,false,Rx,0,8,3E,87,CE,54,95,E8,02,C3,
2607119,000001A1,false,Rx,0,8,B1,05,84,10,25,0C,80,20,
2610365,00000157,false,Rx,0,8,D5,97,09,C4,FF,E0,00,80,
2610463,000001C7,false,Rx,0,4,AA,A0,FF,C0,00,00,00,00,
2612129,0000019F,false,Rx,0,8,00,00,7D,03,00,6A,90,FE,
2615179,00000423,false,Rx,0,8,07,1D,00,02,5D,80,5D,D8,
2616608,00000155,false,Rx,0,8,3E,87,CE,54,95,E8,02,C3,
2617107,000001A1,false,Rx,0,8,B1,05,70,10,05,0C,80,20,
2620305,00000157,false,Rx,0,8,D5,E7,09,C4,FF,E0,00,80,
2620496,000001C7,false,Rx,0,4,AA,A0,FF,C0,00,00,00,00,
2620721,00000426,false,Rx,0,8,00,60,01,00,53,18,00,40,
2622123,0000019F,false,Rx,0,8,00,00,7D,08,00,6A,90,FE,
2626571,00000155,false,Rx,0,8,3E,87,CE,54,95,E8,02,C3,
2627117,000001A1,false,Rx,0,8,B1,45,84,10,45,0C,80,20,
2630274,00000157,false,Rx,0,8,D5,37,09,C4,FF,E0,00,80,
2630485,000001C7,false,Rx,0,4,AA,A0,FF,C0,00,00,00,00,
2632104,0000019F,false,Rx,0,8,00,00,7D,0D,00,6A,90,FE,
2635205,00000435,false,Rx,0,8,FF,FF,1E,0B,2E,10,00,00,
2636617,00000155,false,Rx,0,8,3E,87,CE,54,95,E8,02,C3,
2637068,000001A1,false,Rx,0,8,B1,05,70,10,45,0C,80,20,
2640307,00000157,false,Rx,0,8,D5,87,09,C4,FF,E0,00,80,
2640470,000001C7,false,Rx,0,4,AA,A0,FF,C0,00,00,00,00,
2640672,00000436,false,Rx,0,6,86,16,64,37,FF,DC,00,00,
2642093,0000019F,false,Rx,0,8,00,00,7D,02,00,6A,90,FE,
2642341,00000419,false,Rx,0,6,5E,08,2A,E6,4C,00,00,00,
2646578,00000155,false,Rx,0,8,3E,87,CE,54,95,E8,02,C3,
2647069,000001A1,false,Rx,0,8,B1,45,70,10,25,0C,80,20,
2650275,00000157,false,Rx,0,8,D5,D7,09,C4,FF,E0,00,80,
2650443,000001C7,false,Rx,0,4,AA,A0,FF,C0,00,00,00,00,
2652090,0000019F,false,Rx,0,8,00,00,7D,07,00,6A,90,FE,
2656594,00000155,false,Rx,0,8,3E,87,CE,54,95,E8,02,C3,
2657061,000001A1,false,Rx,0,8,B1,45,84,10,45,0C,80,20,
2660304,00000157,false,Rx,0,8,D5,27,09,C4,FF,E0,00,80,
2660405,000001C7,false,Rx,0,4,AA,A0,FF,C0,00,00,00,00,
2662105,0000019F,false,Rx,0,8,00,00,7D,0C,00,6A,90,FE,
2662942,00000445,false,Rx,0,7,80,55,55,65,04,82,00,00,
2666606,00000155,false,Rx,0,8,3E,87,CE,54,95,E8,02,C3,
2667107,000001A1,false,Rx,0,8,B1,05,84,10,35,0C,80,20,
2670299,00000157,false,Rx,0,8,D5,77,09,C4,FF,E0,00,80,
2670430,000001C7,false,Rx,0,4,AA,A0,FF,C0,00,00,00,00,
2672129,0000019F,false,Rx,0,8,00,00,7D,01,00,6A,90,FE,
2676632,00000155,false,Rx,0,8,3E,87,CE,54,95,E8,02,C3,
2677115,000001A1,false,Rx,0,8,B1,05,84,10,35,0C,80,20,
2680342,00000157,false,Rx,0,8,D5,C7,09,C4,FF,E0,00,80,
2680568,000004F7,false,Rx,0,8,00,1A,08,00,90,2C,06,F0,
2680754,000001C7,false,Rx,0,4,AA,A0,FF,C0,00,00,00,00,
2680999,00000428,false,Rx,0,8,00,00,00,7F,00,00,00,00,
2681082,0000042F,false,Rx,0,2,00,20,00,00,00,00,00,00,
2682129,0000019F,false,Rx,0,8,00,00,7D,06,00,6A,90,FE,
2686560,00000155,false,Rx,0,8,3E,87,CE,54,95,E8,02,C3,
2687079,000001A1,false,Rx,0,8,B1,45,70,10,55,0C,80,20,
2690265,00000157,false,Rx,0,8,D5,17,09,C4,FF,E0,00,80,
2690413,000001C7,false,Rx,0,4,AA,A0,FF,C0,00,00,00,00,
2692095,0000019F,false,Rx,0,8,00,00,7D,0B,00,6A,90,FE,
2692367,00000511,false,Rx,0,7,04,68,15,B9,81,A1,CB,00,
2696527,00000155,false,Rx,0,8,3E,87,CE,54,95,E8,02,C3,
2696743,00000424,false,Rx,0,8,11,40,56,C8,33,5E,55,34,
2696972,00000425,false,Rx,0,8,2A,BE,44,9C,42,1A,CD,0C,
2697202,000001A1,false,Rx,0,8,B1,05,84,10,45,0C,80,20,
2700295,00000157,false,Rx,0,8,D5,67,09,C4,FF,E0,00,80,
2700445,000001C7,false,Rx,0,4,AA,A0,FF,C0,00,00,00,00,
2702099,0000019F,false,Rx,0,8,00,00,7D,00,00,6A,90,FE,
2706520,00000155,false,Rx,0,8,3E,87,CE,54,95,E8,02,C3,
2707074,000001A1,false,Rx,0,8,B1,45,84,10,05,0C,80,20,
2710294,00000157,false,Rx,0,8,D5,B7,09,C4,FF,E0,00,80,
2710445,000001C7,false,Rx,0,4,AA,A0,FF,C0,00,00,00,00,
2712093,0000019F,false,Rx,0,8,00,00,7D,05,00,6A,90,FE,
2715258,00000423,false,Rx,0,8,07,1D,00,02,5D,80,5D,D8,
2716562,00000155,false,Rx,0,8,3E,87,CE,54,95,E8,02,C3,
2717061,000001A1,false,Rx,0,8,B1,45,84,10,25,0C,80,20,
2720258,00000157,false,Rx,0,8,D5,07,09,C4,FF,E0,00,80,
2720400,000001C7,false,Rx,0,4,AA,A0,FF,C0,00,00,00,00,
2720650,00000426,false,Rx,0,8,00,60,01,00,53,18,00,40,
2722087,0000019F,false,Rx,0,8,00,00,7D,0A,00,6A,90,FE,
2726520,00000155,false,Rx,0,8,3E,87,CE,54,95,E8,02,C3,
2727073,000001A1,false,Rx,0,8,B1,05,84,10,35,0C,80,20,
2730263,00000157,false,Rx,0,8,D5,57,09,C4,FF,E0,00,80,
2730414,000001C7,false,Rx,0,4,AA,A0,FF,C0,00,00,00,00,
2732070,0000019F,false,Rx,0,8,00,00,7D,0F,00,6A,90,FE,
2735263,00000435,false,Rx,0,8,FF,FF,1E,0B,2E,10,00,00,
2736567,00000155,false,Rx,0,8,3E,87,CE,54,95,E8,02,C3,
2737068,000001A1,false,Rx,0,8,B1,05,84,10,05,0C,80,20,
2740263,00000157,false,Rx,0,8,D5,A7,09,C4,FF,E0,00,80,
2740438,00000436,false,Rx,0,6,86,16,64,37,FF,DC,00,00,
2740616,000001C7,false,Rx,0,4,AA,A0,FF,C0,00,00,00,00,
2742095,0000019F,false,Rx,0,8,00,00,7D,04,00,6A,90,FE,
2742341,00000419,false,Rx,0,6,5E,08,2A,E6,4C,00,00,00,
2746596,00000155,false,Rx,0,8,3E,87,CE,54,95,E8,02,C3,
2747071,000001A1,false,Rx,0,8,B1,05,84,10,15,0C,80,20,
2750259,00000157,false,Rx,0,8,D5,F7,09,C4,FF,E0,00,80,
2750426,000001C7,false,Rx,0,4,AA,A0,FF,C0,00,00,00,00,
2752089,0000019F,false,Rx,0,8,00,00,7D,09,00,6A,90,FE,
2756592,00000155,false,Rx,0,8,3E,87,CE,54,95,E8,02,C3,
2757061,000001A1,false,Rx,0,8,B1,45,84,10,15,0C,80,20,
2760323,00000157,false,Rx,0,8,D5,47,09,C4,FF,E0,00,80,
2760470,000001C7,false,Rx,0,4,AA,A0,FF,C0,00,00,00,00,
2762099,0000019F,false,Rx,0,8,00,00,7D,0E,00,6A,90,FE,
2762866,00000445,false,Rx,0,7,80,55,55,65,04,82,00,00,
2766541,00000155,false,Rx,0,8,3E,87,CE,54,95,E8,02,C3,
2767067,000001A1,false,Rx,0,8,B1,05,84,10,15,0C,80,20,
2770296,00000157,false,Rx,0,8,D5,97,09,C4,FF,E0,00,80,
2770443,000001C7,false,Rx,0,4,AA,A0,FF,C0,00,00,00,00,
2772093,0000019F,false,Rx,0,8,00,00,7D,03,00,6A,90,FE,
2776564,00000155,false,Rx,0,8,3E,87,CE,54,95,E8,02,C3,
2777060,000001A1,false,Rx,0,8,B1,05,70,10,25,0C,80,20,
2780258,00000157,false,Rx,0,8,D5,E7,09,C4,FF,E0,00,80,
2780504,000004F7,false,Rx,0,8,00,1A,08,00,90,2C,06,F0,
2780676,000001C7,false,Rx,0,4,AA,A0,FF,C0,00,00,00,00,
2780926,00000428,false,Rx,0,8,00,00,00,7F,00,00,00,00,
2781100,0000042F,false,Rx,0,2,00,20,00,00,00,00,00,00,
2782086,0000019F,false,Rx,0,8,00,00,7D,08,00,6A,90,FE,
2786514,00000155,false,Rx,0,8,3E,87,CE,54,95,E8,02,C4,
2787060,000001A1,false,Rx,0,8,B1,05,84,10,05,0C,80,20,
2790258,00000157,false,Rx,0,8,D5,37,09,C4,FF,E0,00,80,
2790426,000001C7,false,Rx,0,4,AA,A0,FF,C0,00,00,00,00,
2792088,0000019F,false,Rx,0,8,00,00,7D,0D,00,6A,90,FE,
2792360,00000511,false,Rx,0,7,04,A7,DE,72,EC,AE,AE,00,
2796514,00000155,false,Rx,0,8,3E,87,CD,54,95,E8,02,C4,
2796734,00000424,false,Rx,0,8,11,40,56,C8,33,5E,55,34,
2796960,00000425,false,Rx,0,8,2A,BE,44,9C,42,1A,CD,0B,
2797184,000001A1,false,Rx,0,8,B1,45,84,0F,F5,0C,80,20,
2800255,00000157,false,Rx,0,8,D5,87,09,C4,FF,E0,00,80,
2800450,000001C7,false,Rx,0,4,AA,A0,FF,C0,00,00,00,00,
2802087,0000019F,false,Rx,0,8,00,00,7D,02,00,6A,90,FE,
2806524,00000155,false,Rx,0,8,3E,87,CE,54,95,E8,02,C4,
2807086,000001A1,false,Rx,0,8,B1,05,70,10,25,0C,80,20,
2810259,00000157,false,Rx,0,8,D5,D7,09,C4,FF,E0,00,80,
2810452,000001C7,false,Rx,0,4,AA,A0,FF,C0,00,00,00,00,
2812087,0000019F,false,Rx,0,8,00,00,7D,07,00,6A,90,FE,
2815258,00000423,false,Rx,0,8,07,1D,00,02,5D,80,5D,D8,
2816534,00000155,false,Rx,0,8,3E,87,CD,54,95,E8,02,C4,
2817084,000001A1,false,Rx,0,8,B1,05,70,10,25,0C,80,20,
2820290,00000157,false,Rx,0,8,D5,27,09,C4,FF,E0,00,80,
2820535,00000426,false,Rx,0,8,00,60,01,00,53,18,00,40,
2820685,000001C7,false,Rx,0,4,AA,A0,FF,C0,00,00,00,00,
2822091,0000019F,false,Rx,0,8,00,00,7D,0C,00,6A,90,FE,
2826515,00000155,false,Rx,0,8,3E,87,CE,54,95,E8,02,C4,
2827062,000001A1,false,Rx,0,8,B1,45,84,10,05,0C,80,20,
2830260,00000157,false,Rx,0,8,D5,77,09,C4,FF,E0,00,80,
2830478,000001C7,false,Rx,0,4,AA,A0,FF,C0,00,00,00,00,
2832087,0000019F,false,Rx,0,8,00,00,7D,01,00,6A,90,FE,
2835143,00000435,false,Rx,0,8,FF,FF,1E,0B,2E,10,00,00,
2836587,00000155,false,Rx,0,8,3E,87,CE,54,95,E8,02,C4,
2837060,000001A1,false,Rx,0,8,B1,45,84,10,25,0C,80,20,
2840258,00000157,false,Rx,0,8,D5,C7,09,C4,FF,E0,00,80,
2840452,00000436,false,Rx,0,6,86,16,64,37,FF,DC,00,00,
2840626,000001C7,false,Rx,0,4,AA,A0,FF,C0,00,00,00,00,
2842086,0000019F,false,Rx,0,8,00,00,7D,06,00,6A,90,FE,
2842335,00000419,false,Rx,0,6,5E,08,2A,E6,4C,00,00,00,
2846541,00000155,false,Rx,0,8,3E,87,CE,54,95,E8,02,C4,
2847065,000001A1,false,Rx,0,8,B1,05,70,10,15,0C,80,20,
2850258,00000157,false,Rx,0,8,D5,17,09,C4,FF,E0,00,80,
2850476,000001C7,false,Rx,0,4,AA,A0,FF,C0,00,00,00,00,
2852089,0000019F,false,Rx,0,8,00,00,7D,0B,00,6A,90,FE,
2856582,00000155,false,Rx,0,8,3E,87,CE,54,95,E8,02,C4,
2857066,000001A1,false,Rx,0,8,B1,45,70,10,25,0C,80,20,
2860260,00000157,false,Rx,0,8,D5,67,09,C4,FF,E0,00,80,
2860477,000001C7,false,Rx,0,4,AA,A0,FF,C0,00,00,00,00,
2862088,0000019F,false,Rx,0,8,00,00,7D,00,00,6A,90,FE,
2862837,00000445,false,Rx,0,7,80,55,55,65,04,82,00,00,
2866592,00000155,false,Rx,0,8,3E,87,CE,54,95,E8,02,C4,
2867062,000001A1,false,Rx,0,8,B1,45,70,10,45,0C,80,20,
2870260,00000157,false,Rx,0,8,D5,B7,09,C4,FF,E0,00,80,
2870502,000001C7,false,Rx,0,4,AA,A0,FF,C0,00,00,00,00,
2872088,0000019F,false,Rx,0,8,00,00,7D,05,00,6A,90,FE,
2876593,00000155,false,Rx,0,8,3E,87,CE,54,95,E8,02,C4,
2877070,000001A1,false,Rx,0,8,B1,05,70,10,35,0C,80,20,
2880315,00000157,false,Rx,0,8,D5,07,09,C4,FF,E0,00,80,
2880586,000004F7,false,Rx,0,8,00,1A,08,00,90,2C,06,F0,
2880736,000001C7,false,Rx,0,4,AA,A0,FF,C0,00,00,00,00,
2881011,00000428,false,Rx,0,8,00,00,00,7F,00,00,00,00,
2881160,0000042F,false,Rx,0,2,00,20,00,00,00,00,00,00,
2882088,0000019F,false,Rx,0,8,00,00,7D,0A,00,6A,90,FE,
2886515,00000155,false,Rx,0,8,3E,87,CE,54,95,E8,02,C4,
2887063,000001A1,false,Rx,0,8,B1,45,70,10,25,0C,80,20,
2890191,00000157,false,Rx,0,8,D5,57,09,C4,FF,E0,00,80,
2890511,000001C7,false,Rx,0,4,AA,A0,FF,C0,00,00,00,00,
2892089,0000019F,false,Rx,0,8,00,00,7D,0F,00,6A,90,FE,
2892362,00000511,false,Rx,0,7,04,E6,A7,2B,57,BB,91,00,
2896493,00000155,false,Rx,0,8,3E,87,CE,54,95,E8,02,C4,
2896736,00000424,false,Rx,0,8,11,40,56,C8,33,5E,55,34,
2896962,00000425,false,Rx,0,8,2A,BE,44,9C,42,1A,CD,0C,
2897185,000001A1,false,Rx,0,8,B1,45,84,10,45,0C,80,20,
2900317,00000157,false,Rx,0,8,D5,A7,09,C4,FF,E0,00,80,
2900509,000001C7,false,Rx,0,4,AA,A0,FF,C0,00,00,00,00,
2902086,0000019F,false,Rx,0,8,00,00,7D,04,00,6A,90,FE,
2906513,00000155,false,Rx,0,8,3E,87,CE,54,95,E8,02,C4,
2907061,000001A1,false,Rx,0,8,B1,05,84,10,45,0C,80,20,
2910258,00000157,false,Rx,0,8,D5,F7,09,C4,FF,E0,00,80,
2910527,000001C7,false,Rx,0,4,AA,A0,FF,C0,00,00,00,00,
2912084,0000019F,false,Rx,0,8,00,00,7D,09,00,6A,90,FE,
2915192,00000423,false,Rx,0,8,07,1D,00,02,5D,80,5D,D8,
2916538,00000155,false,Rx,0,8,3E,87,CD,54,95,E8,02,C4,
2917062,000001A1,false,Rx,0,8,B1,45,70,10,15,0C,80,20,
2920288,00000157,false,Rx,0,8,D5,47,09,C4,FF,E0,00,80,
2920511,00000426,false,Rx,0,8,00,60,01,00,53,18,00,40,
2920686,000001C7,false,Rx,0,4,AA,A0,FF,C0,00,00,00,00,
