Time Stamp,ID,Extended,Dir,Bus,LEN,D1,D2,D3,D4,D5,D6,D7,D8
11454419,00000157,false,Rx,0,8,D5,47,09,C4,FF,E0,00,80,
11454525,00000436,false,Rx,0,6,80,18,76,C9,FF,DC,00,00,
11457205,0000019F,false,Rx,0,8,00,00,7D,04,00,6A,90,FE,
11459457,000001C7,false,Rx,0,4,AA,A0,FF,C0,00,00,00,00,
11460296,00000155,false,Rx,0,8,3E,87,D0,54,58,40,02,B5,
11462200,000001A1,false,Rx,0,8,04,84,1E,11,66,0C,80,20,
11464429,00000157,false,Rx,0,8,D5,97,09,C4,FF,E0,00,80,
11465300,00000445,false,Rx,0,7,80,55,AA,65,04,82,00,00,
11467213,0000019F,false,Rx,0,8,00,00,7D,09,00,6A,90,FE,
11469454,000001C7,false,Rx,0,4,AA,A0,FF,C0,00,00,00,00,
11470327,00000155,false,Rx,0,8,3E,87,D0,54,58,40,02,B5,
11472205,000001A1,false,Rx,0,8,04,84,1E,11,96,0C,80,20,
11474428,00000157,false,Rx,0,8,D5,E7,09,C4,FF,E0,00,80,
11477206,0000019F,false,Rx,0,8,00,00,7D,0E,00,6A,90,FE,
11477447,00000419,false,Rx,0,6,57,00,28,00,30,00,00,00,
11479458,000001C7,false,Rx,0,4,AA,A0,FF,C0,00,00,00,00,
11480301,00000155,false,Rx,0,8,3E,87,D0,54,58,40,02,B5,
11482201,000001A1,false,Rx,0,8,04,84,1E,11,A6,0C,80,20,
11484350,00000157,false,Rx,0,8,D5,37,09,C4,FF,E0,00,80,
11487223,0000019F,false,Rx,0,8,00,00,7D,03,00,6A,90,FE,
11489529,000004F7,false,Rx,0,8,00,19,08,00,B0,20,06,F0,
11489722,000001C7,false,Rx,0,4,AA,A0,FF,C0,00,00,00,00,
11489999,00000428,false,Rx,0,8,00,00,00,7F,00,00,00,00,
11490121,0000042F,false,Rx,0,2,00,20,00,00,00,00,00,00,
11490393,00000155,false,Rx,0,8,3E,87,D0,54,58,40,02,B5,
11492206,000001A1,false,Rx,0,8,04,84,1E,11,76,0C,80,20,
11494456,00000157,false,Rx,0,8,D5,87,09,C4,FF,E0,00,80,
11497219,0000019F,false,Rx,0,8,00,00,7D,08,00,6A,90,FE,
11499479,000001C7,false,Rx,0,4,AA,A0,FF,C0,00,00,00,00,
11500331,00000155,false,Rx,0,8,3E,87,D0,54,58,40,02,B5,
11502211,000001A1,false,Rx,0,8,04,84,1E,11,96,0C,80,20,
11504383,00000157,false,Rx,0,8,D5,D7,09,C4,FF,E0,00,80,
11507234,0000019F,false,Rx,0,8,00,00,7D,0D,00,6A,90,FE,
11509478,000001C7,false,Rx,0,4,AA,A0,FF,C0,00,00,00,00,
11510375,00000155,false,Rx,0,8,3E,87,D0,54,58,40,02,B5,
11512200,000001A1,false,Rx,0,8,04,84,1E,11,96,0C,80,20,
11514347,00000157,false,Rx,0,8,D5,27,09,C4,FF,E0,00,80,
11517251,0000019F,false,Rx,0,8,00,00,7D,02,00,6A,90,FE,
11519509,000001C7,false,Rx,0,4,AA,A0,FF,C0,00,00,00,00,
11520251,00000155,false,Rx,0,8,3E,87,D0,54,58,40,02,B5,
11522200,000001A1,false,Rx,0,8,04,84,1E,11,86,0C,80,20,
11524376,00000157,false,Rx,0,8,D5,77,09,C4,FF,E0,00,80,
11527221,0000019F,false,Rx,0,8,00,00,7D,07,00,6A,90,FE,
11527466,00000511,false,Rx,0,7,04,7B,5A,AF,D6,67,5A,00,
11529329,00000423,false,Rx,0,8,07,1E,00,01,5D,A0,5D,CB,
11529501,000001C7,false,Rx,0,4,AA,A0,FF,C0,00,00,00,00,
11530301,00000155,false,Rx,0,8,3E,87,D0,54,58,40,02,B5,
11530522,00000424,false,Rx,0,8,11,40,56,C0,2D,5E,AA,2E,
11530744,00000425,false,Rx,0,8,24,65,44,9C,42,0C,B1,05,
11532200,000001A1,false,Rx,0,8,04,84,1E,11,96,0C,80,20,
11534352,00000157,false,Rx,0,8,D5,C7,09,C4,FF,E0,00,80,
11534603,00000426,false,Rx,0,8,00,00,02,00,59,5C,00,40,
11537232,0000019F,false,Rx,0,8,00,00,7D,0C,00,6A,90,FE,
11539546,000001C7,false,Rx,0,4,AA,A0,FF,C0,00,00,00,00,
11540281,00000155,false,Rx,0,8,3E,87,D0,54,58,40,02,B5,
11542203,000001A1,false,Rx,0,8,04,84,1E,11,86,0C,80,20,
11544377,00000157,false,Rx,0,8,D5,17,09,C4,FF,E0,00,80,
11547204,0000019F,false,Rx,0,8,00,00,7D,01,00,6A,90,FE,
11549325,00000435,false,Rx,0,8,FF,FF,1E,0B,2A,00,00,00,
11549496,000001C7,false,Rx,0,4,AA,A0,FF,C0,00,00,00,00,
11550274,00000155,false,Rx,0,8,3E,87,D0,54,58,40,02,B5,
11552224,000001A1,false,Rx,0,8,04,84,1E,11,76,0C,80,20,
11554402,00000157,false,Rx,0,8,D5,67,09,C4,FF,E0,00,80,
11554622,00000436,false,Rx,0,6,80,18,76,C9,FF,DC,00,00,
11557201,0000019F,false,Rx,0,8,00,00,7D,06,00,6A,90,FE,
11559532,000001C7,false,Rx,0,4,AA,A0,FF,C0,00,00,00,00,
11560269,00000155,false,Rx,0,8,3E,87,D0,54,58,40,02,B5,
11562231,000001A1,false,Rx,0,8,04,84,1E,11,B6,0C,80,20,
11564381,00000157,false,Rx,0,8,D5,B7,09,C4,FF,E0,00,80,
11565333,00000445,false,Rx,0,7,80,55,55,65,04,82,00,00,
11567226,0000019F,false,Rx,0,8,00,00,7D,0B,00,6A,90,FE,
11569504,000001C7,false,Rx,0,4,AA,A0,FF,C0,00,00,00,00,
11570300,00000155,false,Rx,0,8,3E,87,D0,54,58,40,02,B5,
11572232,000001A1,false,Rx,0,8,04,84,1E,11,C6,0C,80,20,
11574407,00000157,false,Rx,0,8,D5,07,09,C4,FF,E0,00,80,
11577231,0000019F,false,Rx,0,8,00,00,7D,00,00,6A,90,FE,
11577477,00000419,false,Rx,0,6,57,00,28,00,30,00,00,00,
11579558,000001C7,false,Rx,0,4,AA,A0,FF,C0,00,00,00,00,
11580328,00000155,false,Rx,0,8,3E,87,D0,54,58,40,02,B5,
11582218,000001A1,false,Rx,0,8,04,84,1E,11,76,0C,80,20,
11584429,00000157,false,Rx,0,8,D5,57,09,C4,FF,E0,00,80,
11587203,0000019F,false,Rx,0,8,00,00,7D,05,00,6A,90,FE,
11589604,000004F7,false,Rx,0,8,00,19,08,00,B0,20,06,F0,
11589798,000001C7,false,Rx,0,4,AA,A0,FF,C0,00,00,00,00,
11590050,00000428,false,Rx,0,8,00,00,00,7F,00,00,00,00,
11590197,0000042F,false,Rx,0,2,00,20,00,00,00,00,00,00,
11590444,00000155,false,Rx,0,8,3E,87,D0,54,58,40,02,B5,
11592203,000001A1,false,Rx,0,8,04,84,1E,11,96,0C,80,20,
11594354,00000157,false,Rx,0,8,D5,A7,09,C4,FF,E0,00,80,
11597204,0000019F,false,Rx,0,8,00,00,7D,0A,00,6A,90,FE,
11599528,000001C7,false,Rx,0,4,AA,A0,FF,C0,00,00,00,00,
11600275,00000155,false,Rx,0,8,3E,87,D0,54,58,40,02,B5,
11602201,000001A1,false,Rx,0,8,04,84,1E,11,96,0C,80,20,
11604458,00000157,false,Rx,0,8,D5,F7,09,C4,FF,E0,00,80,
11607207,0000019F,false,Rx,0,8,00,00,7D,0F,00,6A,90,FE,
11609530,000001C7,false,Rx,0,4,AA,A0,FF,C0,00,00,00,00,
11610303,00000155,false,Rx,0,8,3E,87,D0,54,58,40,02,B5,
11612203,000001A1,false,Rx,0,8,04,84,1E,11,86,0C,80,20,
11614406,00000157,false,Rx,0,8,D5,47,09,C4,FF,E0,00,80,
11617207,0000019F,false,Rx,0,8,00,00,7D,04,00,6A,90,FE,
11619530,000001C7,false,Rx,0,4,AA,A0,FF,C0,00,00,00,00,
11620252,00000155,false,Rx,0,8,3E,87,D0,54,58,40,02,B5,
11622202,000001A1,false,Rx,0,8,04,84,1E,11,A6,0C,80,20,
11624352,00000157,false,Rx,0,8,D5,97,09,C4,FF,E0,00,80,
11627227,0000019F,false,Rx,0,8,00,00,7D,09,00,6A,90,FE,
11627471,00000511,false,Rx,0,7,04,BA,23,68,41,74,3D,00,
11629275,00000423,false,Rx,0,8,07,1E,00,01,5D,A0,5D,CB,
11629546,000001C7,false,Rx,0,4,AA,A0,FF,C0,00,00,00,00,
11630299,00000155,false,Rx,0,8,3E,87,D0,54,58,40,02,B5,
11630521,00000424,false,Rx,0,8,11,40,56,C0,2D,5E,55,2E,
11630743,00000425,false,Rx,0,8,24,65,44,9C,42,0C,B1,04,
11632200,000001A1,false,Rx,0,8,04,84,1E,11,86,0C,80,20,
11634450,00000157,false,Rx,0,8,D5,E7,09,C4,FF,E0,00,80,
11634695,00000426,false,Rx,0,8,00,00,02,00,59,5C,00,40,
11635249,0000069F,false,Rx,0,4,71,30,28,2F,00,00,00,00,
11637203,0000019F,false,Rx,0,8,00,00,7D,0E,00,6A,90,FE,
11639558,000001C7,false,Rx,0,4,AA,A0,FF,C0,00,00,00,00,
11640252,00000155,false,Rx,0,8,3E,87,D0,54,58,40,02,B5,
11642228,000001A1,false,Rx,0,8,04,84,1E,11,76,0C,80,20,
11644413,00000157,false,Rx,0,8,D5,37,09,C4,FF,E0,00,80,
11647206,0000019F,false,Rx,0,8,00,00,7D,03,00,6A,90,FE,
11649305,00000435,false,Rx,0,8,FF,FF,1E,0B,2A,00,00,00,
11649549,000001C7,false,Rx,0,4,AA,A0,FF,C0,00,00,00,00,
11650277,00000155,false,Rx,0,8,3E,87,D0,54,58,40,02,B5,
11652228,000001A1,false,Rx,0,8,04,84,1E,11,B6,0C,80,20,
11654431,00000157,false,Rx,0,8,D5,87,09,C4,FF,E0,00,80,
11654623,00000436,false,Rx,0,6,80,18,76,C9,FF,DC,00,00,
11657233,0000019F,false,Rx,0,8,00,00,7D,08,00,6A,90,FE,
11659555,000001C7,false,Rx,0,4,AA,A0,FF,C0,00,00,00,00,
11660253,00000155,false,Rx,0,8,3E,87,D0,54,58,40,02,B5,
11662228,000001A1,false,Rx,0,8,04,84,1E,11,B6,0C,80,20,
11664353,00000157,false,Rx,0,8,D5,D7,09,C4,FF,E0,00,80,
11665301,00000445,false,Rx,0,7,80,55,55,65,04,82,00,00,
11667257,0000019F,false,Rx,0,8,00,00,7D,0D,00,6A,90,FE,
11669571,000001C7,false,Rx,0,4,AA,A0,FF,C0,00,00,00,00,
11670299,00000155,false,Rx,0,8,3E,87,D0,54,58,40,02,B5,
11672200,000001A1,false,Rx,0,8,04,84,1E,11,76,0C,80,20,
11674377,00000157,false,Rx,0,8,D5,27,09,C4,FF,E0,00,80,
11677232,0000019F,false,Rx,0,8,00,00,7D,02,00,6A,90,FE,
11677471,00000419,false,Rx,0,6,57,00,28,00,30,00,00,00,
11679605,000001C7,false,Rx,0,4,AA,A0,FF,C0,00,00,00,00,
11680304,00000155,false,Rx,0,8,3E,87,D0,54,58,40,02,B5,
11682254,000001A1,false,Rx,0,8,04,84,1E,11,76,0C,80,20,
11684404,00000157,false,Rx,0,8,D5,77,09,C4,FF,E0,00,80,
11687254,0000019F,false,Rx,0,8,00,00,7D,07,00,6A,90,FE,
11689692,000004F7,false,Rx,0,8,00,19,08,00,B0,20,06,F0,
11689822,000001C7,false,Rx,0,4,AA,A0,FF,C0,00,00,00,00,
11690104,00000428,false,Rx,0,8,00,00,00,7F,00,00,00,00,
11690252,0000042F,false,Rx,0,2,00,20,00,00,00,00,00,00,
11690505,00000155,false,Rx,0,8,3E,87,D0,54,58,40,02,B5,
11692207,000001A1,false,Rx,0,8,04,84,1E,11,86,0C,80,20,
11694379,00000157,false,Rx,0,8,D5,C7,09,C4,FF,E0,00,80,
11697257,0000019F,false,Rx,0,8,00,00,7D,0C,00,6A,90,FE,
11699607,000001C7,false,Rx,0,4,AA,A0,FF,C0,00,00,00,00,
11700309,00000155,false,Rx,0,8,3E,87,D0,54,58,40,02,B5,
11702229,000001A1,false,Rx,0,8,04,84,1E,11,96,0C,80,20,
11704431,00000157,false,Rx,0,8,D5,17,09,C4,FF,E0,00,80,
11707225,0000019F,false,Rx,0,8,00,00,7D,01,00,6A,90,FE,
11709631,000001C7,false,Rx,0,4,AA,A0,FF,C0,00,00,00,00,
11710357,00000155,false,Rx,0,8,3E,87,D0,54,58,40,02,B5,
11712254,000001A1,false,Rx,0,8,04,84,1E,11,B6,0C,80,20,
11714379,00000157,false,Rx,0,8,D5,67,09,C4,FF,E0,00,80,
11717254,0000019F,false,Rx,0,8,00,00,7D,06,00,6A,90,FE,
11719630,000001C7,false,Rx,0,4,AA,A0,FF,C0,00,00,00,00,
11720278,00000155,false,Rx,0,8,3E,87,D0,54,58,40,02,B5,
11722229,000001A1,false,Rx,0,8,04,84,1E,11,A6,0C,80,20,
11724403,00000157,false,Rx,0,8,D5,B7,09,C4,FF,E0,00,80,
11727264,0000019F,false,Rx,0,8,00,00,7D,0B,00,6A,90,FE,
11727509,00000511,false,Rx,0,7,04,F9,EC,21,AC,81,20,00,
11729355,00000423,false,Rx,0,8,07,1E,00,01,5D,A0,5D,CB,
11729627,000001C7,false,Rx,0,4,AA,A0,FF,C0,00,00,00,00,
11730305,00000155,false,Rx,0,8,3E,87,D0,54,58,40,02,B5,
11730562,00000424,false,Rx,0,8,11,40,56,C0,2D,5E,55,2E,
11730774,00000425,false,Rx,0,8,24,65,44,9C,42,0C,B1,04,
11732255,000001A1,false,Rx,0,8,04,84,1E,11,76,0C,80,20,
11734402,00000157,false,Rx,0,8,D5,07,09,C4,FF,E0,00,80,
11734678,00000426,false,Rx,0,8,00,00,02,00,59,5C,00,40,
11737257,0000019F,false,Rx,0,8,00,00,7D,00,00,6A,90,FE,
11739633,000001C7,false,Rx,0,4,AA,A0,FF,C0,00,00,00,00,
11740280,00000155,false,Rx,0,8,3E,87,D0,54,58,40,02,B5,
11742255,000001A1,false,Rx,0,8,04,84,1E,11,96,0C,80,20,
11744405,00000157,false,Rx,0,8,D5,57,09,C4,FF,E0,00,80,
11747272,0000019F,false,Rx,0,8,00,00,7D,05,00,6A,90,FE,
11749351,00000435,false,Rx,0,8,FF,FF,1E,0B,2A,00,00,00,
11749620,000001C7,false,Rx,0,4,AA,A0,FF,C0,00,00,00,00,
11750273,00000155,false,Rx,0,8,3E,87,D0,54,58,40,02,B5,
11752273,000001A1,false,Rx,0,8,04,84,1E,11,A6,0C,80,20,
11754408,00000157,false,Rx,0,8,D5,A7,09,C4,FF,E0,00,80,
11754627,00000436,false,Rx,0,6,80,18,76,C9,FF,DC,00,00,
11757261,0000019F,false,Rx,0,8,00,00,7D,0A,00,6A,90,FE,
11759659,000001C7,false,Rx,0,4,AA,A0,FF,C0,00,00,00,00,
11760265,00000155,false,Rx,0,8,3E,87,D0,54,58,40,02,B5,
11762262,000001A1,false,Rx,0,8,04,84,1E,11,76,0C,80,20,
11764410,00000157,false,Rx,0,8,D5,F7,09,C4,FF,E0,00,80,
11765332,00000445,false,Rx,0,7,80,55,55,65,04,82,00,00,
11767260,0000019F,false,Rx,0,8,00,00,7D,0F,00,6A,90,FE,
11769660,000001C7,false,Rx,0,4,AA,A0,FF,C0,00,00,00,00,
11770306,00000155,false,Rx,0,8,3E,87,D0,54,58,40,02,B5,
11772243,000001A1,false,Rx,0,8,04,84,1E,11,86,0C,80,20,
11774355,00000157,false,Rx,0,8,D5,47,09,C4,FF,E0,00,80,
11777264,0000019F,false,Rx,0,8,00,00,7D,04,00,6A,90,FE,
11777504,00000419,false,Rx,0,6,57,00,28,00,30,00,00,00,
11779660,000001C7,false,Rx,0,4,AA,A0,FF,C0,00,00,00,00,
11780335,00000155,false,Rx,0,8,3E,87,D0,54,58,40,02,B5,
11782262,000001A1,false,Rx,0,8,04,84,1E,11,86,0C,80,20,
11784458,00000157,false,Rx,0,8,D5,97,09,C4,FF,E0,00,80,
11787264,0000019F,false,Rx,0,8,00,00,7D,09,00,6A,90,FE,
11789732,000004F7,false,Rx,0,8,00,19,08,00,B0,20,06,F0,
11789903,000001C7,false,Rx,0,4,AA,A0,FF,C0,00,00,00,00,
11790162,00000428,false,Rx,0,8,00,00,00,7F,00,00,00,00,
11790384,00000155,false,Rx,0,8,3E,87,D0,54,58,40,02,B6,
11790498,0000042F,false,Rx,0,2,00,20,00,00,00,00,00,00,
11792261,000001A1,false,Rx,0,8,04,84,1E,11,96,0C,80,20,
11794446,00000157,false,Rx,0,8,D5,E7,09,C4,FF,E0,00,80,
11797229,0000019F,false,Rx,0,8,00,00,7D,0E,00,6A,90,FE,
11799652,000001C7,false,Rx,0,4,AA,A0,FF,C0,00,00,00,00,
11800277,00000155,false,Rx,0,8,3E,87,D0,54,58,40,02,B6,
11802256,000001A1,false,Rx,0,8,04,44,1E,11,C6,0C,80,20,
11804458,00000157,false,Rx,0,8,D5,37,09,C4,FF,E0,00,80,
11807263,0000019F,false,Rx,0,8,00,00,7D,03,00,6A,90,FE,
11809660,000001C7,false,Rx,0,4,AA,A0,FF,C0,00,00,00,00,
11810278,00000155,false,Rx,0,8,3E,87,CF,54,58,40,02,B6,
11812248,000001A1,false,Rx,0,8,04,84,1E,11,A6,0C,80,20,
11814434,00000157,false,Rx,0,8,D5,87,09,C4,FF,E0,00,80,
11817260,0000019F,false,Rx,0,8,00,00,7D,08,00,6A,90,FE,
11819686,000001C7,false,Rx,0,4,AA,A0,FF,C0,00,00,00,00,
11820282,00000155,false,Rx,0,8,3E,87,D0,54,58,40,02,B6,
11822262,000001A1,false,Rx,0,8,04,84,1E,11,56,0C,80,20,
11824413,00000157,false,Rx,0,8,D5,D7,09,C4,FF,E0,00,80,
11827263,0000019F,false,Rx,0,8,00,00,7D,0D,00,6A,90,FE,
11827517,00000511,false,Rx,0,7,04,38,B5,DA,17,8E,03,00,
11829360,00000423,false,Rx,0,8,07,1E,00,01,5D,A0,5D,CB,
11829675,000001C7,false,Rx,0,4,AA,A0,FF,C0,00,00,00,00,
11830276,00000155,false,Rx,0,8,3E,87,D0,54,58,40,02,B6,
11830503,00000424,false,Rx,0,8,11,40,56,C0,2D,5E,55,2E,
11830719,00000425,false,Rx,0,8,24,65,44,9C,42,0C,B1,04,
11832229,000001A1,false,Rx,0,8,04,84,1E,11,96,0C,80,20,
11834350,00000157,false,Rx,0,8,D5,27,09,C4,FF,E0,00,80,
11834596,00000426,false,Rx,0,8,00,00,02,00,59,5C,00,40,
11837224,0000019F,false,Rx,0,8,00,00,7D,02,00,6A,90,FE,
11839675,000001C7,false,Rx,0,4,AA,A0,FF,C0,00,00,00,00,
11840248,00000155,false,Rx,0,8,3E,87,D0,54,58,40,02,B6,
11842224,000001A1,false,Rx,0,8,04,84,1E,11,A6,0C,80,20,
11844400,00000157,false,Rx,0,8,D5,77,09,C4,FF,E0,00,80,
11847225,0000019F,false,Rx,0,8,00,00,7D,07,00,6A,90,FE,
11849275,00000435,false,Rx,0,8,FF,FF,1E,0B,2A,00,00,00,
11849670,000001C7,false,Rx,0,4,AA,A0,FF,C0,00,00,00,00,
11850248,00000155,false,Rx,0,8,3E,87,D0,54,58,40,02,B6,
11852224,000001A1,false,Rx,0,8,04,84,1E,11,96,0C,80,20,
11854350,00000157,false,Rx,0,8,D5,C7,09,C4,FF,E0,00,80,
11854572,00000436,false,Rx,0,6,80,18,76,C9,FF,DC,00,00,
11857225,0000019F,false,Rx,0,8,00,00,7D,0C,00,6A,90,FE,
11859678,000001C7,false,Rx,0,4,AA,A0,FF,C0,00,00,00,00,
11860263,00000155,false,Rx,0,8,3E,87,D0,54,58,40,02,B7,
11862229,000001A1,false,Rx,0,8,04,84,1E,11,96,0C,80,20,
11864409,00000157,false,Rx,0,8,D5,17,09,C4,FF,E0,00,80,
11865276,00000445,false,Rx,0,7,80,55,55,65,04,82,00,00,
11867225,0000019F,false,Rx,0,8,00,00,7D,01,00,6A,90,FE,
11869700,000001C7,false,Rx,0,4,AA,A0,FF,C0,00,00,00,00,
11870304,00000155,false,Rx,0,8,3E,87,D0,54,58,40,02,B7,
11872224,000001A1,false,Rx,0,8,04,84,1E,11,96,0C,80,20,
11874399,00000157,false,Rx,0,8,D5,67,09,C4,FF,E0,00,80,
11877224,0000019F,false,Rx,0,8,00,00,7D,06,00,6A,90,FE,
11877495,00000419,false,Rx,0,6,57,00,28,00,30,00,00,00,
11879701,000001C7,false,Rx,0,4,AA,A0,FF,C0,00,00,00,00,
11880273,00000155,false,Rx,0,8,3E,87,D0,54,58,40,02,B7,
11882237,000001A1,false,Rx,0,8,04,84,1E,11,76,0C,80,20,
11884401,00000157,false,Rx,0,8,D5,B7,09,C4,FF,E0,00,80,
11887226,0000019F,false,Rx,0,8,00,00,7D,0B,00,6A,90,FE,
11889777,000004F7,false,Rx,0,8,00,19,08,00,B0,20,06,F0,
11889949,000001C7,false,Rx,0,4,AA,A0,FF,C0,00,00,00,00,
11890197,00000428,false,Rx,0,8,00,00,00,7F,00,00,00,00,
11890420,00000155,false,Rx,0,8,3E,87,D0,54,58,40,02,B7,
11890597,0000042F,false,Rx,0,2,00,20,00,00,00,00,00,00,
11892224,000001A1,false,Rx,0,8,04,44,1E,11,B6,0C,80,20,
11894401,00000157,false,Rx,0,8,D5,07,09,C4,FF,E0,00,80,
11897224,0000019F,false,Rx,0,8,00,00,7D,00,00,6A,90,FE,
11899701,000001C7,false,Rx,0,4,AA,A0,FF,C0,00,00,00,00,
11900298,00000155,false,Rx,0,8,3E,87,D0,54,58,40,02,B7,
11902230,000001A1,false,Rx,0,8,04,84,1E,11,96,0C,80,20,
11904425,00000157,false,Rx,0,8,D5,57,09,C4,FF,E0,00,80,
11907225,0000019F,false,Rx,0,8,00,00,7D,05,00,6A,90,FE,
11909723,000001C7,false,Rx,0,4,AA,A0,FF,C0,00,00,00,00,
11910347,00000155,false,Rx,0,8,3E,87,D0,54,58,40,02,B7,
11912224,000001A1,false,Rx,0,8,04,84,1E,11,76,0C,80,20,
11914326,00000157,false,Rx,0,8,D5,A7,09,C4,FF,E0,00,80,
11917225,0000019F,false,Rx,0,8,00,00,7D,0A,00,6A,90,FE,
11919752,000001C7,false,Rx,0,4,AA,A0,FF,C0,00,00,00,00,
11920251,00000155,false,Rx,0,8,3E,87,D0,54,58,40,02,B7,
11922226,000001A1,false,Rx,0,8,04,44,1E,11,96,0C,80,20,
11924427,00000157,false,Rx,0,8,D5,F7,09,C4,FF,E0,00,80,
11927260,0000019F,false,Rx,0,8,00,00,7D,0F,00,6A,90,FE,
11927556,00000511,false,Rx,0,7,04,77,7E,93,82,9B,E6,00,
11929325,00000423,false,Rx,0,8,07,1E,00,01,5D,A0,5D,CB,
11929751,000001C7,false,Rx,0,4,AA,A0,FF,C0,00,00,00,00,
11930300,00000155,false,Rx,0,8,3E,87,D0,54,58,40,02,B7,
11930494,00000424,false,Rx,0,8,11,40,56,C0,2D,5E,55,2E,
11930717,00000425,false,Rx,0,8,24,65,44,9C,42,0C,B1,04,
11932250,000001A1,false,Rx,0,8,04,84,1E,11,B6,0C,80,20,
11934401,00000157,false,Rx,0,8,D5,47,09,C4,FF,E0,00,80,
11934650,00000426,false,Rx,0,8,00,00,02,00,59,5C,00,40,
11937276,0000019F,false,Rx,0,8,00,00,7D,04,00,6A,90,FE,
11939782,000001C7,false,Rx,0,4,AA,A0,FF,C0,00,00,00,00,
11940251,00000155,false,Rx,0,8,3E,87,D0,54,58,40,02,B7,
11942252,000001A1,false,Rx,0,8,04,44,1E,11,96,0C,80,20,
11944374,00000157,false,Rx,0,8,D5,97,09,C4,FF,E0,00,80,
11947249,0000019F,false,Rx,0,8,00,00,7D,09,00,6A,90,FE,
11949298,00000435,false,Rx,0,8,FF,FF,1E,0B,2A,00,00,00,
11949745,000001C7,false,Rx,0,4,AA,A0,FF,C0,00,00,00,00,
11950275,00000155,false,Rx,0,8,3E,87,D0,54,58,40,02,B7,
11952250,000001A1,false,Rx,0,8,04,44,1E,11,96,0C,80,20,
11954444,00000157,false,Rx,0,8,D5,E7,09,C4,FF,E0,00,80,
11954647,00000436,false,Rx,0,6,80,18,76,C9,FF,DC,00,00,
11957249,0000019F,false,Rx,0,8,00,00,7D,0E,00,6A,90,FE,
11959775,000001C7,false,Rx,0,4,AA,A0,FF,C0,00,00,00,00,
11960252,00000155,false,Rx,0,8,3E,87,D0,54,58,40,02,B7,
11962250,000001A1,false,Rx,0,8,04,84,1E,11,86,0C,80,20,
11964322,00000157,false,Rx,0,8,D5,37,09,C4,FF,E0,00,80,
11965272,00000445,false,Rx,0,7,80,55,55,65,04,82,00,00,
11967276,0000019F,false,Rx,0,8,00,00,7D,03,00,6A,90,FE,
11969775,000001C7,false,Rx,0,4,AA,A0,FF,C0,00,00,00,00,
11970300,00000155,false,Rx,0,8,3E,87,D0,54,58,40,02,B7,
11972250,000001A1,false,Rx,0,8,04,44,1E,11,96,0C,80,20,
11974400,00000157,false,Rx,0,8,D5,87,09,C4,FF,E0,00,80,
11977276,0000019F,false,Rx,0,8,00,00,7D,08,00,6A,90,FE,
11977498,00000419,false,Rx,0,6,57,00,28,00,30,00,00,00,
11979775,000001C7,false,Rx,0,4,AA,A0,FF,C0,00,00,00,00,
11980324,00000155,false,Rx,0,8,3E,87,D0,54,58,40,02,B7,
11982275,000001A1,false,Rx,0,8,04,44,1E,11,B6,0C,80,20,
11984429,00000157,false,Rx,0,8,D5,D7,09,C4,FF,E0,00,80,
11987250,0000019F,false,Rx,0,8,00,00,7D,0D,00,6A,90,FE,
11989875,000004F7,false,Rx,0,8,00,19,08,00,B0,20,06,F0,
11990050,000001C7,false,Rx,0,4,AA,A0,FF,C0,00,00,00,00,
11990272,00000428,false,Rx,0,8,00,00,00,7F,00,00,00,00,
11990497,00000155,false,Rx,0,8,3E,87,D0,54,58,40,02,B7,
11990666,0000042F,false,Rx,0,2,00,20,00,00,00,00,00,00,
11992275,000001A1,false,Rx,0,8,04,84,1E,11,A6,0C,80,20,
11994350,00000157,false,Rx,0,8,D5,27,09,C4,FF,E0,00,80,
11997225,0000019F,false,Rx,0,8,00,00,7D,02,00,6A,90,FE,
11999803,000001C7,false,Rx,0,4,AA,A0,FF,C0,00,00,00,00,
12000278,00000155,false,Rx,0,8,3E,87,D0,54,58,40,02,B7,
12002249,000001A1,false,Rx,0,8,04,44,1E,11,56,0C,80,20,
12004375,00000157,false,Rx,0,8,D5,77,09,C4,FF,E0,00,80,
12007249,0000019F,false,Rx,0,8,00,00,7D,07,00,6A,90,FE,
12009804,000001C7,false,Rx,0,4,AA,A0,FF,C0,00,00,00,00,
12010273,00000155,false,Rx,0,8,3E,87,D0,54,58,40,02,B7,
12012226,000001A1,false,Rx,0,8,04,44,1E,11,96,0C,80,20,
12014396,00000157,false,Rx,0,8,D5,C7,09,C4,FF,E0,00,80,
12017254,0000019F,false,Rx,0,8,00,00,7D,0C,00,6A,90,FE,
12019799,000001C7,false,Rx,0,4,AA,A0,FF,C0,00,00,00,00,
12020249,00000155,false,Rx,0,8,3E,87,D0,54,58,40,02,B7,
12022251,000001A1,false,Rx,0,8,04,84,1E,11,96,0C,80,20,
12024423,00000157,false,Rx,0,8,D5,17,09,C4,FF,E0,00,80,
12027276,0000019F,false,Rx,0,8,00,00,7D,01,00,6A,90,FE,
12027546,00000511,false,Rx,0,7,04,B6,47,4C,ED,A8,C9,00,
12029326,00000423,false,Rx,0,8,07,1E,00,01,B2,A0,B2,CB,
12029821,000001C7,false,Rx,0,4,AA,A0,FF,C0,00,00,00,00,
12030299,00000155,false,Rx,0,8,3E,87,D0,54,58,40,02,B7,
12030493,00000424,false,Rx,0,8,11,40,56,C0,2D,5E,55,2E,
12030734,00000425,false,Rx,0,8,24,65,44,9C,42,0C,B1,05,
12032278,000001A1,false,Rx,0,8,04,44,1E,11,96,0C,80,20,
12034328,00000157,false,Rx,0,8,D5,67,09,C4,FF,E0,00,80,
12034545,00000426,false,Rx,0,8,00,00,02,00,59,5C,00,40,
12037274,0000019F,false,Rx,0,8,00,00,7D,06,00,6A,90,FE,
12039849,000001C7,false,Rx,0,4,AA,A0,FF,C0,00,00,00,00,
12040251,00000155,false,Rx,0,8,3E,87,D0,54,58,40,02,B7,
12042249,000001A1,false,Rx,0,8,04,44,1E,11,A6,0C,80,20,
12044433,00000157,false,Rx,0,8,D5,B7,09,C4,FF,E0,00,80,
12047275,0000019F,false,Rx,0,8,00,00,7D,0B,00,6A,90,FE,
12049323,00000435,false,Rx,0,8,FF,FF,1E,0B,2A,00,00,00,
12049822,000001C7,false,Rx,0,4,AA,A0,FF,C0,00,00,00,00,
12050283,00000155,false,Rx,0,8,3E,87,D0,54,58,40,02,B7,
12052274,000001A1,false,Rx,0,8,04,84,1E,11,76,0C,80,20,
12054424,00000157,false,Rx,0,8,D5,07,09,C4,FF,E0,00,80,
12054621,00000436,false,Rx,0,6,80,18,76,C9,FF,DC,00,00,
12057248,0000019F,false,Rx,0,8,00,00,7D,00,00,6A,90,FE,
12059845,000001C7,false,Rx,0,4,AA,A0,FF,C0,00,00,00,00,
12060220,00000155,false,Rx,0,8,3E,87,D0,54,58,40,02,B7,
12062247,000001A1,false,Rx,0,8,04,44,1E,11,76,0C,80,20,
12064423,00000157,false,Rx,0,8,D5,57,09,C4,FF,E0,00,80,
12065272,00000445,false,Rx,0,7,80,55,AA,65,04,82,00,00,
12067276,0000019F,false,Rx,0,8,00,00,7D,05,00,6A,90,FE,
12069854,000001C7,false,Rx,0,4,AA,A0,FF,C0,00,00,00,00,
12070328,00000155,false,Rx,0,8,3E,87,D0,54,58,40,02,B7,
12072277,000001A1,false,Rx,0,8,04,44,1E,11,B6,0C,80,20,
12074323,00000157,false,Rx,0,8,D5,A7,09,C4,FF,E0,00,80,
12077247,0000019F,false,Rx,0,8,00,00,7D,0A,00,6A,90,FE,
12077518,00000419,false,Rx,0,6,57,00,28,00,30,00,00,00,
12079839,000001C7,false,Rx,0,4,AA,A0,FF,C0,00,00,00,00,
12080248,00000155,false,Rx,0,8,3E,87,D0,54,58,40,02,B7,
12082223,000001A1,false,Rx,0,8,04,84,32,11,B6,0C,80,20,
12084347,00000157,false,Rx,0,8,D5,F7,09,C4,FF,E0,00,80,
12087248,0000019F,false,Rx,0,8,00,00,7D,0F,00,6A,90,FE,
12089947,000004F7,false,Rx,0,8,00,19,08,00,B0,20,06,F0,
12090069,000001C7,false,Rx,0,4,AA,A0,FF,C0,00,00,00,00,
12090316,00000155,false,Rx,0,8,3E,87,D0,54,58,40,02,B7,
12090565,00000428,false,Rx,0,8,00,00,00,7F,00,00,00,00,
12090737,0000042F,false,Rx,0,2,00,20,00,00,00,00,00,00,
12092266,000001A1,false,Rx,0,8,04,44,1E,11,66,0C,80,20,
12094322,00000157,false,Rx,0,8,D5,47,09,C4,FF,E0,00,80,
12097249,0000019F,false,Rx,0,8,00,00,7D,04,00,6A,90,FE,
12099876,000001C7,false,Rx,0,4,AA,A0,FF,C0,00,00,00,00,
12100333,00000155,false,Rx,0,8,3E,87,D0,54,58,40,02,B7,
12102274,000001A1,false,Rx,0,8,04,44,1E,11,76,0C,80,20,
12104348,00000157,false,Rx,0,8,D5,97,09,C4,FF,E0,00,80,
12107248,0000019F,false,Rx,0,8,00,00,7D,09,00,6A,90,FE,
12109856,000001C7,false,Rx,0,4,AA,A0,FF,C0,00,00,00,00,
12110350,00000155,false,Rx,0,8,3E,87,D0,54,58,40,02,B7,
12112254,000001A1,false,Rx,0,8,04,84,1E,11,96,0C,80,20,
12114400,00000157,false,Rx,0,8,D5,E7,09,C4,FF,E0,00,80,
12117249,0000019F,false,Rx,0,8,00,00,7D,0E,00,6A,90,FE,
12119847,000001C7,false,Rx,0,4,AA,A0,FF,C0,00,00,00,00,
12120221,00000155,false,Rx,0,8,3E,87,D0,54,58,40,02,B7,
12122246,000001A1,false,Rx,0,8,04,44,1E,11,96,0C,80,20,
12124397,00000157,false,Rx,0,8,D5,37,09,C4,FF,E0,00,80,
12127250,0000019F,false,Rx,0,8,00,00,7D,03,00,6A,90,FE,
12127548,00000511,false,Rx,0,7,04,F5,10,05,58,B5,AC,00,
12129275,00000423,false,Rx,0,8,07,1E,00,01,B2,A0,B2,CB,
12129873,000001C7,false,Rx,0,4,AA,A0,FF,C0,00,00,00,00,
12130271,00000155,false,Rx,0,8,3E,87,D0,54,58,40,02,B7,
12130494,00000424,false,Rx,0,8,11,40,56,C0,2D,5E,AA,2E,
12130716,00000425,false,Rx,0,8,24,65,44,9C,42,0C,B1,04,
12132248,000001A1,false,Rx,0,8,04,44,1E,11,B6,0C,80,20,
12134324,00000157,false,Rx,0,8,D5,87,09,C4,FF,E0,00,80,
12134576,00000426,false,Rx,0,8,00,00,02,00,59,5C,00,40,
12137253,0000019F,false,Rx,0,8,00,00,7D,08,00,6A,90,FE,
12139905,000001C7,false,Rx,0,4,AA,A0,FF,C0,00,00,00,00,
12140262,00000155,false,Rx,0,8,3E,87,D0,54,58,40,02,B7,
12142274,000001A1,false,Rx,0,8,04,84,1E,11,96,0C,80,20,
12144376,00000157,false,Rx,0,8,D5,D7,09,C4,FF,E0,00,80,
12147275,0000019F,false,Rx,0,8,00,00,7D,0D,00,6A,90,FE,
12149327,00000435,false,Rx,0,8,FF,FF,1E,0B,2A,00,00,00,
12149901,000001C7,false,Rx,0,4,AA,A0,FF,C0,00,00,00,00,
12150275,00000155,false,Rx,0,8,3E,87,D0,54,58,40,02,B7,
12152280,000001A1,false,Rx,0,8,04,44,1E,11,76,0C,80,20,
12154398,00000157,false,Rx,0,8,D5,27,09,C4,FF,E0,00,80,
12154646,00000436,false,Rx,0,6,80,18,76,C9,FF,DC,00,00,
12157279,0000019F,false,Rx,0,8,00,00,7D,02,00,6A,90,FE,
12159924,000001C7,false,Rx,0,4,AA,A0,FF,C0,00,00,00,00,
12160248,00000155,false,Rx,0,8,3E,87,D0,54,58,40,02,B7,
12162276,000001A1,false,Rx,0,8,04,44,1E,11,A6,0C,80,20,
12164348,00000157,false,Rx,0,8,D5,77,09,C4,FF,E0,00,80,
12165221,00000445,false,Rx,0,7,80,55,AA,65,04,82,00,00,
12167275,0000019F,false,Rx,0,8,00,00,7D,07,00,6A,90,FE,
12169925,000001C7,false,Rx,0,4,AA,A0,FF,C0,00,00,00,00,
12170274,00000155,false,Rx,0,8,3E,87,D0,54,58,40,02,B7,
12172274,000001A1,false,Rx,0,8,04,84,1E,11,A6,0C,80,20,
12174423,00000157,false,Rx,0,8,D5,C7,09,C4,FF,E0,00,80,
12177275,0000019F,false,Rx,0,8,00,00,7D,0C,00,6A,90,FE,
12177570,00000419,false,Rx,0,6,57,00,28,00,30,00,00,00,
12179924,000001C7,false,Rx,0,4,AA,A0,FF,C0,00,00,00,00,
12180298,00000155,false,Rx,0,8,3E,87,D0,54,58,40,02,B7,
12182274,000001A1,false,Rx,0,8,04,44,1E,11,76,0C,80,20,
12184449,00000157,false,Rx,0,8,D5,17,09,C4,FF,E0,00,80,
12187299,0000019F,false,Rx,0,8,00,00,7D,01,00,6A,90,FE,
12189973,000004F7,false,Rx,0,8,00,19,08,00,B0,20,06,F0,
12190146,000001C7,false,Rx,0,4,AA,A0,FF,C0,00,00,00,00,
12190394,00000155,false,Rx,0,8,3E,87,D0,54,58,40,02,B7,
12190640,00000428,false,Rx,0,8,00,00,00,7F,00,00,00,00,
12190812,0000042F,false,Rx,0,2,00,20,00,00,00,00,00,00,
12192277,000001A1,false,Rx,0,8,04,44,1E,11,96,0C,80,20,
12194326,00000157,false,Rx,0,8,D5,67,09,C4,FF,E0,00,80,
12197298,0000019F,false,Rx,0,8,00,00,7D,06,00,6A,90,FE,
12199978,000001C7,false,Rx,0,4,AA,A0,FF,C0,00,00,00,00,
12200271,00000155,false,Rx,0,8,3E,87,D0,54,58,40,02,B7,
12202247,000001A1,false,Rx,0,8,04,84,1E,11,96,0C,80,20,
12204324,00000157,false,Rx,0,8,D5,B7,09,C4,FF,E0,00,80,
12207303,0000019F,false,Rx,0,8,00,00,7D,0B,00,6A,90,FE,
12209978,000001C7,false,Rx,0,4,AA,A0,FF,C0,00,00,00,00,
12210521,00000155,false,Rx,0,8,3E,87,D0,54,58,40,02,B7,
12212303,000001A1,false,Rx,0,8,04,44,1E,11,96,0C,80,20,
12214377,00000157,false,Rx,0,8,D5,07,09,C4,FF,E0,00,80,
12217279,0000019F,false,Rx,0,8,00,00,7D,00,00,6A,90,FE,
12219978,000001C7,false,Rx,0,4,AA,A0,FF,C0,00,00,00,00,
12220249,00000155,false,Rx,0,8,3E,87,D0,54,58,40,02,B7,
12222278,000001A1,false,Rx,0,8,04,44,1E,11,A6,0C,80,20,
12224428,00000157,false,Rx,0,8,D5,57,09,C4,FF,E0,00,80,
12227301,0000019F,false,Rx,0,8,00,00,7D,05,00,6A,90,FE,
12227576,00000511,false,Rx,0,7,04,34,D9,BE,C3,C2,8F,00,
12229328,00000423,false,Rx,0,8,07,1E,00,01,B2,A0,B2,CB,
12229921,000001C7,false,Rx,0,4,AA,A0,FF,C0,00,00,00,00,
12230278,00000155,false,Rx,0,8,3E,87,D0,54,58,40,02,B7,
12230493,00000424,false,Rx,0,8,11,40,56,C0,2D,5E,AA,2E,
12230746,00000425,false,Rx,0,8,24,65,44,9C,42,0C,B1,04,
12230980,000004AE,false,Rx,0,8,D2,B2,3C,A0,92,5A,88,84,
12231125,00000659,false,Rx,0,4,26,00,03,36,00,00,00,00,
12231316,000004AF,false,Rx,0,5,65,11,4B,3A,40,00,00,00,
12232303,000001A1,false,Rx,0,8,04,84,1E,11,76,0C,80,20,
12234453,00000157,false,Rx,0,8,D5,A7,09,C4,FF,E0,00,80,
12234704,00000426,false,Rx,0,8,00,00,02,00,59,5C,00,40,
12237277,0000019F,false,Rx,0,8,00,00,7D,0A,00,6A,90,FE,
12239934,000001C7,false,Rx,0,4,AA,A0,FF,C0,00,00,00,00,
12240276,00000155,false,Rx,0,8,3E,87,D0,54,58,40,02,B7,
12242304,000001A1,false,Rx,0,8,04,44,1E,11,56,0C,80,20,
12244404,00000157,false,Rx,0,8,D5,F7,09,C4,FF,E0,00,80,
12247302,0000019F,false,Rx,0,8,00,00,7D,0F,00,6A,90,FE,
12249303,00000435,false,Rx,0,8,FF,FF,1E,0B,2A,00,00,00,
12249925,000001C7,false,Rx,0,4,AA,A0,FF,C0,00,00,00,00,
12250277,00000155,false,Rx,0,8,3E,87,D0,54,58,40,02,B7,
12252277,000001A1,false,Rx,0,8,04,44,1E,11,B6,0C,80,20,
12254325,00000157,false,Rx,0,8,D5,47,09,C4,FF,E0,00,80,
12254520,00000436,false,Rx,0,6,80,18,76,C9,FF,DC,00,00,
12257276,0000019F,false,Rx,0,8,00,00,7D,04,00,6A,90,FE,
12259948,000001C7,false,Rx,0,4,AA,A0,FF,C0,00,00,00,00,
12260218,00000155,false,Rx,0,8,3E,87,D0,54,58,40,02,B7,
12262283,000001A1,false,Rx,0,8,04,84,1E,11,B6,0C,80,20,
12264425,00000157,false,Rx,0,8,D5,97,09,C4,FF,E0,00,80,
12265312,00000445,false,Rx,0,7,80,55,AA,65,04,82,00,00,
12267401,0000019F,false,Rx,0,8,00,00,7D,09,00,6A,90,FE,
12269912,000001C7,false,Rx,0,4,AA,A0,FF,C0,00,00,00,00,
12270277,00000155,false,Rx,0,8,3E,87,D0,54,58,40,02,B7,
12272373,000001A1,false,Rx,0,8,04,44,1E,11,86,0C,80,20,
12274339,00000157,false,Rx,0,8,D5,E7,09,C4,FF,E0,00,80,
12277303,0000019F,false,Rx,0,8,00,00,7D,0E,00,6A,90,FE,
12277545,00000419,false,Rx,0,6,57,00,28,00,30,00,00,00,
12279949,000001C7,false,Rx,0,4,AA,A0,FF,C0,00,00,00,00,
12280247,00000155,false,Rx,0,8,3E,87,D0,54,58,40,02,B7,
12282276,000001A1,false,Rx,0,8,04,44,1E,11,96,0C,80,20,
12284399,00000157,false,Rx,0,8,D5,37,09,C4,FF,E0,00,80,
12287274,0000019F,false,Rx,0,8,00,00,7D,03,00,6A,90,FE,
12289999,000004F7,false,Rx,0,8,00,19,08,00,B0,20,06,F0,
12290168,000001C7,false,Rx,0,4,AA,A0,FF,C0,00,00,00,00,
12290416,00000155,false,Rx,0,8,3E,87,D0,54,58,40,02,B7,
12290663,00000428,false,Rx,0,8,00,00,00,7F,00,00,00,00,
12290784,0000042F,false,Rx,0,2,00,20,00,00,00,00,00,00,
12292270,000001A1,false,Rx,0,8,04,84,1E,11,96,0C,80,20,
12294375,00000157,false,Rx,0,8,D5,87,09,C4,FF,E0,00,80,
12297274,0000019F,false,Rx,0,8,00,00,7D,08,00,6A,90,FE,
12299951,000001C7,false,Rx,0,4,AA,A0,FF,C0,00,00,00,00,
12300294,00000155,false,Rx,0,8,3E,87,D0,54,58,40,02,B7,
12302273,000001A1,false,Rx,0,8,04,44,1E,11,96,0C,80,20,
12304428,00000157,false,Rx,0,8,D5,D7,09,C4,FF,E0,00,80,
12307276,0000019F,false,Rx,0,8,00,00,7D,0D,00,6A,90,FE,
12309947,000001C7,false,Rx,0,4,AA,A0,FF,C0,00,00,00,00,
12310294,00000155,false,Rx,0,8,3E,87,D0,54,58,40,02,B7,
12312273,000001A1,false,Rx,0,8,04,44,1E,11,B6,0C,80,20,
12314374,00000157,false,Rx,0,8,D5,27,09,C4,FF,E0,00,80,
12317273,0000019F,false,Rx,0,8,00,00,7D,02,00,6A,90,FE,
12319948,000001C7,false,Rx,0,4,AA,A0,FF,C0,00,00,00,00,
12320196,00000155,false,Rx,0,8,3E,87,D0,54,58,40,02,B7,
12322272,000001A1,false,Rx,0,8,04,84,1E,11,96,0C,80,20,
12324373,00000157,false,Rx,0,8,D5,77,09,C4,FF,E0,00,80,
12327274,0000019F,false,Rx,0,8,00,00,7D,07,00,6A,90,FE,
12327545,00000511,false,Rx,0,7,04,73,A2,77,2E,CF,72,00,
12329249,00000423,false,Rx,0,8,07,1E,00,01,B2,A0,B2,CB,
12329947,000001C7,false,Rx,0,4,AA,A0,FF,C0,00,00,00,00,
12330244,00000155,false,Rx,0,8,3E,87,D0,54,58,40,02,B7,
12330503,00000424,false,Rx,0,8,11,40,56,C0,2D,5E,AA,2E,
12330712,00000425,false,Rx,0,8,24,65,44,9C,42,0A,B1,04,
12332273,000001A1,false,Rx,0,8,04,44,1E,11,76,0C,80,20,
12334348,00000157,false,Rx,0,8,D5,C7,09,C4,FF,E0,00,80,
12334593,00000426,false,Rx,0,8,00,00,02,00,59,5C,00,40,
12337272,0000019F,false,Rx,0,8,00,00,7D,0C,00,6A,90,FE,
12339949,000001C7,false,Rx,0,4,AA,A0,FF,C0,00,00,00,00,
12340219,00000155,false,Rx,0,8,3E,87,D0,54,58,40,02,B7,
12342275,000001A1,false,Rx,0,8,04,44,1E,11,B6,0C,80,20,
12344425,00000157,false,Rx,0,8,D5,17,09,C4,FF,E0,00,80,
12347274,0000019F,false,Rx,0,8,00,00,7D,01,00,6A,90,FE,
12349348,00000435,false,Rx,0,8,FF,FF,1E,0B,2A,00,00,00,
12349973,000001C7,false,Rx,0,4,AA,A0,FF,C0,00,00,00,00,
12350220,00000155,false,Rx,0,8,3E,87,D0,54,58,40,02,B7,
12352273,000001A1,false,Rx,0,8,04,84,1E,11,C6,0C,80,20,
12354322,00000157,false,Rx,0,8,D5,67,09,C4,FF,E0,00,80,
12354544,00000436,false,Rx,0,6,80,18,76,C9,FF,DC,00,00,
12357271,0000019F,false,Rx,0,8,00,00,7D,06,00,6A,90,FE,
12359973,000001C7,false,Rx,0,4,AA,A0,FF,C0,00,00,00,00,
12360196,00000155,false,Rx,0,8,3E,87,D0,54,58,40,02,B7,
12362288,000001A1,false,Rx,0,8,04,44,1E,11,76,0C,80,20,
12364336,00000157,false,Rx,0,8,D5,B7,09,C4,FF,E0,00,80,
12365250,00000445,false,Rx,0,7,80,55,AA,65,04,82,00,00,
12367278,0000019F,false,Rx,0,8,00,00,7D,0B,00,6A,90,FE,
12369992,000001C7,false,Rx,0,4,AA,A0,FF,C0,00,00,00,00,
12370249,00000155,false,Rx,0,8,3E,87,D0,54,58,40,02,B7,
12372280,000001A1,false,Rx,0,8,04,44,1E,11,76,0C,80,20,
12374342,00000157,false,Rx,0,8,D5,07,09,C4,FF,E0,00,80,
12377294,0000019F,false,Rx,0,8,00,00,7D,00,00,6A,90,FE,
12377545,00000419,false,Rx,0,6,57,00,28,00,30,00,00,00,
12379977,000001C7,false,Rx,0,4,AA,A0,FF,C0,00,00,00,00,
12380272,00000155,false,Rx,0,8,3E,87,D0,54,58,40,02,B7,
12382275,000001A1,false,Rx,0,8,04,44,1E,11,76,0C,80,20,
12384378,00000157,false,Rx,0,8,D5,57,09,C4,FF,E0,00,80,
12387303,0000019F,false,Rx,0,8,00,00,7D,05,00,6A,90,FE,
12390050,000004F7,false,Rx,0,8,00,19,08,00,B0,20,06,F0,
12390295,00000155,false,Rx,0,8,3E,87,D0,54,58,40,02,B7,
12390442,000001C7,false,Rx,0,4,AA,A0,FF,C0,00,00,00,00,
12390740,00000428,false,Rx,0,8,00,00,00,7F,00,00,00,00,
12390861,0000042F,false,Rx,0,2,00,20,00,00,00,00,00,00,
12392271,000001A1,false,Rx,0,8,04,44,1E,11,96,0C,80,20,
12394323,00000157,false,Rx,0,8,D5,A7,09,C4,FF,E0,00,80,
12397303,0000019F,false,Rx,0,8,00,00,7D,0A,00,6A,90,FE,
12400001,000001C7,false,Rx,0,4,AA,A0,FF,C0,00,00,00,00,
12400246,00000155,false,Rx,0,8,3E,87,D0,54,58,40,02,B7,
12402274,000001A1,false,Rx,0,8,04,44,1E,11,B6,0C,80,20,
12404399,00000157,false,Rx,0,8,D5,F7,09,C4,FF,E0,00,80,
12407274,0000019F,false,Rx,0,8,00,00,7D,0F,00,6A,90,FE,
12409999,000001C7,false,Rx,0,4,AA,A0,FF,C0,00,00,00,00,
12410248,00000155,false,Rx,0,8,3E,87,D0,54,58,40,02,B7,
12412276,000001A1,false,Rx,0,8,04,44,1E,11,A6,0C,80,20,
12414376,00000157,false,Rx,0,8,D5,47,09,C4,FF,E0,00,80,
12417301,0000019F,false,Rx,0,8,00,00,7D,04,00,6A,90,FE,
12420019,000001C7,false,Rx,0,4,AA,A0,FF,C0,00,00,00,00,
12420224,00000155,false,Rx,0,8,3E,87,D0,54,58,40,02,B7,
12422276,000001A1,false,Rx,0,8,04,44,1E,11,66,0C,80,20,
12424351,00000157,false,Rx,0,8,D5,97,09,C4,FF,E0,00,80,
12427278,0000019F,false,Rx,0,8,00,00,7D,09,00,6A,90,FE,
12427572,00000511,false,Rx,0,7,04,B2,6B,30,99,DC,55,00,
12429326,00000423,false,Rx,0,8,07,1E,00,01,B2,A0,B2,CB,
12430025,000001C7,false,Rx,0,4,AA,A0,FF,C0,00,00,00,00,
12430247,00000155,false,Rx,0,8,3E,87,D0,54,58,40,02,B7,
12430476,00000424,false,Rx,0,8,11,40,56,C0,2D,5E,AA,2E,
12430693,00000425,false,Rx,0,8,24,65,44,9C,42,0C,B1,04,
12432274,000001A1,false,Rx,0,8,04,44,1E,11,96,0C,80,20,
12434375,00000157,false,Rx,0,8,D5,E7,09,C4,FF,E0,00,80,
12434596,00000426,false,Rx,0,8,00,00,02,00,59,5C,00,40,
12437297,0000019F,false,Rx,0,8,00,00,7D,0E,00,6A,90,FE,
12440001,000001C7,false,Rx,0,4,AA,A0,FF,C0,00,00,00,00,
12440246,00000155,false,Rx,0,8,3E,87,D0,54,58,40,02,B7,
12442275,000001A1,false,Rx,0,8,04,44,1E,11,96,0C,80,20,
12444376,00000157,false,Rx,0,8,D5,37,09,C4,FF,E0,00,80,
12447301,0000019F,false,Rx,0,8,00,00,7D,03,00,6A,90,FE,
12449249,00000435,false,Rx,0,8,FF,FF,1E,0B,2A,00,00,00,
12450023,000001C7,false,Rx,0,4,AA,A0,FF,C0,00,00,00,00,
12450245,00000155,false,Rx,0,8,3E,87,D0,54,58,40,02,B7,
12452275,000001A1,false,Rx,0,8,04,44,1E,11,76,0C,80,20,
12454374,00000157,false,Rx,0,8,D5,87,09,C4,FF,E0,00,80,
12454570,00000436,false,Rx,0,6,80,18,76,C9,FF,DC,00,00,
12457299,0000019F,false,Rx,0,8,00,00,7D,08,00,6A,90,FE,
12460030,000001C7,false,Rx,0,4,AA,A0,FF,C0,00,00,00,00,
12460278,00000155,false,Rx,0,8,3E,87,D0,54,58,40,02,B7,
12462298,000001A1,false,Rx,0,8,04,44,1E,11,96,0C,80,20,
12464376,00000157,false,Rx,0,8,D5,D7,09,C4,FF,E0,00,80,
12465224,00000445,false,Rx,0,7,80,55,AA,65,04,82,00,00,
12467298,0000019F,false,Rx,0,8,00,00,7D,0D,00,6A,90,FE,
12470026,000001C7,false,Rx,0,4,AA,A0,FF,C0,00,00,00,00,
12470269,00000155,false,Rx,0,8,3E,87,D0,54,58,40,02,B7,
12472272,000001A1,false,Rx,0,8,04,44,1E,11,96,0C,80,20,
12474425,00000157,false,Rx,0,8,D5,27,09,C4,FF,E0,00,80,
12477302,0000019F,false,Rx,0,8,00,00,7D,02,00,6A,90,FE,
12477569,00000419,false,Rx,0,6,57,00,28,00,30,00,00,00,
12480024,000001C7,false,Rx,0,4,AA,A0,FF,C0,00,00,00,00,
12480270,00000155,false,Rx,0,8,3E,87,D0,54,58,40,02,B7,
12482305,000001A1,false,Rx,0,8,04,44,1E,11,96,0C,80,20,
12484398,00000157,false,Rx,0,8,D5,77,09,C4,FF,E0,00,80,
12487297,0000019F,false,Rx,0,8,00,00,7D,07,00,6A,90,FE,
12490124,000004F7,false,Rx,0,8,00,19,08,00,B0,20,06,F0,
12490344,00000155,false,Rx,0,8,3E,87,D0,54,58,40,02,B7,
12490515,000001C7,false,Rx,0,4,AA,A0,FF,C0,00,00,00,00,
12490789,00000428,false,Rx,0,8,00,00,00,7F,00,00,00,00,
12490946,0000042F,false,Rx,0,2,00,20,00,00,00,00,00,00,
12492297,000001A1,false,Rx,0,8,04,44,1E,11,C6,0C,80,20,
12494423,00000157,false,Rx,0,8,D5,C7,09,C4,FF,E0,00,80,
12497299,0000019F,false,Rx,0,8,00,00,7D,0C,00,6A,90,FE,
12500048,000001C7,false,Rx,0,4,AA,A0,FF,C0,00,00,00,00,
12500295,00000155,false,Rx,0,8,3E,87,D0,54,58,40,02,B7,
12502299,000001A1,false,Rx,0,8,04,44,1E,11,A6,0C,80,20,
12504423,00000157,false,Rx,0,8,D5,17,09,C4,FF,E0,00,80,
12507299,0000019F,false,Rx,0,8,00,00,7D,01,00,6A,90,FE,
12510049,000001C7,false,Rx,0,4,AA,A0,FF,C0,00,00,00,00,
12510270,00000155,false,Rx,0,8,3E,87,D0,54,58,40,02,B7,
12512297,000001A1,false,Rx,0,8,04,44,1E,11,66,0C,80,20,
12514373,00000157,false,Rx,0,8,D5,67,09,C4,FF,E0,00,80,
12517300,0000019F,false,Rx,0,8,00,00,7D,06,00,6A,90,FE,
12520048,000001C7,false,Rx,0,4,AA,A0,FF,C0,00,00,00,00,
12520295,00000155,false,Rx,0,8,3E,87,D0,54,58,40,02,B7,
12522297,000001A1,false,Rx,0,8,04,44,1E,11,96,0C,80,20,
12524373,00000157,false,Rx,0,8,D5,B7,09,C4,FF,E0,00,80,
12527298,0000019F,false,Rx,0,8,00,00,7D,0B,00,6A,90,FE,
12527597,00000511,false,Rx,0,7,04,F1,34,E9,04,E9,38,00,
12529299,00000423,false,Rx,0,8,07,1E,00,01,5D,A0,5D,CB,
12530072,000001C7,false,Rx,0,4,AA,A0,FF,C0,00,00,00,00,
12530294,00000155,false,Rx,0,8,3E,87,D0,54,58,40,02,B7,
12530541,00000424,false,Rx,0,8,11,40,56,C0,2D,5E,AA,2E,
12530763,00000425,false,Rx,0,8,24,65,44,9C,42,0A,B1,04,
12532296,000001A1,false,Rx,0,8,04,44,1E,11,A6,0C,80,20,
12534322,00000157,false,Rx,0,8,D5,07,09,C4,FF,E0,00,80,
12534568,00000426,false,Rx,0,8,00,00,02,00,59,5C,00,40,
12537297,0000019F,false,Rx,0,8,00,00,7D,00,00,6A,90,FE,
12540073,000001C7,false,Rx,0,4,AA,A0,FF,C0,00,00,00,00,
12540295,00000155,false,Rx,0,8,3E,87,D0,54,58,40,02,B7,
12542299,000001A1,false,Rx,0,8,04,44,1E,11,96,0C,80,20,
12544298,00000157,false,Rx,0,8,D5,57,09,C4,FF,E0,00,80,
12547298,0000019F,false,Rx,0,8,00,00,7D,05,00,6A,90,FE,
12549323,00000435,false,Rx,0,8,FF,FF,1E,0B,2A,00,00,00,
12550072,000001C7,false,Rx,0,4,AA,A0,FF,C0,00,00,00,00,
12550294,00000155,false,Rx,0,8,3E,87,D0,54,58,40,02,B7,
12552296,000001A1,false,Rx,0,8,04,44,1E,11,96,0C,80,20,
12554354,00000157,false,Rx,0,8,D5,A7,09,C4,FF,E0,00,80,
12554568,00000436,false,Rx,0,6,80,18,76,C9,FF,DC,00,00,
12557299,0000019F,false,Rx,0,8,00,00,7D,0A,00,6A,90,FE,
12560073,000001C7,false,Rx,0,4,AA,A0,FF,C0,00,00,00,00,
12560319,00000155,false,Rx,0,8,3E,87,D0,54,58,40,02,B7,
12562297,000001A1,false,Rx,0,8,04,44,1E,11,86,0C,80,20,
12564299,00000157,false,Rx,0,8,D5,F7,09,C4,FF,E0,00,80,
12565197,00000445,false,Rx,0,7,80,55,55,65,04,82,00,00,
12567299,0000019F,false,Rx,0,8,00,00,7D,0F,00,6A,90,FE,
12570073,000001C7,false,Rx,0,4,AA,A0,FF,C0,00,00,00,00,
12570320,00000155,false,Rx,0,8,3E,87,D0,54,58,40,02,B7,
12572297,000001A1,false,Rx,0,8,04,44,1E,11,76,0C,80,20,
12574397,00000157,false,Rx,0,8,D5,47,09,C4,FF,E0,00,80,
12577322,0000019F,false,Rx,0,8,00,00,7D,04,00,6A,90,FE,
12577568,00000419,false,Rx,0,6,57,00,28,00,30,00,00,00,
12580108,000001C7,false,Rx,0,4,AA,A0,FF,C0,00,00,00,00,
12580320,00000155,false,Rx,0,8,3E,87,D0,54,58,40,02,B7,
12582299,000001A1,false,Rx,0,8,04,44,1E,11,B6,0C,80,20,
12584324,00000157,false,Rx,0,8,D5,97,09,C4,FF,E0,00,80,
12587299,0000019F,false,Rx,0,8,00,00,7D,09,00,6A,90,FE,
12590175,000004F7,false,Rx,0,8,00,19,08,00,B0,20,06,F0,
12590394,00000155,false,Rx,0,8,3E,87,D0,54,58,40,02,B7,
12590566,000001C7,false,Rx,0,4,AA,A0,FF,C0,00,00,00,00,
12590839,00000428,false,Rx,0,8,00,00,00,7F,00,00,00,00,
12590971,0000042F,false,Rx,0,2,00,20,00,00,00,00,00,00,
12592297,000001A1,false,Rx,0,8,04,44,1E,11,96,0C,80,20,
12594399,00000157,false,Rx,0,8,D5,E7,09,C4,FF,E0,00,80,
12597320,0000019F,false,Rx,0,8,00,00,7D,0E,00,6A,90,FE,
12600099,000001C7,false,Rx,0,4,AA,A0,FF,C0,00,00,00,00,
12600345,00000155,false,Rx,0,8,3E,87,D0,54,58,40,02,B7,
12602322,000001A1,false,Rx,0,8,04,44,1E,11,76,0C,80,20,
12604347,00000157,false,Rx,0,8,D5,37,09,C4,FF,E0,00,80,
12607298,0000019F,false,Rx,0,8,00,00,7D,03,00,6A,90,FE,
12610126,000001C7,false,Rx,0,4,AA,A0,FF,C0,00,00,00,00,
12610345,00000155,false,Rx,0,8,3E,87,D0,54,58,40,02,B7,
12612298,000001A1,false,Rx,0,8,04,44,1E,11,96,0C,80,20,
12614375,00000157,false,Rx,0,8,D5,87,09,C4,FF,E0,00,80,
12617324,0000019F,false,Rx,0,8,00,00,7D,08,00,6A,90,FE,
12620175,00000155,false,Rx,0,8,3E,87,D0,54,58,40,02,B7,
12620342,000001C7,false,Rx,0,4,AA,A0,FF,C0,00,00,00,00,
12622323,000001A1,false,Rx,0,8,04,44,1E,11,B6,0C,80,20,
12624399,00000157,false,Rx,0,8,D5,D7,09,C4,FF,E0,00,80,
12627325,0000019F,false,Rx,0,8,00,00,7D,0D,00,6A,90,FE,
12627594,00000511,false,Rx,0,7,04,30,FD,A2,6F,F6,1B,00,
12629248,00000423,false,Rx,0,8,07,1E,00,01,5D,A0,5D,CB,
12630122,000001C7,false,Rx,0,4,AA,A0,FF,C0,00,00,00,00,
12630343,00000155,false,Rx,0,8,3E,87,D0,54,58,40,02,B7,
12630590,00000424,false,Rx,0,8,11,40,56,C0,2D,5E,55,2E,
12630813,00000425,false,Rx,0,8,24,65,44,9C,42,0A,B1,05,
12632295,000001A1,false,Rx,0,8,04,44,1E,11,86,0C,80,20,
12634321,00000157,false,Rx,0,8,D5,27,09,C4,FF,E0,00,80,
12634568,00000426,false,Rx,0,8,00,00,02,00,59,5C,00,40,
12635370,0000069F,false,Rx,0,4,71,30,28,2F,00,00,00,00,
12637329,0000019F,false,Rx,0,8,00,00,7D,02,00,6A,90,FE,
12640174,00000155,false,Rx,0,8,3E,87,D0,54,58,40,02,B7,
12640344,000001C7,false,Rx,0,4,AA,A0,FF,C0,00,00,00,00,
12642297,000001A1,false,Rx,0,8,04,44,1E,11,96,0C,80,20,
12644297,00000157,false,Rx,0,8,D5,77,09,C4,FF,E0,00,80,
12647299,0000019F,false,Rx,0,8,00,00,7D,07,00,6A,90,FE,
12649325,00000435,false,Rx,0,8,FF,FF,1E,0B,2A,00,00,00,
12650197,00000155,false,Rx,0,8,3E,87,D0,54,58,40,02,B7,
12650367,000001C7,false,Rx,0,4,AA,A0,FF,C0,00,00,00,00,
12652322,000001A1,false,Rx,0,8,04,44,1E,11,76,0C,80,20,
12654322,00000157,false,Rx,0,8,D5,C7,09,C4,FF,E0,00,80,
12654518,00000436,false,Rx,0,6,80,18,76,C9,FF,DC,00,00,
12657297,0000019F,false,Rx,0,8,00,00,7D,0C,00,6A,90,FE,
12660174,00000155,false,Rx,0,8,3E,87,D0,54,58,40,02,B7,
12660344,000001C7,false,Rx,0,4,AA,A0,FF,C0,00,00,00,00,
12662322,000001A1,false,Rx,0,8,04,44,1E,11,96,0C,80,20,
12664322,00000157,false,Rx,0,8,D5,17,09,C4,FF,E0,00,80,
12665194,00000445,false,Rx,0,7,80,55,55,65,04,82,00,00,
12667321,0000019F,false,Rx,0,8,00,00,7D,01,00,6A,90,FE,
12670146,000001C7,false,Rx,0,4,AA,A0,FF,C0,00,00,00,00,
12670367,00000155,false,Rx,0,8,3E,87,CF,54,58,40,02,B7,
12672324,000001A1,false,Rx,0,8,04,44,1E,11,B6,0C,80,20,
12674322,00000157,false,Rx,0,8,D5,67,09,C4,FF,E0,00,80,
12677324,0000019F,false,Rx,0,8,00,00,7D,06,00,6A,90,FE,
12677593,00000419,false,Rx,0,6,57,00,28,00,30,00,00,00,
12680197,00000155,false,Rx,0,8,3E,87,D0,54,58,40,02,B7,
12680368,000001C7,false,Rx,0,4,AA,A0,FF,C0,00,00,00,00,
12682321,000001A1,false,Rx,0,8,04,44,1E,11,B6,0C,80,20,
12684323,00000157,false,Rx,0,8,D5,B7,09,C4,FF,E0,00,80,
12687323,0000019F,false,Rx,0,8,00,00,7D,0B,00,6A,90,FE,
12690223,000004F7,false,Rx,0,8,00,19,08,00,B0,20,06,F0,
12690446,00000155,false,Rx,0,8,3E,87,D0,54,58,40,02,B7,
12690642,000001C7,false,Rx,0,4,AA,A0,FF,C0,00,00,00,00,
12690865,00000428,false,Rx,0,8,00,00,00,7F,00,00,00,00,
12691024,0000042F,false,Rx,0,2,00,20,00,00,00,00,00,00,
12692321,000001A1,false,Rx,0,8,04,44,1E,11,66,0C,80,20,
12694372,00000157,false,Rx,0,8,D5,07,09,C4,FF,E0,00,80,
12697323,0000019F,false,Rx,0,8,00,00,7D,00,00,6A,90,FE,
12700173,000001C7,false,Rx,0,4,AA,A0,FF,C0,00,00,00,00,
12700394,00000155,false,Rx,0,8,3E,87,D0,54,58,40,02,B7,
12702321,000001A1,false,Rx,0,8,04,44,1E,11,96,0C,80,20,
12704372,00000157,false,Rx,0,8,D5,57,09,C4,FF,E0,00,80,
12707323,0000019F,false,Rx,0,8,00,00,7D,05,00,6A,90,FE,
12710172,000001C7,false,Rx,0,4,AA,A0,FF,C0,00,00,00,00,
12710393,00000155,false,Rx,0,8,3E,87,D0,54,58,40,02,B7,
12712326,000001A1,false,Rx,0,8,04,44,1E,11,A6,0C,80,20,
12714371,00000157,false,Rx,0,8,D5,A7,09,C4,FF,E0,00,80,
12717322,0000019F,false,Rx,0,8,00,00,7D,0A,00,6A,90,FE,
12720172,00000155,false,Rx,0,8,3E,87,D0,54,58,40,02,B7,
12720322,000001C7,false,Rx,0,4,AA,A0,FF,C0,00,00,00,00,
12722325,000001A1,false,Rx,0,8,04,44,1E,11,96,0C,80,20,
12724372,00000157,false,Rx,0,8,D5,F7,09,C4,FF,E0,00,80,
12727322,0000019F,false,Rx,0,8,00,00,7D,0F,00,6A,90,FE,
12727618,00000511,false,Rx,0,7,04,6F,C6,5B,DA,03,FE,00,
12729346,00000423,false,Rx,0,8,07,1E,00,01,5D,A0,5D,CB,
12730195,00000155,false,Rx,0,8,3E,87,D0,54,58,40,02,B6,
12730367,000001C7,false,Rx,0,4,AA,A0,FF,C0,00,00,00,00,
12730590,00000424,false,Rx,0,8,11,40,56,C0,2D,5E,55,2E,
12730836,00000425,false,Rx,0,8,24,65,44,9C,42,0A,B1,05,
12732320,000001A1,false,Rx,0,8,04,44,1E,11,96,0C,80,20,
12734330,00000157,false,Rx,0,8,D5,47,09,C4,FF,E0,00,80,
12734568,00000426,false,Rx,0,8,00,00,02,00,59,5C,00,40,
12737323,0000019F,false,Rx,0,8,00,00,7D,04,00,6A,90,FE,
12740172,00000155,false,Rx,0,8,3E,87,D0,54,58,40,02,B6,
12740343,000001C7,false,Rx,0,4,AA,A0,FF,C0,00,00,00,00,
12742321,000001A1,false,Rx,0,8,04,44,1E,11,76,0C,80,20,
12744346,00000157,false,Rx,0,8,D5,97,09,C4,FF,E0,00,80,
12747321,0000019F,false,Rx,0,8,00,00,7D,09,00,6A,90,FE,
12749322,00000435,false,Rx,0,8,FF,FF,1E,0B,2A,00,00,00,
12750196,00000155,false,Rx,0,8,3E,87,D0,54,58,40,02,B6,
12750342,000001C7,false,Rx,0,4,AA,A0,FF,C0,00,00,00,00,
12752322,000001A1,false,Rx,0,8,04,44,1E,11,76,0C,80,20,
12754372,00000157,false,Rx,0,8,D5,E7,09,C4,FF,E0,00,80,
12754593,00000436,false,Rx,0,6,80,18,76,C9,FF,DC,00,00,
12757321,0000019F,false,Rx,0,8,00,00,7D,0E,00,6A,90,FE,
12760171,00000155,false,Rx,0,8,3E,87,D0,54,58,40,02,B6,
12760342,000001C7,false,Rx,0,4,AA,A0,FF,C0,00,00,00,00,
12762320,000001A1,false,Rx,0,8,04,44,1E,11,B6,0C,80,20,
12764322,00000157,false,Rx,0,8,D5,37,09,C4,FF,E0,00,80,
12765195,00000445,false,Rx,0,7,80,55,55,65,04,82,00,00,
12767321,0000019F,false,Rx,0,8,00,00,7D,03,00,6A,90,FE,
12770196,00000155,false,Rx,0,8,3E,87,D0,54,58,40,02,B6,
12770368,000001C7,false,Rx,0,4,AA,A0,FF,C0,00,00,00,00,
12772321,000001A1,false,Rx,0,8,04,44,1E,11,A6,0C,80,20,
12774346,00000157,false,Rx,0,8,D5,87,09,C4,FF,E0,00,80,
12777347,0000019F,false,Rx,0,8,00,00,7D,08,00,6A,90,FE,
12777592,00000419,false,Rx,0,6,57,00,28,00,30,00,00,00,
12780246,00000155,false,Rx,0,8,3E,87,D0,54,58,40,02,B6,
12780390,000001C7,false,Rx,0,4,AA,A0,FF,C0,00,00,00,00,
12782320,000001A1,false,Rx,0,8,04,44,1E,11,76,0C,80,20,
12784382,00000157,false,Rx,0,8,D5,D7,09,C4,FF,E0,00,80,
12787321,0000019F,false,Rx,0,8,00,00,7D,0D,00,6A,90,FE,
12790246,00000155,false,Rx,0,8,3E,87,D0,54,58,40,02,B6,
12790467,000004F7,false,Rx,0,8,00,19,08,00,B0,20,06,F0,
12790639,000001C7,false,Rx,0,4,AA,A0,FF,C0,00,00,00,00,
12790945,00000428,false,Rx,0,8,00,00,00,7F,00,00,00,00,
12791041,0000042F,false,Rx,0,2,00,20,00,00,00,00,00,00,
12792345,000001A1,false,Rx,0,8,04,44,1E,11,86,0C,80,20,
12794321,00000157,false,Rx,0,8,D5,27,09,C4,FF,E0,00,80,
12797346,0000019F,false,Rx,0,8,00,00,7D,02,00,6A,90,FE,
12800197,00000155,false,Rx,0,8,3E,87,D0,54,58,40,02,B5,
12800368,000001C7,false,Rx,0,4,AA,A0,FF,C0,00,00,00,00,
12802321,000001A1,false,Rx,0,8,04,44,1E,11,96,0C,80,20,
12804296,00000157,false,Rx,0,8,D5,77,09,C4,FF,E0,00,80,
12807321,0000019F,false,Rx,0,8,00,00,7D,07,00,6A,90,FE,
12810196,00000155,false,Rx,0,8,3E,87,D0,54,58,40,02,B5,
12810367,000001C7,false,Rx,0,4,AA,A0,FF,C0,00,00,00,00,
12812344,000001A1,false,Rx,0,8,04,44,1E,11,96,0C,80,20,
12814396,00000157,false,Rx,0,8,D5,C7,09,C4,FF,E0,00,80,
12817321,0000019F,false,Rx,0,8,00,00,7D,0C,00,6A,90,FE,
12820171,00000155,false,Rx,0,8,3E,87,D0,54,58,40,02,B5,
12820342,000001C7,false,Rx,0,4,AA,A0,FF,C0,00,00,00,00,
12822320,000001A1,false,Rx,0,8,04,44,1E,11,B6,0C,80,20,
12824321,00000157,false,Rx,0,8,D5,17,09,C4,FF,E0,00,80,
12827322,0000019F,false,Rx,0,8,00,00,7D,01,00,6A,90,FE,
12827617,00000511,false,Rx,0,7,04,AE,8F,14,45,10,E1,00,
12829302,00000423,false,Rx,0,8,07,1E,00,01,5D,A0,5D,CB,
12830196,00000155,false,Rx,0,8,3E,87,D0,54,58,40,02,B5,
12830368,000001C7,false,Rx,0,4,AA,A0,FF,C0,00,00,00,00,
12830615,00000424,false,Rx,0,8,11,40,56,C0,2D,5E,55,2E,
12830811,00000425,false,Rx,0,8,24,65,44,9C,42,0C,B1,05,
12832346,000001A1,false,Rx,0,8,04,44,1E,11,96,0C,80,20,
12834347,00000157,false,Rx,0,8,D5,67,09,C4,FF,E0,00,80,
12834617,00000426,false,Rx,0,8,00,00,02,00,59,5C,00,40,
12837348,0000019F,false,Rx,0,8,00,00,7D,06,00,6A,90,FE,
12840173,00000155,false,Rx,0,8,3E,87,D0,54,58,40,02,B5,
12840343,000001C7,false,Rx,0,4,AA,A0,FF,C0,00,00,00,00,
12842322,000001A1,false,Rx,0,8,04,44,1E,11,76,0C,80,20,
12844397,00000157,false,Rx,0,8,D5,B7,09,C4,FF,E0,00,80,
12847325,0000019F,false,Rx,0,8,00,00,7D,0B,00,6A,90,FE,
12849298,00000435,false,Rx,0,8,FF,FF,1E,0B,2A,00,00,00,
12850197,00000155,false,Rx,0,8,3E,87,D0,54,58,40,02,B5,
12850341,000001C7,false,Rx,0,4,AA,A0,FF,C0,00,00,00,00,
12852345,000001A1,false,Rx,0,8,04,44,1E,11,B6,0C,80,20,
12854321,00000157,false,Rx,0,8,D5,07,09,C4,FF,E0,00,80,
12854518,00000436,false,Rx,0,6,80,18,76,C9,FF,DC,00,00,
12857355,0000019F,false,Rx,0,8,00,00,7D,00,00,6A,90,FE,
12860174,00000155,false,Rx,0,8,3E,87,D0,54,58,40,02,B5,
12860342,000001C7,false,Rx,0,4,AA,A0,FF,C0,00,00,00,00,
12862348,000001A1,false,Rx,0,8,04,44,1E,11,A6,0C,80,20,
12864324,00000157,false,Rx,0,8,D5,57,09,C4,FF,E0,00,80,
12865183,00000445,false,Rx,0,7,80,55,55,65,04,82,00,00,
12867348,0000019F,false,Rx,0,8,00,00,7D,05,00,6A,90,FE,
12870224,00000155,false,Rx,0,8,3E,87,D0,54,58,40,02,B5,
12870392,000001C7,false,Rx,0,4,AA,A0,FF,C0,00,00,00,00,
12872346,000001A1,false,Rx,0,8,04,44,1E,11,76,0C,80,20,
12874297,00000157,false,Rx,0,8,D5,A7,09,C4,FF,E0,00,80,
12877348,0000019F,false,Rx,0,8,00,00,7D,0A,00,6A,90,FE,
12877617,00000419,false,Rx,0,6,57,00,28,00,30,00,00,00,
12880199,00000155,false,Rx,0,8,3E,87,D0,54,58,40,02,B5,
12880370,000001C7,false,Rx,0,4,AA,A0,FF,C0,00,00,00,00,
12882346,000001A1,false,Rx,0,8,04,44,1E,11,96,0C,80,20,
12884346,00000157,false,Rx,0,8,D5,F7,09,C4,FF,E0,00,80,
12887346,0000019F,false,Rx,0,8,00,00,7D,0F,00,6A,90,FE,
12890226,00000155,false,Rx,0,8,3E,87,D0,54,58,40,02,B5,
12890466,000004F7,false,Rx,0,8,00,19,08,00,B0,20,06,F0,
12890638,000001C7,false,Rx,0,4,AA,A0,FF,C0,00,00,00,00,
12890886,00000428,false,Rx,0,8,00,00,00,7F,00,00,00,00,
12891069,0000042F,false,Rx,0,2,00,20,00,00,00,00,00,00,
12892345,000001A1,false,Rx,0,8,04,44,1E,11,96,0C,80,20,
12894370,00000157,false,Rx,0,8,D5,47,09,C4,FF,E0,00,80,
12897347,0000019F,false,Rx,0,8,00,00,7D,04,00,6A,90,FE,
12900248,00000155,false,Rx,0,8,3E,87,D0,54,58,40,02,B5,
12900391,000001C7,false,Rx,0,4,AA,A0,FF,C0,00,00,00,00,
12902346,000001A1,false,Rx,0,8,04,04,1E,11,96,0C,80,20,
12904299,00000157,false,Rx,0,8,D5,97,09,C4,FF,E0,00,80,
12907347,0000019F,false,Rx,0,8,00,00,7D,09,00,6A,90,FE,
12910222,00000155,false,Rx,0,8,3E,87,D0,54,58,40,02,B5,
12910418,000001C7,false,Rx,0,4,AA,A0,FF,C0,00,00,00,00,
12912347,000001A1,false,Rx,0,8,04,44,1E,11,B6,0C,80,20,
12914347,00000157,false,Rx,0,8,D5,E7,09,C4,FF,E0,00,80,
12917347,0000019F,false,Rx,0,8,00,00,7D,0E,00,6A,90,FE,
12920147,00000155,false,Rx,0,8,3E,87,D0,54,58,40,02,B5,
12920317,000001C7,false,Rx,0,4,AA,A0,FF,C0,00,00,00,00,
12922346,000001A1,false,Rx,0,8,04,44,1E,11,76,0C,80,20,
12924348,00000157,false,Rx,0,8,D5,37,09,C4,FF,E0,00,80,
12927349,0000019F,false,Rx,0,8,00,00,7D,03,00,6A,90,FE,
12927645,00000511,false,Rx,0,7,04,ED,58,CD,B0,1D,C4,00,
12929297,00000423,false,Rx,0,8,07,1E,00,01,5D,A0,5D,CB,
12930196,00000155,false,Rx,0,8,3E,87,D0,54,58,40,02,B5,
12930367,000001C7,false,Rx,0,4,AA,A0,FF,C0,00,00,00,00,
12930589,00000424,false,Rx,0,8,11,40,56,C0,2D,5E,55,2E,
12930812,00000425,false,Rx,0,8,24,65,44,9C,42,0C,B1,05,
12932347,000001A1,false,Rx,0,8,04,04,1E,11,76,0C,80,20,
12934350,00000157,false,Rx,0,8,D5,87,09,C4,FF,E0,00,80,
12934594,00000426,false,Rx,0,8,00,00,02,00,59,5C,00,40,
12937349,0000019F,false,Rx,0,8,00,00,7D,08,00,6A,90,FE,
12940175,00000155,false,Rx,0,8,3E,87,D0,54,58,40,02,B5,
12940344,000001C7,false,Rx,0,4,AA,A0,FF,C0,00,00,00,00,
12942349,000001A1,false,Rx,0,8,04,44,1E,11,B6,0C,80,20,
12944301,00000157,false,Rx,0,8,D5,D7,09,C4,FF,E0,00,80,
12947350,0000019F,false,Rx,0,8,00,00,7D,0D,00,6A,90,FE,
12949300,00000435,false,Rx,0,8,FF,FF,1E,0B,2A,00,00,00,
12950172,00000155,false,Rx,0,8,3E,87,D0,54,58,40,02,B5,
12950353,000001C7,false,Rx,0,4,AA,A0,FF,C0,00,00,00,00,
12952348,000001A1,false,Rx,0,8,04,44,1E,11,96,0C,80,20,
12954299,00000157,false,Rx,0,8,D5,27,09,C4,FF,E0,00,80,
12954520,00000436,false,Rx,0,6,80,18,76,C9,FF,DC,00,00,
12957350,0000019F,false,Rx,0,8,00,00,7D,02,00,6A,90,FE,
12960173,00000155,false,Rx,0,8,3E,87,D0,54,58,40,02,B5,
12960343,000001C7,false,Rx,0,4,AA,A0,FF,C0,00,00,00,00,
12962347,000001A1,false,Rx,0,8,04,44,1E,11,76,0C,80,20,
12964322,00000157,false,Rx,0,8,D5,77,09,C4,FF,E0,00,80,
12965171,00000445,false,Rx,0,7,80,55,55,65,04,82,00,00,
12967346,0000019F,false,Rx,0,8,00,00,7D,07,00,6A,90,FE,
12970197,00000155,false,Rx,0,8,3E,87,D0,54,58,40,02,B5,
12970342,000001C7,false,Rx,0,4,AA,A0,FF,C0,00,00,00,00,
12972363,000001A1,false,Rx,0,8,04,04,1E,11,96,0C,80,20,
12974347,00000157,false,Rx,0,8,D5,C7,09,C4,FF,E0,00,80,
12977347,0000019F,false,Rx,0,8,00,00,7D,0C,00,6A,90,FE,
12977642,00000419,false,Rx,0,6,57,00,28,00,30,00,00,00,
12980221,00000155,false,Rx,0,8,3E,87,D0,54,58,40,02,B5,
12980392,000001C7,false,Rx,0,4,AA,A0,FF,C0,00,00,00,00,
12982346,000001A1,false,Rx,0,8,04,44,1E,11,96,0C,80,20,
12984347,00000157,false,Rx,0,8,D5,17,09,C4,FF,E0,00,80,
12987348,0000019F,false,Rx,0,8,00,00,7D,01,00,6A,90,FE,
12990223,00000155,false,Rx,0,8,3E,87,D0,54,58,40,02,B5,
12990442,000004F7,false,Rx,0,8,00,19,08,00,B0,20,06,F0,
12990663,000001C7,false,Rx,0,4,AA,A0,FF,C0,00,00,00,00,
12990945,00000428,false,Rx,0,8,00,00,00,7F,00,00,00,00,
12991092,0000042F,false,Rx,0,2,00,20,00,00,00,00,00,00,
12992346,000001A1,false,Rx,0,8,04,04,1E,11,A6,0C,80,20,
12994299,00000157,false,Rx,0,8,D5,67,09,C4,FF,E0,00,80,
12997375,0000019F,false,Rx,0,8,00,00,7D,06,00,6A,90,FE,
13000199,00000155,false,Rx,0,8,3E,87,D0,54,58,40,02,B5,
13000367,000001C7,false,Rx,0,4,AA,A0,FF,C0,00,00,00,00,
13002349,000001A1,false,Rx,0,8,04,04,32,11,B6,0C,80,20,
13004326,00000157,false,Rx,0,8,D5,B7,09,C4,FF,E0,00,80,
13007355,0000019F,false,Rx,0,8,00,00,7D,0B,00,6A,90,FE,
13010201,00000155,false,Rx,0,8,3E,87,D0,54,58,40,02,B5,
13010367,000001C7,false,Rx,0,4,AA,A0,FF,C0,00,00,00,00,
13012372,000001A1,false,Rx,0,8,04,44,1E,11,86,0C,80,20,
13014370,00000157,false,Rx,0,8,D5,07,09,C4,FF,E0,00,80,
13017345,0000019F,false,Rx,0,8,00,00,7D,00,00,6A,90,FE,
13020145,00000155,false,Rx,0,8,3E,87,D0,54,58,40,02,B5,
13020390,000001C7,false,Rx,0,4,AA,A0,FF,C0,00,00,00,00,
13022344,000001A1,false,Rx,0,8,04,04,1E,11,56,0C,80,20,
13024320,00000157,false,Rx,0,8,D5,57,09,C4,FF,E0,00,80,
13027369,0000019F,false,Rx,0,8,00,00,7D,05,00,6A,90,FE,
13027640,00000511,false,Rx,0,7,04,2C,21,86,1B,2A,A7,00,
13029319,00000423,false,Rx,0,8,07,1E,00,01,B2,A0,B2,CB,
13030194,00000155,false,Rx,0,8,3E,87,D0,54,58,40,02,B5,
13030415,00000424,false,Rx,0,8,11,40,56,C0,2D,5E,55,2E,
13030588,000001C7,false,Rx,0,4,AA,A0,FF,C0,00,00,00,00,
13030811,00000425,false,Rx,0,8,24,65,44,9C,42,0C,B1,05,
13032369,000001A1,false,Rx,0,8,04,04,1E,11,B6,0C,80,20,
13034319,00000157,false,Rx,0,8,D5,A7,09,C4,FF,E0,00,80,
13034565,00000426,false,Rx,0,8,00,00,02,00,59,5C,00,40,
13037344,0000019F,false,Rx,0,8,00,00,7D,0A,00,6A,90,FE,
13040169,00000155,false,Rx,0,8,3E,87,D0,54,58,40,02,B5,
13040390,000001C7,false,Rx,0,4,AA,A0,FF,C0,00,00,00,00,
13042368,000001A1,false,Rx,0,8,04,44,1E,11,B6,0C,80,20,
13044394,00000157,false,Rx,0,8,D5,F7,09,C4,FF,E0,00,80,
13047344,0000019F,false,Rx,0,8,00,00,7D,0F,00,6A,90,FE,
13049319,00000435,false,Rx,0,8,FF,FF,1E,0B,2A,00,00,00,
13050168,00000155,false,Rx,0,8,3E,87,D0,54,58,40,02,B5,
13050415,000001C7,false,Rx,0,4,AA,A0,FF,C0,00,00,00,00,
13052368,000001A1,false,Rx,0,8,04,04,1E,11,86,0C,80,20,
13054318,00000157,false,Rx,0,8,D5,47,09,C4,FF,E0,00,80,
13054541,00000436,false,Rx,0,6,80,18,76,C9,FF,DC,00,00,
13057368,0000019F,false,Rx,0,8,00,00,7D,04,00,6A,90,FE,
13060168,00000155,false,Rx,0,8,3E,87,D0,54,58,40,02,B5,
13060416,000001C7,false,Rx,0,4,AA,A0,FF,C0,00,00,00,00,
13062368,000001A1,false,Rx,0,8,04,04,1E,11,96,0C,80,20,
13064368,00000157,false,Rx,0,8,D5,97,09,C4,FF,E0,00,80,
13065167,00000445,false,Rx,0,7,80,55,AA,65,04,82,00,00,
13067369,0000019F,false,Rx,0,8,00,00,7D,09,00,6A,90,FE,
13070218,00000155,false,Rx,0,8,3E,87,D0,54,58,40,02,B5,
13070414,000001C7,false,Rx,0,4,AA,A0,FF,C0,00,00,00,00,
13072368,000001A1,false,Rx,0,8,04,44,1E,11,96,0C,80,20,
13074393,00000157,false,Rx,0,8,D5,E7,09,C4,FF,E0,00,80,
13077368,0000019F,false,Rx,0,8,00,00,7D,0E,00,6A,90,FE,
13077615,00000419,false,Rx,0,6,57,00,28,00,30,00,00,00,
13080174,00000155,false,Rx,0,8,3E,87,D0,54,58,40,02,B5,
13080390,000001C7,false,Rx,0,4,AA,A0,FF,C0,00,00,00,00,
13082368,000001A1,false,Rx,0,8,04,04,1E,11,76,0C,80,20,
13084367,00000157,false,Rx,0,8,D5,37,09,C4,FF,E0,00,80,
13087377,0000019F,false,Rx,0,8,00,00,7D,03,00,6A,90,FE,
13090217,00000155,false,Rx,0,8,3E,87,D0,54,58,40,02,B5,
13090488,000004F7,false,Rx,0,8,00,19,08,00,B0,20,06,F0,
13090661,000001C7,false,Rx,0,4,AA,A0,FF,C0,00,00,00,00,
13090941,00000428,false,Rx,0,8,00,00,00,7F,00,00,00,00,
13091088,0000042F,false,Rx,0,2,00,20,00,00,00,00,00,00,
13092367,000001A1,false,Rx,0,8,04,04,1E,11,96,0C,80,20,
13094268,00000157,false,Rx,0,8,D5,87,09,C4,FF,E0,00,80,
13097367,0000019F,false,Rx,0,8,00,00,7D,08,00,6A,90,FE,
13100217,00000155,false,Rx,0,8,3E,87,D0,54,58,40,02,B5,
13100389,000001C7,false,Rx,0,4,AA,A0,FF,C0,00,00,00,00,
13102341,000001A1,false,Rx,0,8,04,44,1E,11,76,0C,80,20,
13104395,00000157,false,Rx,0,8,D5,D7,09,C4,FF,E0,00,80,
13107370,0000019F,false,Rx,0,8,00,00,7D,0D,00,6A,90,FE,
13110224,00000155,false,Rx,0,8,3E,87,D0,54,58,40,02,B5,
13110389,000001C7,false,Rx,0,4,AA,A0,FF,C0,00,00,00,00,
13112372,000001A1,false,Rx,0,8,04,04,1E,11,76,0C,80,20,
13114269,00000157,false,Rx,0,8,D5,27,09,C4,FF,E0,00,80,
13117369,0000019F,false,Rx,0,8,00,00,7D,02,00,6A,90,FE,
13120142,00000155,false,Rx,0,8,3E,87,D0,54,58,40,02,B5,
13120414,000001C7,false,Rx,0,4,AA,A0,FF,C0,00,00,00,00,
13122367,000001A1,false,Rx,0,8,04,04,1E,11,B6,0C,80,20,
13124317,00000157,false,Rx,0,8,D5,77,09,C4,FF,E0,00,80,
13127367,0000019F,false,Rx,0,8,00,00,7D,07,00,6A,90,FE,
13127663,00000511,false,Rx,0,7,04,6B,EA,3F,86,37,8A,00,
13129342,00000423,false,Rx,0,8,07,1E,00,01,B2,A0,B2,CB,
13130192,00000155,false,Rx,0,8,3E,87,D0,54,58,40,02,B5,
13130414,00000424,false,Rx,0,8,11,40,56,C0,2D,5E,AA,2E,
13130586,000001C7,false,Rx,0,4,AA,A0,FF,C0,00,00,00,00,
13130808,00000425,false,Rx,0,8,24,65,44,9C,42,0C,B1,05,
13132367,000001A1,false,Rx,0,8,04,44,1E,11,A6,0C,80,20,
13134293,00000157,false,Rx,0,8,D5,C7,09,C4,FF,E0,00,80,
13134538,00000426,false,Rx,0,8,00,00,02,00,59,5C,00,40,
13137371,0000019F,false,Rx,0,8,00,00,7D,0C,00,6A,90,FE,
13140146,00000155,false,Rx,0,8,3E,87,D0,54,58,40,02,B5,
13140417,000001C7,false,Rx,0,4,AA,A0,FF,C0,00,00,00,00,
13142368,000001A1,false,Rx,0,8,04,04,1E,11,76,0C,80,20,
13144344,00000157,false,Rx,0,8,D5,17,09,C4,FF,E0,00,80,
13147369,0000019F,false,Rx,0,8,00,00,7D,01,00,6A,90,FE,
13149346,00000435,false,Rx,0,8,FF,FF,1E,0B,2A,00,00,00,
13150168,00000155,false,Rx,0,8,3E,87,D0,54,58,40,02,B5,
13150415,000001C7,false,Rx,0,4,AA,A0,FF,C0,00,00,00,00,
13152369,000001A1,false,Rx,0,8,04,04,1E,11,76,0C,80,20,
13154293,00000157,false,Rx,0,8,D5,67,09,C4,FF,E0,00,80,
13154464,00000436,false,Rx,0,6,80,18,76,C9,FF,DC,00,00,
13157368,0000019F,false,Rx,0,8,00,00,7D,06,00,6A,90,FE,
13160143,00000155,false,Rx,0,8,3E,87,D0,54,58,40,02,B5,
13160416,000001C7,false,Rx,0,4,AA,A0,FF,C0,00,00,00,00,
13162392,000001A1,false,Rx,0,8,04,44,1E,11,86,0C,80,20,
13164343,00000157,false,Rx,0,8,D5,B7,09,C4,FF,E0,00,80,
13165144,00000445,false,Rx,0,7,80,55,AA,65,04,82,00,00,
13167369,0000019F,false,Rx,0,8,00,00,7D,0B,00,6A,90,FE,
13170169,00000155,false,Rx,0,8,3E,87,D0,54,58,40,02,B5,
13170440,000001C7,false,Rx,0,4,AA,A0,FF,C0,00,00,00,00,
13172368,000001A1,false,Rx,0,8,04,04,1E,11,96,0C,80,20,
13174292,00000157,false,Rx,0,8,D5,07,09,C4,FF,E0,00,80,
13177366,0000019F,false,Rx,0,8,00,00,7D,00,00,6A,90,FE,
13177638,00000419,false,Rx,0,6,57,00,28,00,30,00,00,00,
13180217,00000155,false,Rx,0,8,3E,87,D0,54,58,40,02,B5,
13180438,000001C7,false,Rx,0,4,AA,A0,FF,C0,00,00,00,00,
13182366,000001A1,false,Rx,0,8,04,04,1E,11,C6,0C,80,20,
13184292,00000157,false,Rx,0,8,D5,57,09,C4,FF,E0,00,80,
13187391,0000019F,false,Rx,0,8,00,00,7D,05,00,6A,90,FE,
13190217,00000155,false,Rx,0,8,3E,87,D0,54,58,40,02,B5,
13190513,000004F7,false,Rx,0,8,00,19,08,00,B0,20,06,F0,
13190710,000001C7,false,Rx,0,4,AA,A0,FF,C0,00,00,00,00,
13190990,00000428,false,Rx,0,8,00,00,00,7F,00,00,00,00,
13191162,0000042F,false,Rx,0,2,00,20,00,00,00,00,00,00,
13192366,000001A1,false,Rx,0,8,04,44,1E,11,96,0C,80,20,
13194266,00000157,false,Rx,0,8,D5,A7,09,C4,FF,E0,00,80,
13197367,0000019F,false,Rx,0,8,00,00,7D,0A,00,6A,90,FE,
13200192,00000155,false,Rx,0,8,3E,87,D0,54,58,40,02,B5,
13200462,000001C7,false,Rx,0,4,AA,A0,FF,C0,00,00,00,00,
13202366,000001A1,false,Rx,0,8,04,04,1E,11,76,0C,80,20,
13204292,00000157,false,Rx,0,8,D5,F7,09,C4,FF,E0,00,80,
13207367,0000019F,false,Rx,0,8,00,00,7D,0F,00,6A,90,FE,
13210316,00000155,false,Rx,0,8,3E,87,D0,54,58,40,02,B5,
13210487,000001C7,false,Rx,0,4,AA,A0,FF,C0,00,00,00,00,
13212366,000001A1,false,Rx,0,8,04,04,1E,11,96,0C,80,20,
13214316,00000157,false,Rx,0,8,D5,47,09,C4,FF,E0,00,80,
13217366,0000019F,false,Rx,0,8,00,00,7D,04,00,6A,90,FE,
13220141,00000155,false,Rx,0,8,3E,87,D0,54,58,40,02,B5,
13220463,000001C7,false,Rx,0,4,AA,A0,FF,C0,00,00,00,00,
13222366,000001A1,false,Rx,0,8,04,44,1E,11,86,0C,80,20,
13224317,00000157,false,Rx,0,8,D5,97,09,C4,FF,E0,00,80,
13227367,0000019F,false,Rx,0,8,00,00,7D,09,00,6A,90,FE,
13227663,00000511,false,Rx,0,7,04,AA,B3,F8,F1,44,6D,00,
13229242,00000423,false,Rx,0,8,07,1E,00,01,B2,A0,B2,CB,
13230167,00000155,false,Rx,0,8,3E,87,D0,54,58,40,02,B5,
13230413,00000424,false,Rx,0,8,11,40,56,C0,2D,5E,AA,2E,
13230560,000001C7,false,Rx,0,4,AA,A0,FF,C0,00,00,00,00,
13230807,00000425,false,Rx,0,8,24,65,44,9C,42,0C,B1,05,
13232366,000001A1,false,Rx,0,8,04,04,1E,11,76,0C,80,20,
13234291,00000157,false,Rx,0,8,D5,E7,09,C4,FF,E0,00,80,
13234538,00000426,false,Rx,0,8,00,00,02,00,59,5C,00,40,
13237367,0000019F,false,Rx,0,8,00,00,7D,0E,00,6A,90,FE,
13240141,00000155,false,Rx,0,8,3E,87,D0,54,58,40,02,B5,
13240463,000001C7,false,Rx,0,4,AA,A0,FF,C0,00,00,00,00,
13242391,000001A1,false,Rx,0,8,04,04,1E,11,96,0C,80,20,
13244291,00000157,false,Rx,0,8,D5,37,09,C4,FF,E0,00,80,
13247366,0000019F,false,Rx,0,8,00,00,7D,03,00,6A,90,FE,
13249241,00000435,false,Rx,0,8,FF,FF,1E,0B,2A,00,00,00,
13250167,00000155,false,Rx,0,8,3E,87,D0,54,58,40,02,B5,
13250463,000001C7,false,Rx,0,4,AA,A0,FF,C0,00,00,00,00,
13252366,000001A1,false,Rx,0,8,04,44,1E,11,76,0C,80,20,
13254315,00000157,false,Rx,0,8,D5,87,09,C4,FF,E0,00,80,
13254515,00000436,false,Rx,0,6,80,18,76,C9,FF,DC,00,00,
13257366,0000019F,false,Rx,0,8,00,00,7D,08,00,6A,90,FE,
13260142,00000155,false,Rx,0,8,3E,87,D0,54,58,40,02,B5,
13260488,000001C7,false,Rx,0,4,AA,A0,FF,C0,00,00,00,00,
13262391,000001A1,false,Rx,0,8,04,04,1E,11,96,0C,80,20,
13264366,00000157,false,Rx,0,8,D5,D7,09,C4,FF,E0,00,80,
13265141,00000445,false,Rx,0,7,80,55,AA,65,04,82,00,00,
13267391,0000019F,false,Rx,0,8,00,00,7D,0D,00,6A,90,FE,
13270192,00000155,false,Rx,0,8,3E,87,D0,54,58,40,02,B5,
13270488,000001C7,false,Rx,0,4,AA,A0,FF,C0,00,00,00,00,
13272368,000001A1,false,Rx,0,8,04,04,1E,11,B6,0C,80,20,
13274316,00000157,false,Rx,0,8,D5,27,09,C4,FF,E0,00,80,
13277392,0000019F,false,Rx,0,8,00,00,7D,02,00,6A,90,FE,
13277662,00000419,false,Rx,0,6,57,00,28,00,30,00,00,00,
13280166,00000155,false,Rx,0,8,3E,87,D0,54,58,40,02,B5,
13280490,000001C7,false,Rx,0,4,AA,A0,FF,C0,00,00,00,00,
13282391,000001A1,false,Rx,0,8,04,44,1E,11,76,0C,80,20,
13284392,00000157,false,Rx,0,8,D5,77,09,C4,FF,E0,00,80,
13287392,0000019F,false,Rx,0,8,00,00,7D,07,00,6A,90,FE,
13290220,00000155,false,Rx,0,8,3E,87,D0,54,58,40,02,B5,
13290565,000004F7,false,Rx,0,8,00,19,08,00,B0,20,06,F0,
13290762,000001C7,false,Rx,0,4,AA,A0,FF,C0,00,00,00,00,
13291065,00000428,false,Rx,0,8,00,00,00,7F,00,00,00,00,
13291237,0000042F,false,Rx,0,2,00,20,00,00,00,00,00,00,
13292391,000001A1,false,Rx,0,8,04,04,1E,11,56,0C,80,20,
13294366,00000157,false,Rx,0,8,D5,C7,09,C4,FF,E0,00,80,
13297367,0000019F,false,Rx,0,8,00,00,7D,0C,00,6A,90,FE,
13300216,00000155,false,Rx,0,8,3E,87,D0,54,58,40,02,B5,
13300513,000001C7,false,Rx,0,4,AA,A0,FF,C0,00,00,00,00,
13302366,000001A1,false,Rx,0,8,04,04,1E,11,96,0C,80,20,
13304292,00000157,false,Rx,0,8,D5,17,09,C4,FF,E0,00,80,
13307391,0000019F,false,Rx,0,8,00,00,7D,01,00,6A,90,FE,
13310216,00000155,false,Rx,0,8,3E,87,D0,54,58,40,02,B5,
13310513,000001C7,false,Rx,0,4,AA,A0,FF,C0,00,00,00,00,
13312391,000001A1,false,Rx,0,8,04,44,1E,11,A6,0C,80,20,
13314366,00000157,false,Rx,0,8,D5,67,09,C4,FF,E0,00,80,
13317391,0000019F,false,Rx,0,8,00,00,7D,06,00,6A,90,FE,
13320116,00000155,false,Rx,0,8,3E,87,D0,54,58,40,02,B5,
13320513,000001C7,false,Rx,0,4,AA,A0,FF,C0,00,00,00,00,
13322391,000001A1,false,Rx,0,8,04,04,1E,11,96,0C,80,20,
13324292,00000157,false,Rx,0,8,D5,B7,09,C4,FF,E0,00,80,
13327393,0000019F,false,Rx,0,8,00,00,7D,0B,00,6A,90,FE,
13327663,00000511,false,Rx,0,7,04,E9,7C,B1,5C,51,50,00,
13329292,00000423,false,Rx,0,8,07,1E,00,01,B2,A0,B2,CB,
13330166,00000155,false,Rx,0,8,3E,87,D0,54,58,40,02,B5,
13330388,00000424,false,Rx,0,8,11,40,56,C0,2D,5E,AA,2E,
13330573,000001C7,false,Rx,0,4,AA,A0,FF,C0,00,00,00,00,
13330808,00000425,false,Rx,0,8,24,65,44,9C,42,0C,B1,05,
13332392,000001A1,false,Rx,0,8,04,04,1E,11,A6,0C,80,20,
13334341,00000157,false,Rx,0,8,D5,07,09,C4,FF,E0,00,80,
13334562,00000426,false,Rx,0,8,00,00,02,00,59,5C,00,40,
13337391,0000019F,false,Rx,0,8,00,00,7D,00,00,6A,90,FE,
13340144,00000155,false,Rx,0,8,3E,87,D0,54,58,40,02,B5,
13340514,000001C7,false,Rx,0,4,AA,A0,FF,C0,00,00,00,00,
13342391,000001A1,false,Rx,0,8,04,44,1E,11,66,0C,80,20,
13344267,00000157,false,Rx,0,8,D5,57,09,C4,FF,E0,00,80,
13347392,0000019F,false,Rx,0,8,00,00,7D,05,00,6A,90,FE,
13349267,00000435,false,Rx,0,8,FF,FF,1E,0B,2A,00,00,00,
13350151,00000155,false,Rx,0,8,3E,87,D0,54,58,40,02,B5,
13350538,000001C7,false,Rx,0,4,AA,A0,FF,C0,00,00,00,00,
13352394,000001A1,false,Rx,0,8,04,04,1E,11,76,0C,80,20,
13354369,00000157,false,Rx,0,8,D5,A7,09,C4,FF,E0,00,80,
13354588,00000436,false,Rx,0,6,80,18,76,C9,FF,DC,00,00,
13357392,0000019F,false,Rx,0,8,00,00,7D,0A,00,6A,90,FE,
13360145,00000155,false,Rx,0,8,3E,87,D0,54,58,40,02,B5,
13360539,000001C7,false,Rx,0,4,AA,A0,FF,C0,00,00,00,00,
13362418,000001A1,false,Rx,0,8,04,04,1E,11,C6,0C,80,20,
13364343,00000157,false,Rx,0,8,D5,F7,09,C4,FF,E0,00,80,
13365116,00000445,false,Rx,0,7,80,55,AA,65,04,82,00,00,
13367394,0000019F,false,Rx,0,8,00,00,7D,0F,00,6A,90,FE,
13370173,00000155,false,Rx,0,8,3E,87,D0,54,58,40,02,B5,
13370541,000001C7,false,Rx,0,4,AA,A0,FF,C0,00,00,00,00,
13372390,000001A1,false,Rx,0,8,04,44,1E,11,96,0C,80,20,
13374368,00000157,false,Rx,0,8,D5,47,09,C4,FF,E0,00,80,
13377396,0000019F,false,Rx,0,8,00,00,7D,04,00,6A,90,FE,
13377664,00000419,false,Rx,0,6,57,00,28,00,30,00,00,00,
13380191,00000155,false,Rx,0,8,3E,87,D0,54,58,40,02,B5,
13380538,000001C7,false,Rx,0,4,AA,A0,FF,C0,00,00,00,00,
13382393,000001A1,false,Rx,0,8,04,04,1E,11,76,0C,80,20,
13384316,00000157,false,Rx,0,8,D5,97,09,C4,FF,E0,00,80,
13387391,0000019F,false,Rx,0,8,00,00,7D,09,00,6A,90,FE,
13390194,00000155,false,Rx,0,8,3E,87,D0,54,58,40,02,B5,
13390640,000004F7,false,Rx,0,8,00,19,08,00,B0,20,06,F0,
13390836,000001C7,false,Rx,0,4,AA,A0,FF,C0,00,00,00,00,
13391141,00000428,false,Rx,0,8,00,00,00,7F,00,00,00,00,
13391313,0000042F,false,Rx,0,2,00,20,00,00,00,00,00,00,
13392391,000001A1,false,Rx,0,8,04,04,1E,11,96,0C,80,20,
13394342,00000157,false,Rx,0,8,D5,E7,09,C4,FF,E0,00,80,
13397392,0000019F,false,Rx,0,8,00,00,7D,0E,00,6A,90,FE,
13400167,00000155,false,Rx,0,8,3E,87,D0,54,58,40,02,B5,
13400563,000001C7,false,Rx,0,4,AA,A0,FF,C0,00,00,00,00,
13402391,000001A1,false,Rx,0,8,04,44,1E,11,96,0C,80,20,
13404291,00000157,false,Rx,0,8,D5,37,09,C4,FF,E0,00,80,
13407393,0000019F,false,Rx,0,8,00,00,7D,03,00,6A,90,FE,
13410166,00000155,false,Rx,0,8,3E,87,D0,54,58,40,02,B5,
13410565,000001C7,false,Rx,0,4,AA,A0,FF,C0,00,00,00,00,
13412390,000001A1,false,Rx,0,8,04,04,1E,11,76,0C,80,20,
13414340,00000157,false,Rx,0,8,D5,87,09,C4,FF,E0,00,80,
13417391,0000019F,false,Rx,0,8,00,00,7D,08,00,6A,90,FE,
13420116,00000155,false,Rx,0,8,3E,87,D0,54,58,40,02,B5,
13420561,000001C7,false,Rx,0,4,AA,A0,FF,C0,00,00,00,00,
13422390,000001A1,false,Rx,0,8,04,04,32,11,96,0C,80,20,
13424316,00000157,false,Rx,0,8,D5,D7,09,C4,FF,E0,00,80,
13427391,0000019F,false,Rx,0,8,00,00,7D,0D,00,6A,90,FE,
13427687,00000511,false,Rx,0,7,04,28,45,6A,C7,5E,33,00,
13429216,00000423,false,Rx,0,8,07,1E,00,01,B2,A0,B2,CA,
13430166,00000155,false,Rx,0,8,3E,87,D0,54,58,40,02,B5,
13430387,00000424,false,Rx,0,8,11,40,56,C0,2D,5E,AA,2E,
13430610,00000425,false,Rx,0,8,24,65,44,9C,42,0C,B1,04,
13430806,000001C7,false,Rx,0,4,AA,A0,FF,C0,00,00,00,00,
13432416,000001A1,false,Rx,0,8,04,44,1E,11,76,0C,80,20,
13434291,00000157,false,Rx,0,8,D5,27,09,C4,FF,E0,00,80,
13434538,00000426,false,Rx,0,8,00,00,02,00,59,5C,00,40,
13437444,0000019F,false,Rx,0,8,00,00,7D,02,00,6A,90,FE,
13440177,00000155,false,Rx,0,8,3E,87,D0,54,58,40,02,B5,
13440620,000001C7,false,Rx,0,4,AA,A0,FF,C0,00,00,00,00,
13442412,000001A1,false,Rx,0,8,04,04,1E,11,76,0C,80,20,
13444342,00000157,false,Rx,0,8,D5,77,09,C4,FF,E0,00,80,
13447481,0000019F,false,Rx,0,8,00,00,7D,07,00,6A,90,FE,
13449397,00000435,false,Rx,0,8,FF,FF,1E,0B,2A,00,00,00,
13450147,00000155,false,Rx,0,8,3E,87,D0,54,58,40,02,B5,
13450720,000001C7,false,Rx,0,4,AA,A0,FF,C0,00,00,00,00,
13452547,000001A1,false,Rx,0,8,04,04,1E,11,A6,0C,80,20,
13454300,00000157,false,Rx,0,8,D5,C7,09,C4,FF,E0,00,80,
13454512,00000436,false,Rx,0,6,80,18,76,C9,FF,DC,00,00,
13457411,0000019F,false,Rx,0,8,00,00,7D,0C,00,6A,90,FE,
13460186,00000155,false,Rx,0,8,3E,87,D0,54,58,40,02,B5,
13460613,000001C7,false,Rx,0,4,AA,A0,FF,C0,00,00,00,00,
13462392,000001A1,false,Rx,0,8,04,44,1E,11,86,0C,80,20,
13464397,00000157,false,Rx,0,8,D5,17,09,C4,FF,E0,00,80,
13465147,00000445,false,Rx,0,7,80,55,AA,65,04,82,00,00,
13467421,0000019F,false,Rx,0,8,00,00,7D,01,00,6A,90,FE,
13470193,00000155,false,Rx,0,8,3E,87,D0,54,58,40,02,B5,
13470613,000001C7,false,Rx,0,4,AA,A0,FF,C0,00,00,00,00,
13472416,000001A1,false,Rx,0,8,04,04,1E,11,66,0C,80,20,
13474318,00000157,false,Rx,0,8,D5,67,09,C4,FF,E0,00,80,
13477417,0000019F,false,Rx,0,8,00,00,7D,06,00,6A,90,FE,
13477687,00000419,false,Rx,0,6,57,00,28,00,30,00,00,00,
13480169,00000155,false,Rx,0,8,3E,87,D0,54,58,40,02,B5,
13480613,000001C7,false,Rx,0,4,AA,A0,FF,C0,00,00,00,00,
13482417,000001A1,false,Rx,0,8,04,04,1E,11,96,0C,80,20,
13484368,00000157,false,Rx,0,8,D5,B7,09,C4,FF,E0,00,80,
13487397,0000019F,false,Rx,0,8,00,00,7D,0B,00,6A,90,FE,
13490197,00000155,false,Rx,0,8,3E,87,D0,54,58,40,02,B5,
13490716,000004F7,false,Rx,0,8,00,19,08,00,B0,20,06,F0,
13490887,000001C7,false,Rx,0,4,AA,A0,FF,C0,00,00,00,00,
13491149,00000428,false,Rx,0,8,00,00,00,7F,00,00,00,00,
13491296,0000042F,false,Rx,0,2,00,20,00,00,00,00,00,00,
13492446,000001A1,false,Rx,0,8,04,44,1E,11,96,0C,80,20,
13494394,00000157,false,Rx,0,8,D5,07,09,C4,FF,E0,00,80,
13497428,0000019F,false,Rx,0,8,00,00,7D,00,00,6A,90,FE,
13500191,00000155,false,Rx,0,8,3E,87,D0,54,58,40,02,B5,
13500613,000001C7,false,Rx,0,4,AA,A0,FF,C0,00,00,00,00,
13502416,000001A1,false,Rx,0,8,04,04,1E,11,96,0C,80,20,
13504291,00000157,false,Rx,0,8,D5,57,09,C4,FF,E0,00,80,
13507416,0000019F,false,Rx,0,8,00,00,7D,05,00,6A,90,FE,
13510241,00000155,false,Rx,0,8,3E,87,D0,54,58,40,02,B5,
13510638,000001C7,false,Rx,0,4,AA,A0,FF,C0,00,00,00,00,
13512416,000001A1,false,Rx,0,8,04,04,1E,11,96,0C,80,20,
13514291,00000157,false,Rx,0,8,D5,A7,09,C4,FF,E0,00,80,
13517416,0000019F,false,Rx,0,8,00,00,7D,0A,00,6A,90,FE,
13520116,00000155,false,Rx,0,8,3E,87,D0,54,58,40,02,B5,
13520638,000001C7,false,Rx,0,4,AA,A0,FF,C0,00,00,00,00,
13522415,000001A1,false,Rx,0,8,04,44,1E,11,66,0C,80,20,
13524291,00000157,false,Rx,0,8,D5,F7,09,C4,FF,E0,00,80,
13527416,0000019F,false,Rx,0,8,00,00,7D,0F,00,6A,90,FE,
13527688,00000511,false,Rx,0,7,04,67,0E,23,32,6B,16,00,
13529266,00000423,false,Rx,0,8,07,1E,00,01,5D,A0,5D,CA,
13530166,00000155,false,Rx,0,8,3E,87,D0,54,58,40,02,B5,
13530388,00000424,false,Rx,0,8,11,40,56,C0,2D,5E,AA,2E,
13530610,00000425,false,Rx,0,8,24,65,44,9C,42,0C,B1,04,
13530785,000001C7,false,Rx,0,4,AA,A0,FF,C0,00,00,00,00,
13532416,000001A1,false,Rx,0,8,04,04,1E,11,76,0C,80,20,
13534318,00000157,false,Rx,0,8,D5,47,09,C4,FF,E0,00,80,
13534538,00000426,false,Rx,0,8,00,00,02,00,59,5C,00,40,
13537421,0000019F,false,Rx,0,8,00,00,7D,04,00,6A,90,FE,
13540122,00000155,false,Rx,0,8,3E,87,D0,54,58,40,02,B5,
13540640,000001C7,false,Rx,0,4,AA,A0,FF,C0,00,00,00,00,
13542420,000001A1,false,Rx,0,8,04,04,1E,11,B6,0C,80,20,
13544349,00000157,false,Rx,0,8,D5,97,09,C4,FF,E0,00,80,
13547423,0000019F,false,Rx,0,8,00,00,7D,09,00,6A,90,FE,
13549281,00000435,false,Rx,0,8,FF,FF,1E,0B,2A,00,00,00,
13550161,00000155,false,Rx,0,8,3E,87,D0,54,58,40,02,B5,
13550665,000001C7,false,Rx,0,4,AA,A0,FF,C0,00,00,00,00,
13552417,000001A1,false,Rx,0,8,04,44,1E,11,A6,0C,80,20,
13554368,00000157,false,Rx,0,8,D5,E7,09,C4,FF,E0,00,80,
13554575,00000436,false,Rx,0,6,80,18,76,C9,FF,DC,00,00,
13557417,0000019F,false,Rx,0,8,00,00,7D,0E,00,6A,90,FE,
13560118,00000155,false,Rx,0,8,3E,87,D0,54,58,40,02,B5,
13560664,000001C7,false,Rx,0,4,AA,A0,FF,C0,00,00,00,00,
13562417,000001A1,false,Rx,0,8,04,04,1E,11,66,0C,80,20,
13564317,00000157,false,Rx,0,8,D5,37,09,C4,FF,E0,00,80,
13565117,00000445,false,Rx,0,7,80,55,55,65,04,82,00,00,
13567418,0000019F,false,Rx,0,8,00,00,7D,03,00,6A,90,FE,
13570144,00000155,false,Rx,0,8,3E,87,D0,54,58,40,02,B5,
13570665,000001C7,false,Rx,0,4,AA,A0,FF,C0,00,00,00,00,
13572417,000001A1,false,Rx,0,8,04,04,1E,11,86,0C,80,20,
13574318,00000157,false,Rx,0,8,D5,87,09,C4,FF,E0,00,80,
13577420,0000019F,false,Rx,0,8,00,00,7D,08,00,6A,90,FE,
13577690,00000419,false,Rx,0,6,57,00,28,00,30,00,00,00,
13580197,00000155,false,Rx,0,8,3E,87,D0,54,58,40,02,B5,
13580666,000001C7,false,Rx,0,4,AA,A0,FF,C0,00,00,00,00,
13582419,000001A1,false,Rx,0,8,04,04,1E,11,86,0C,80,20,
13584296,00000157,false,Rx,0,8,D5,D7,09,C4,FF,E0,00,80,
13587420,0000019F,false,Rx,0,8,00,00,7D,0D,00,6A,90,FE,
13590196,00000155,false,Rx,0,8,3E,87,D0,54,58,40,02,B5,
13590744,000004F7,false,Rx,0,8,00,19,08,00,B0,20,06,F0,
13590942,000001C7,false,Rx,0,4,AA,A0,FF,C0,00,00,00,00,
13591189,00000428,false,Rx,0,8,00,00,00,7F,00,00,00,00,
13591361,0000042F,false,Rx,0,2,00,20,00,00,00,00,00,00,
13592417,000001A1,false,Rx,0,8,04,04,1E,11,76,0C,80,20,
13594319,00000157,false,Rx,0,8,D5,27,09,C4,FF,E0,00,80,
13597420,0000019F,false,Rx,0,8,00,00,7D,02,00,6A,90,FE,
13600186,00000155,false,Rx,0,8,3E,87,D0,54,58,40,02,B5,
13600691,000001C7,false,Rx,0,4,AA,A0,FF,C0,00,00,00,00,
13602418,000001A1,false,Rx,0,8,04,44,1E,11,96,0C,80,20,
13604369,00000157,false,Rx,0,8,D5,77,09,C4,FF,E0,00,80,
13607420,0000019F,false,Rx,0,8,00,00,7D,07,00,6A,90,FE,
13610177,00000155,false,Rx,0,8,3E,87,D0,54,58,40,02,B5,
13610694,000001C7,false,Rx,0,4,AA,A0,FF,C0,00,00,00,00,
13612422,000001A1,false,Rx,0,8,04,04,1E,11,B6,0C,80,20,
13614322,00000157,false,Rx,0,8,D5,C7,09,C4,FF,E0,00,80,
13617421,0000019F,false,Rx,0,8,00,00,7D,0C,00,6A,90,FE,
13620121,00000155,false,Rx,0,8,3E,87,D0,54,58,40,02,B5,
13620690,000001C7,false,Rx,0,4,AA,A0,FF,C0,00,00,00,00,
13622417,000001A1,false,Rx,0,8,04,04,1E,11,76,0C,80,20,
13624295,00000157,false,Rx,0,8,D5,17,09,C4,FF,E0,00,80,
13627419,0000019F,false,Rx,0,8,00,00,7D,01,00,6A,90,FE,
13627714,00000511,false,Rx,0,7,04,A6,D7,DC,9D,78,F9,00,
13629242,00000423,false,Rx,0,8,07,1E,00,01,5D,A0,5D,CA,
13630142,00000155,false,Rx,0,8,3E,87,D0,54,58,40,02,B5,
13630386,00000424,false,Rx,0,8,11,40,56,C0,2D,5E,55,2E,
13630609,00000425,false,Rx,0,8,24,65,44,9C,42,0C,B1,04,
13630781,000001C7,false,Rx,0,4,AA,A0,FF,C0,00,00,00,00,
13632419,000001A1,false,Rx,0,8,04,04,1E,11,76,0C,80,20,
13634348,00000157,false,Rx,0,8,D5,67,09,C4,FF,E0,00,80,
13634613,00000426,false,Rx,0,8,00,00,02,00,59,5C,00,40,
13635895,0000069F,false,Rx,0,4,71,30,28,2F,00,00,00,00,
13637419,0000019F,false,Rx,0,8,00,00,7D,06,00,6A,90,FE,
13640120,00000155,false,Rx,0,8,3E,87,D0,54,58,40,02,B5,
13640717,000001C7,false,Rx,0,4,AA,A0,FF,C0,00,00,00,00,
13642417,000001A1,false,Rx,0,8,04,04,1E,11,96,0C,80,20,
13644347,00000157,false,Rx,0,8,D5,B7,09,C4,FF,E0,00,80,
13647420,0000019F,false,Rx,0,8,00,00,7D,0B,00,6A,90,FE,
13649318,00000435,false,Rx,0,8,FF,FF,1E,0B,2A,00,00,00,
13650142,00000155,false,Rx,0,8,3E,87,D0,54,58,40,02,B5,
13650713,000001C7,false,Rx,0,4,AA,A0,FF,C0,00,00,00,00,
13652421,000001A1,false,Rx,0,8,04,04,1E,11,86,0C,80,20,
13654270,00000157,false,Rx,0,8,D5,07,09,C4,FF,E0,00,80,
13654463,00000436,false,Rx,0,6,80,18,76,C9,FF,DC,00,00,
13657418,0000019F,false,Rx,0,8,00,00,7D,00,00,6A,90,FE,
13660118,00000155,false,Rx,0,8,3E,87,D0,54,58,40,02,B5,
13660739,000001C7,false,Rx,0,4,AA,A0,FF,C0,00,00,00,00,
13662416,000001A1,false,Rx,0,8,04,44,1E,11,56,0C,80,20,
13664292,00000157,false,Rx,0,8,D5,57,09,C4,FF,E0,00,80,
13665092,00000445,false,Rx,0,7,80,55,55,65,04,82,00,00,
13667417,0000019F,false,Rx,0,8,00,00,7D,05,00,6A,90,FE,
13670192,00000155,false,Rx,0,8,3E,87,D0,54,58,40,02,B5,
13670739,000001C7,false,Rx,0,4,AA,A0,FF,C0,00,00,00,00,
13672417,000001A1,false,Rx,0,8,04,04,1E,11,D6,0C,80,20,
13674292,00000157,false,Rx,0,8,D5,A7,09,C4,FF,E0,00,80,
13677423,0000019F,false,Rx,0,8,00,00,7D,0A,00,6A,90,FE,
13677715,00000419,false,Rx,0,6,57,00,28,00,30,00,00,00,
13680143,00000155,false,Rx,0,8,3E,87,D0,54,58,40,02,B5,
13680739,000001C7,false,Rx,0,4,AA,A0,FF,C0,00,00,00,00,
13682416,000001A1,false,Rx,0,8,04,04,1E,11,86,0C,80,20,
13684316,00000157,false,Rx,0,8,D5,F7,09,C4,FF,E0,00,80,
13687419,0000019F,false,Rx,0,8,00,00,7D,0F,00,6A,90,FE,
13690192,00000155,false,Rx,0,8,3E,87,D0,54,58,40,02,B5,
13690838,000004F7,false,Rx,0,8,00,19,08,00,B0,20,06,F0,
13690989,000001C7,false,Rx,0,4,AA,A0,FF,C0,00,00,00,00,
13691237,00000428,false,Rx,0,8,00,00,00,7F,00,00,00,00,
13691408,0000042F,false,Rx,0,2,00,20,00,00,00,00,00,00,
13692341,000001A1,false,Rx,0,8,04,04,1E,11,96,0C,80,20,
13694291,00000157,false,Rx,0,8,D5,47,09,C4,FF,E0,00,80,
13697366,0000019F,false,Rx,0,8,00,00,7D,04,00,6A,90,FE,
13700192,00000155,false,Rx,0,8,3E,87,D0,54,58,40,02,B5,
13700764,000001C7,false,Rx,0,4,AA,A0,FF,C0,00,00,00,00,
13702341,000001A1,false,Rx,0,8,04,04,1E,12,06,0C,80,20,
13704341,00000157,false,Rx,0,8,D5,97,09,C4,FF,E0,00,80,
13707376,0000019F,false,Rx,0,8,00,00,7D,09,00,6A,90,FE,
13710192,00000155,false,Rx,0,8,3E,87,D0,54,58,40,02,B5,
13710785,000001C7,false,Rx,0,4,AA,A0,FF,C0,00,00,00,00,
13712341,000001A1,false,Rx,0,8,04,04,1E,11,76,0C,80,20,
13714292,00000157,false,Rx,0,8,D5,E7,09,C4,FF,E0,00,80,
13717368,0000019F,false,Rx,0,8,00,00,7D,0E,00,6A,90,FE,
13720117,00000155,false,Rx,0,8,3E,87,D0,54,58,40,02,B5,
13720789,000001C7,false,Rx,0,4,AA,A0,FF,C0,00,00,00,00,
13722364,000001A1,false,Rx,0,8,04,04,1E,11,56,0C,80,20,
13724368,00000157,false,Rx,0,8,D5,37,09,C4,FF,E0,00,80,
13727367,0000019F,false,Rx,0,8,00,00,7D,03,00,6A,90,FE,
13727612,00000511,false,Rx,0,7,04,E5,A0,95,08,85,DC,00,
13729316,00000423,false,Rx,0,8,07,1E,00,01,5D,A0,5D,CA,
13730141,00000155,false,Rx,0,8,3E,87,D0,54,58,40,02,B5,
13730388,00000424,false,Rx,0,8,11,40,56,C0,2D,5E,55,2E,
13730610,00000425,false,Rx,0,8,24,65,44,9C,42,0C,B1,04,
13730783,000001C7,false,Rx,0,4,AA,A0,FF,C0,00,00,00,00,
13732366,000001A1,false,Rx,0,8,04,04,1E,11,96,0C,80,20,
13734341,00000157,false,Rx,0,8,D5,87,09,C4,FF,E0,00,80,
13734587,00000426,false,Rx,0,8,00,00,02,00,59,5C,00,40,
13737368,0000019F,false,Rx,0,8,00,00,7D,08,00,6A,90,FE,
13740117,00000155,false,Rx,0,8,3E,87,D0,54,58,40,02,B5,
13740787,000001C7,false,Rx,0,4,AA,A0,FF,C0,00,00,00,00,
13742367,000001A1,false,Rx,0,8,04,04,1E,11,B6,0C,80,20,
13744317,00000157,false,Rx,0,8,D5,D7,09,C4,FF,E0,00,80,
13747367,0000019F,false,Rx,0,8,00,00,7D,0D,00,6A,90,FE,
13749267,00000435,false,Rx,0,8,FF,FF,1E,0B,2A,00,00,00,
13750115,00000155,false,Rx,0,8,3E,87,D0,54,58,40,02,B5,
13750813,000001C7,false,Rx,0,4,AA,A0,FF,C0,00,00,00,00,
13752366,000001A1,false,Rx,0,8,04,04,1E,11,A6,0C,80,20,
13754341,00000157,false,Rx,0,8,D5,27,09,C4,FF,E0,00,80,
13754562,00000436,false,Rx,0,6,80,18,76,C9,FF,DC,00,00,
13757367,0000019F,false,Rx,0,8,00,00,7D,02,00,6A,90,FE,
13760117,00000155,false,Rx,0,8,3E,87,D0,54,58,40,02,B5,
13760821,000001C7,false,Rx,0,4,AA,A0,FF,C0,00,00,00,00,
13762368,000001A1,false,Rx,0,8,04,04,1E,11,96,0C,80,20,
13764292,00000157,false,Rx,0,8,D5,77,09,C4,FF,E0,00,80,
13765068,00000445,false,Rx,0,7,80,55,55,65,04,82,00,00,
13767370,0000019F,false,Rx,0,8,00,00,7D,07,00,6A,90,FE,
13770141,00000155,false,Rx,0,8,3E,87,D0,54,58,40,02,B5,
13770813,000001C7,false,Rx,0,4,AA,A0,FF,C0,00,00,00,00,
13772376,000001A1,false,Rx,0,8,04,04,1E,11,76,0C,80,20,
13774291,00000157,false,Rx,0,8,D5,C7,09,C4,FF,E0,00,80,
13777372,0000019F,false,Rx,0,8,00,00,7D,0C,00,6A,90,FE,
13777614,00000419,false,Rx,0,6,57,00,28,00,30,00,00,00,
13780168,00000155,false,Rx,0,8,3E,87,D0,54,58,40,02,B5,
13780814,000001C7,false,Rx,0,4,AA,A0,FF,C0,00,00,00,00,
13782365,000001A1,false,Rx,0,8,04,04,1E,11,96,0C,80,20,
13784290,00000157,false,Rx,0,8,D5,17,09,C4,FF,E0,00,80,
13787367,0000019F,false,Rx,0,8,00,00,7D,01,00,6A,90,FE,
13790192,00000155,false,Rx,0,8,3E,87,D0,54,58,40,02,B5,
13790888,000004F7,false,Rx,0,8,00,19,08,00,B0,20,06,F0,
13791064,000001C7,false,Rx,0,4,AA,A0,FF,C0,00,00,00,00,
13791312,00000428,false,Rx,0,8,00,00,00,7F,00,00,00,00,
13791483,0000042F,false,Rx,0,2,00,20,00,00,00,00,00,00,
13792367,000001A1,false,Rx,0,8,04,04,1E,12,16,0C,80,20,
13794342,00000157,false,Rx,0,8,D5,67,09,C4,FF,E0,00,80,
13797367,0000019F,false,Rx,0,8,00,00,7D,06,00,6A,90,FE,
13800142,00000155,false,Rx,0,8,3E,87,D0,54,58,40,02,B6,
13800838,000001C7,false,Rx,0,4,AA,A0,FF,C0,00,00,00,00,
13802366,000001A1,false,Rx,0,8,04,04,1E,11,96,0C,80,20,
13804366,00000157,false,Rx,0,8,D5,B7,09,C4,FF,E0,00,80,
13807366,0000019F,false,Rx,0,8,00,00,7D,0B,00,6A,90,FE,
13810142,00000155,false,Rx,0,8,3E,87,D0,54,58,40,02,B6,
13810839,000001C7,false,Rx,0,4,AA,A0,FF,C0,00,00,00,00,
13812366,000001A1,false,Rx,0,8,04,04,1E,11,76,0C,80,20,
13814295,00000157,false,Rx,0,8,D5,07,09,C4,FF,E0,00,80,
13817368,0000019F,false,Rx,0,8,00,00,7D,00,00,6A,90,FE,
13820117,00000155,false,Rx,0,8,3E,87,D0,54,58,40,02,B6,
13820838,000001C7,false,Rx,0,4,AA,A0,FF,C0,00,00,00,00,
13822365,000001A1,false,Rx,0,8,04,04,1E,11,E6,0C,80,20,
13824341,00000157,false,Rx,0,8,D5,57,09,C4,FF,E0,00,80,
13827369,0000019F,false,Rx,0,8,00,00,7D,05,00,6A,90,FE,
13827613,00000511,false,Rx,0,7,04,24,69,4E,73,92,BF,00,
13829230,00000423,false,Rx,0,8,07,1E,00,01,5D,A0,5D,CA,
13830145,00000155,false,Rx,0,8,3E,87,D0,54,58,40,02,B6,
13830361,00000424,false,Rx,0,8,11,40,56,C0,2D,5E,55,2E,
13830610,00000425,false,Rx,0,8,24,65,44,9C,42,0A,B1,05,
13830855,000001C7,false,Rx,0,4,AA,A0,FF,C0,00,00,00,00,
13832366,000001A1,false,Rx,0,8,04,04,1E,11,96,0C,80,20,
13834316,00000157,false,Rx,0,8,D5,A7,09,C4,FF,E0,00,80,
13834562,00000426,false,Rx,0,8,00,00,02,00,59,5C,00,40,
13837366,0000019F,false,Rx,0,8,00,00,7D,0A,00,6A,90,FE,
13840120,00000155,false,Rx,0,8,3E,87,D0,54,58,40,02,B6,
13840868,000001C7,false,Rx,0,4,AA,A0,FF,C0,00,00,00,00,
13842365,000001A1,false,Rx,0,8,04,04,1E,11,96,0C,80,20,
13844343,00000157,false,Rx,0,8,D5,F7,09,C4,FF,E0,00,80,
13847369,0000019F,false,Rx,0,8,00,00,7D,0F,00,6A,90,FE,
13849269,00000435,false,Rx,0,8,FF,FF,1E,0B,2A,00,00,00,
13850116,00000155,false,Rx,0,8,3E,87,D0,54,58,40,02,B7,
13850862,000001C7,false,Rx,0,4,AA,A0,FF,C0,00,00,00,00,
13852366,000001A1,false,Rx,0,8,04,04,1E,11,B6,0C,80,20,
13854292,00000157,false,Rx,0,8,D5,47,09,C4,FF,E0,00,80,
13854490,00000436,false,Rx,0,6,80,18,76,C9,FF,DC,00,00,
13857381,0000019F,false,Rx,0,8,00,00,7D,04,00,6A,90,FE,
13860119,00000155,false,Rx,0,8,3E,87,D0,54,58,40,02,B7,
13860865,000001C7,false,Rx,0,4,AA,A0,FF,C0,00,00,00,00,
13862367,000001A1,false,Rx,0,8,04,04,1E,11,76,0C,80,20,
13864317,00000157,false,Rx,0,8,D5,97,09,C4,FF,E0,00,80,
13865092,00000445,false,Rx,0,7,80,55,55,65,04,82,00,00,
13867371,0000019F,false,Rx,0,8,00,00,7D,09,00,6A,90,FE,
13870169,00000155,false,Rx,0,8,3E,87,D0,54,58,40,02,B7,
13870889,000001C7,false,Rx,0,4,AA,A0,FF,C0,00,00,00,00,
13872366,000001A1,false,Rx,0,8,04,04,1E,11,76,0C,80,20,
13874270,00000157,false,Rx,0,8,D5,E7,09,C4,FF,E0,00,80,
13877368,0000019F,false,Rx,0,8,00,00,7D,0E,00,6A,90,FE,
13877613,00000419,false,Rx,0,6,57,00,28,00,30,00,00,00,
13880143,00000155,false,Rx,0,8,3E,87,D0,54,58,40,02,B7,
13880889,000001C7,false,Rx,0,4,AA,A0,FF,C0,00,00,00,00,
13882366,000001A1,false,Rx,0,8,04,04,1E,12,06,0C,80,20,
13884292,00000157,false,Rx,0,8,D5,37,09,C4,FF,E0,00,80,
13887367,0000019F,false,Rx,0,8,00,00,7D,03,00,6A,90,FE,
13890170,00000155,false,Rx,0,8,3E,87,D0,54,58,40,02,B7,
13890970,000004F7,false,Rx,0,8,00,19,08,00,B0,20,06,F0,
13891139,000001C7,false,Rx,0,4,AA,A0,FF,C0,00,00,00,00,
13891388,00000428,false,Rx,0,8,00,00,00,7F,00,00,00,00,
13891559,0000042F,false,Rx,0,2,00,20,00,00,00,00,00,00,
13892366,000001A1,false,Rx,0,8,04,04,1E,11,86,0C,80,20,
13894266,00000157,false,Rx,0,8,D5,87,09,C4,FF,E0,00,80,
13897366,0000019F,false,Rx,0,8,00,00,7D,08,00,6A,90,FE,
13900165,00000155,false,Rx,0,8,3E,87,D0,54,58,40,02,B7,
13900888,000001C7,false,Rx,0,4,AA,A0,FF,C0,00,00,00,00,
13902389,000001A1,false,Rx,0,8,04,04,1E,11,76,0C,80,20,
13904368,00000157,false,Rx,0,8,D5,D7,09,C4,FF,E0,00,80,
13907372,0000019F,false,Rx,0,8,00,00,7D,0D,00,6A,90,FE,
13910217,00000155,false,Rx,0,8,3E,87,D0,54,58,40,02,B7,
13910941,000001C7,false,Rx,0,4,AA,A0,FF,C0,00,00,00,00,
13912365,000001A1,false,Rx,0,8,04,04,1E,11,96,0C,80,20,
13914340,00000157,false,Rx,0,8,D5,27,09,C4,FF,E0,00,80,
13917391,0000019F,false,Rx,0,8,00,00,7D,02,00,6A,90,FE,
13920092,00000155,false,Rx,0,8,3E,87,D0,54,58,40,02,B7,
13920941,000001C7,false,Rx,0,4,AA,A0,FF,C0,00,00,00,00,
13922366,000001A1,false,Rx,0,8,04,04,1E,11,A6,0C,80,20,
13924266,00000157,false,Rx,0,8,D5,77,09,C4,FF,E0,00,80,
13927394,0000019F,false,Rx,0,8,00,00,7D,07,00,6A,90,FE,
13927638,00000511,false,Rx,0,7,04,63,32,07,DE,9F,A2,00,
13929265,00000423,false,Rx,0,8,07,1E,00,01,5D,A0,5D,CA,
13930140,00000155,false,Rx,0,8,3E,87,D0,54,58,40,02,B7,
13930361,00000424,false,Rx,0,8,11,40,56,C0,2D,5E,55,2E,
13930609,00000425,false,Rx,0,8,24,65,44,9C,42,0C,B1,05,
13930940,000001C7,false,Rx,0,4,AA,A0,FF,C0,00,00,00,00,
13932365,000001A1,false,Rx,0,8,04,04,1E,11,96,0C,80,20,
13934290,00000157,false,Rx,0,8,D5,C7,09,C4,FF,E0,00,80,
13934561,00000426,false,Rx,0,8,00,00,02,00,59,5C,00,40,
13937366,0000019F,false,Rx,0,8,00,00,7D,0C,00,6A,90,FE,
13940119,00000155,false,Rx,0,8,3E,87,D0,54,58,40,02,B7,
13940891,000001C7,false,Rx,0,4,AA,A0,FF,C0,00,00,00,00,
13942365,000001A1,false,Rx,0,8,04,04,1E,11,E6,0C,80,20,
13944268,00000157,false,Rx,0,8,D5,17,09,C4,FF,E0,00,80,
13947367,0000019F,false,Rx,0,8,00,00,7D,01,00,6A,90,FE,
13949266,00000435,false,Rx,0,8,FF,FF,1E,0B,2A,00,00,00,
13950115,00000155,false,Rx,0,8,3E,87,D0,54,58,40,02,B7,
13950887,000001C7,false,Rx,0,4,AA,A0,FF,C0,00,00,00,00,
13952365,000001A1,false,Rx,0,8,04,04,1E,11,76,0C,80,20,
13954365,00000157,false,Rx,0,8,D5,67,09,C4,FF,E0,00,80,
13954563,00000436,false,Rx,0,6,80,18,76,C9,FF,DC,00,00,
13957392,0000019F,false,Rx,0,8,00,00,7D,06,00,6A,90,FE,
13960117,00000155,false,Rx,0,8,3E,87,D0,54,58,40,02,B7,
13960889,000001C7,false,Rx,0,4,AA,A0,FF,C0,00,00,00,00,
13962390,000001A1,false,Rx,0,8,04,04,1E,11,76,0C,80,20,
13964365,00000157,false,Rx,0,8,D5,B7,09,C4,FF,E0,00,80,
13965090,00000445,false,Rx,0,7,80,55,55,65,04,82,00,00,
13967365,0000019F,false,Rx,0,8,00,00,7D,0B,00,6A,90,FE,
13970117,00000155,false,Rx,0,8,3E,87,D0,54,58,40,02,B7,
13970888,000001C7,false,Rx,0,4,AA,A0,FF,C0,00,00,00,00,
13972366,000001A1,false,Rx,0,8,04,04,1E,11,B6,0C,80,20,
13974368,00000157,false,Rx,0,8,D5,07,09,C4,FF,E0,00,80,
13977395,0000019F,false,Rx,0,8,00,00,7D,00,00,6A,90,FE,
13977635,00000419,false,Rx,0,6,57,00,28,00,30,00,00,00,
13980166,00000155,false,Rx,0,8,3E,87,D0,54,58,40,02,B7,
13980939,000001C7,false,Rx,0,4,AA,A0,FF,C0,00,00,00,00,
13982365,000001A1,false,Rx,0,8,04,04,1E,11,86,0C,80,20,
13984291,00000157,false,Rx,0,8,D5,57,09,C4,FF,E0,00,80,
13987392,0000019F,false,Rx,0,8,00,00,7D,05,00,6A,90,FE,
13990171,00000155,false,Rx,0,8,3E,87,D0,54,58,40,02,B7,
13990990,000004F7,false,Rx,0,8,00,19,08,00,B0,20,06,F0,
13991162,000001C7,false,Rx,0,4,AA,A0,FF,C0,00,00,00,00,
13991459,00000428,false,Rx,0,8,00,00,00,7F,00,00,00,00,
13991581,0000042F,false,Rx,0,2,00,20,00,00,00,00,00,00,
13992365,000001A1,false,Rx,0,8,04,04,1E,11,66,0C,80,20,
13994291,00000157,false,Rx,0,8,D5,A7,09,C4,FF,E0,00,80,
13997393,0000019F,false,Rx,0,8,00,00,7D,0A,00,6A,90,FE,
14000141,00000155,false,Rx,0,8,3E,87,D0,54,58,40,02,B7,
14000940,000001C7,false,Rx,0,4,AA,A0,FF,C0,00,00,00,00,
14002393,000001A1,false,Rx,0,8,04,04,1E,11,D6,0C,80,20,
14004315,00000157,false,Rx,0,8,D5,F7,09,C4,FF,E0,00,80,
14007390,0000019F,false,Rx,0,8,00,00,7D,0F,00,6A,90,FE,
14010144,00000155,false,Rx,0,8,3E,87,D0,54,58,40,02,B7,
14010941,000001C7,false,Rx,0,4,AA,A0,FF,C0,00,00,00,00,
14012391,000001A1,false,Rx,0,8,04,04,1E,11,96,0C,80,20,
14014319,00000157,false,Rx,0,8,D5,47,09,C4,FF,E0,00,80,
14017396,0000019F,false,Rx,0,8,00,00,7D,04,00,6A,90,FE,
14020094,00000155,false,Rx,0,8,3E,87,D0,54,58,40,02,B7,
14020941,000001C7,false,Rx,0,4,AA,A0,FF,C0,00,00,00,00,
14022390,000001A1,false,Rx,0,8,04,04,1E,11,B6,0C,80,20,
14024266,00000157,false,Rx,0,8,D5,97,09,C4,FF,E0,00,80,
14027394,0000019F,false,Rx,0,8,00,00,7D,09,00,6A,90,FE,
14027637,00000511,false,Rx,0,7,04,A2,FB,C0,49,AC,85,00,
14029215,00000423,false,Rx,0,8,07,1E,00,01,B2,A0,B2,CA,
14030139,00000155,false,Rx,0,8,3E,87,D0,54,58,40,02,B7,
14030361,00000424,false,Rx,0,8,11,40,56,C0,2D,5E,55,2E,
14030583,00000425,false,Rx,0,8,24,65,44,9C,42,0A,B1,04,
14030939,000001C7,false,Rx,0,4,AA,A0,FF,C0,00,00,00,00,
14032389,000001A1,false,Rx,0,8,04,04,1E,12,06,0C,80,20,
14034290,00000157,false,Rx,0,8,D5,E7,09,C4,FF,E0,00,80,
14034535,00000426,false,Rx,0,8,00,00,02,00,59,5C,00,40,
14037365,0000019F,false,Rx,0,8,00,00,7D,0E,00,6A,90,FE,
14040091,00000155,false,Rx,0,8,3E,87,D0,54,58,40,02,B7,
14040940,000001C7,false,Rx,0,4,AA,A0,FF,C0,00,00,00,00,
14042389,000001A1,false,Rx,0,8,03,C4,1E,11,86,0C,80,20,
14044265,00000157,false,Rx,0,8,D5,37,09,C4,FF,E0,00,80,
14047390,0000019F,false,Rx,0,8,00,00,7D,03,00,6A,90,FE,
14049265,00000435,false,Rx,0,8,FF,FF,1E,0B,2A,00,00,00,
14050114,00000155,false,Rx,0,8,3E,87,D0,54,58,40,02,B7,
14050939,000001C7,false,Rx,0,4,AA,A0,FF,C0,00,00,00,00,
14052389,000001A1,false,Rx,0,8,04,04,1E,11,76,0C,80,20,
14054290,00000157,false,Rx,0,8,D5,87,09,C4,FF,E0,00,80,
14054486,00000436,false,Rx,0,6,80,18,76,C9,FF,DC,00,00,
14057390,0000019F,false,Rx,0,8,00,00,7D,08,00,6A,90,FE,
14060090,00000155,false,Rx,0,8,3E,87,D0,54,58,40,02,B7,
14060940,000001C7,false,Rx,0,4,AA,A0,FF,C0,00,00,00,00,
14062389,000001A1,false,Rx,0,8,04,04,1E,12,06,0C,80,20,
14064315,00000157,false,Rx,0,8,D5,D7,09,C4,FF,E0,00,80,
14065089,00000445,false,Rx,0,7,80,55,AA,65,04,82,00,00,
14067390,0000019F,false,Rx,0,8,00,00,7D,0D,00,6A,90,FE,
14070165,00000155,false,Rx,0,8,3E,87,D0,54,58,40,02,B7,
14070965,000001C7,false,Rx,0,4,AA,A0,FF,C0,00,00,00,00,
14072390,000001A1,false,Rx,0,8,03,C4,1E,11,96,0C,80,20,
14074239,00000157,false,Rx,0,8,D5,27,09,C4,FF,E0,00,80,
14077397,0000019F,false,Rx,0,8,00,00,7D,02,00,6A,90,FE,
14077637,00000419,false,Rx,0,6,57,00,28,00,30,00,00,00,
14080129,00000155,false,Rx,0,8,3E,87,D0,54,58,40,02,B7,
14080965,000001C7,false,Rx,0,4,AA,A0,FF,C0,00,00,00,00,
14082390,000001A1,false,Rx,0,8,04,04,32,11,86,0C,80,20,
14084316,00000157,false,Rx,0,8,D5,77,09,C4,FF,E0,00,80,
14087392,0000019F,false,Rx,0,8,00,00,7D,07,00,6A,90,FE,
14090167,00000155,false,Rx,0,8,3E,87,D0,54,58,40,02,B7,
14091040,000004F7,false,Rx,0,8,00,19,08,00,B0,20,06,F0,
14091236,000001C7,false,Rx,0,4,AA,A0,FF,C0,00,00,00,00,
14091509,00000428,false,Rx,0,8,00,00,00,7F,00,00,00,00,
14091656,0000042F,false,Rx,0,2,00,20,00,00,00,00,00,00,
14092389,000001A1,false,Rx,0,8,04,04,1E,11,D6,0C,80,20,
14094290,00000157,false,Rx,0,8,D5,C7,09,C4,FF,E0,00,80,
14097392,0000019F,false,Rx,0,8,00,00,7D,0C,00,6A,90,FE,
14100169,00000155,false,Rx,0,8,3E,87,D0,54,58,40,02,B7,
14100991,000001C7,false,Rx,0,4,AA,A0,FF,C0,00,00,00,00,
14102390,000001A1,false,Rx,0,8,03,C4,1E,11,86,0C,80,20,
14104368,00000157,false,Rx,0,8,D5,17,09,C4,FF,E0,00,80,
14107402,0000019F,false,Rx,0,8,00,00,7D,01,00,6A,90,FE,
14110167,00000155,false,Rx,0,8,3E,87,D0,54,58,40,02,B7,
14110991,000001C7,false,Rx,0,4,AA,A0,FF,C0,00,00,00,00,
14112391,000001A1,false,Rx,0,8,04,04,1E,11,B6,0C,80,20,
14114269,00000157,false,Rx,0,8,D5,67,09,C4,FF,E0,00,80,
14117395,0000019F,false,Rx,0,8,00,00,7D,06,00,6A,90,FE,
14120101,00000155,false,Rx,0,8,3E,87,D0,54,58,40,02,B7,
14120994,000001C7,false,Rx,0,4,AA,A0,FF,C0,00,00,00,00,
14122393,000001A1,false,Rx,0,8,04,04,1E,12,06,0C,80,20,
14124344,00000157,false,Rx,0,8,D5,B7,09,C4,FF,E0,00,80,
14127395,0000019F,false,Rx,0,8,00,00,7D,0B,00,6A,90,FE,
14127663,00000511,false,Rx,0,7,04,E1,C4,79,B4,B9,68,00,
14129217,00000423,false,Rx,0,8,07,1E,00,01,B2,A0,B2,CA,
14130116,00000155,false,Rx,0,8,3E,87,D0,54,58,40,02,B7,
14130361,00000424,false,Rx,0,8,11,40,56,C0,2D,5E,AA,2E,
14130585,00000425,false,Rx,0,8,24,65,44,9C,42,0C,B1,05,
14130990,000001C7,false,Rx,0,4,AA,A0,FF,C0,00,00,00,00,
14132393,000001A1,false,Rx,0,8,04,04,1E,11,66,0C,80,20,
14134317,00000157,false,Rx,0,8,D5,07,09,C4,FF,E0,00,80,
14134563,00000426,false,Rx,0,8,00,00,02,00,59,5C,00,40,
14137393,0000019F,false,Rx,0,8,00,00,7D,00,00,6A,90,FE,
14140093,00000155,false,Rx,0,8,3E,87,D0,54,58,40,02,B7,
14140991,000001C7,false,Rx,0,4,AA,A0,FF,C0,00,00,00,00,
14142410,000001A1,false,Rx,0,8,04,04,1E,11,76,0C,80,20,
14144243,00000157,false,Rx,0,8,D5,57,09,C4,FF,E0,00,80,
14147398,0000019F,false,Rx,0,8,00,00,7D,05,00,6A,90,FE,
14149271,00000435,false,Rx,0,8,FF,FF,1E,0B,2A,00,00,00,
14150119,00000155,false,Rx,0,8,3E,87,D0,54,58,40,02,B7,
14150995,000001C7,false,Rx,0,4,AA,A0,FF,C0,00,00,00,00,
14152396,000001A1,false,Rx,0,8,03,C4,1E,12,16,0C,80,20,
14154317,00000157,false,Rx,0,8,D5,A7,09,C4,FF,E0,00,80,
14154510,00000436,false,Rx,0,6,80,18,76,C9,FF,DC,00,00,
14157393,0000019F,false,Rx,0,8,00,00,7D,0A,00,6A,90,FE,
14160093,00000155,false,Rx,0,8,3E,87,D0,54,58,40,02,B7,
14161017,000001C7,false,Rx,0,4,AA,A0,FF,C0,00,00,00,00,
14162394,000001A1,false,Rx,0,8,03,C4,1E,11,A6,0C,80,20,
14164320,00000157,false,Rx,0,8,D5,F7,09,C4,FF,E0,00,80,
14165040,00000445,false,Rx,0,7,80,55,AA,65,04,82,00,00,
14167393,0000019F,false,Rx,0,8,00,00,7D,0F,00,6A,90,FE,
14170146,00000155,false,Rx,0,8,3E,87,D0,54,58,40,02,B7,
14171035,000001C7,false,Rx,0,4,AA,A0,FF,C0,00,00,00,00,
14172393,000001A1,false,Rx,0,8,04,04,1E,11,76,0C,80,20,
14174343,00000157,false,Rx,0,8,D5,47,09,C4,FF,E0,00,80,
14177394,0000019F,false,Rx,0,8,00,00,7D,04,00,6A,90,FE,
14177634,00000419,false,Rx,0,6,57,00,28,00,30,00,00,00,
14180144,00000155,false,Rx,0,8,3E,87,D0,54,58,40,02,B7,
14181018,000001C7,false,Rx,0,4,AA,A0,FF,C0,00,00,00,00,
14182406,000001A1,false,Rx,0,8,04,04,1E,11,D6,0C,80,20,
14184340,00000157,false,Rx,0,8,D5,97,09,C4,FF,E0,00,80,
14187395,0000019F,false,Rx,0,8,00,00,7D,09,00,6A,90,FE,
14190167,00000155,false,Rx,0,8,3E,87,D0,54,58,40,02,B7,
14191088,000004F7,false,Rx,0,8,00,19,08,00,B0,20,06,F0,
14191314,000001C7,false,Rx,0,4,AA,A0,FF,C0,00,00,00,00,
14191587,00000428,false,Rx,0,8,00,00,00,7F,00,00,00,00,
14191709,0000042F,false,Rx,0,2,00,20,00,00,00,00,00,00,
14192390,000001A1,false,Rx,0,8,03,C4,1E,11,86,0C,80,20,
14194269,00000157,false,Rx,0,8,D5,E7,09,C4,FF,E0,00,80,
14197422,0000019F,false,Rx,0,8,00,00,7D,0E,00,6A,90,FE,
14200119,00000155,false,Rx,0,8,3E,87,D0,54,58,40,02,B7,
14201043,000001C7,false,Rx,0,4,AA,A0,FF,C0,00,00,00,00,
14202394,000001A1,false,Rx,0,8,04,04,1E,11,B6,0C,80,20,
14204343,00000157,false,Rx,0,8,D5,37,09,C4,FF,E0,00,80,
14207419,0000019F,false,Rx,0,8,00,00,7D,03,00,6A,90,FE,
14210395,00000155,false,Rx,0,8,3E,87,D0,54,58,40,02,B7,
14211042,000001C7,false,Rx,0,4,AA,A0,FF,C0,00,00,00,00,
14212389,000001A1,false,Rx,0,8,03,C4,1E,12,06,0C,80,20,
14214365,00000157,false,Rx,0,8,D5,87,09,C4,FF,E0,00,80,
14217394,0000019F,false,Rx,0,8,00,00,7D,08,00,6A,90,FE,
14220089,00000155,false,Rx,0,8,3E,87,D0,54,58,40,02,B7,
14221063,000001C7,false,Rx,0,4,AA,A0,FF,C0,00,00,00,00,
14222390,000001A1,false,Rx,0,8,03,C4,1E,11,66,0C,80,20,
14224290,00000157,false,Rx,0,8,D5,D7,09,C4,FF,E0,00,80,
14227389,0000019F,false,Rx,0,8,00,00,7D,0D,00,6A,90,FE,
14227684,00000511,false,Rx,0,7,04,20,8D,32,1F,C6,4B,00,
14229288,00000423,false,Rx,0,8,07,1E,00,01,B2,A0,B2,CA,
14230113,00000155,false,Rx,0,8,3E,87,D0,54,58,40,02,B7,
14230336,00000424,false,Rx,0,8,11,40,56,C0,2D,5E,AA,2E,
14230584,00000425,false,Rx,0,8,24,65,44,9C,42,0C,B1,04,
14231039,000001C7,false,Rx,0,4,AA,A0,FF,C0,00,00,00,00,
14232388,000001A1,false,Rx,0,8,04,04,1E,11,56,0C,80,20,
14234263,00000157,false,Rx,0,8,D5,27,09,C4,FF,E0,00,80,
14234510,00000426,false,Rx,0,8,00,00,02,00,59,5C,00,40,
14237414,0000019F,false,Rx,0,8,00,00,7D,02,00,6A,90,FE,
14240090,00000155,false,Rx,0,8,3E,87,D0,54,58,40,02,B7,
14241064,000001C7,false,Rx,0,4,AA,A0,FF,C0,00,00,00,00,
14242414,000001A1,false,Rx,0,8,03,C4,1E,12,06,0C,80,20,
14244291,00000157,false,Rx,0,8,D5,77,09,C4,FF,E0,00,80,
14247414,0000019F,false,Rx,0,8,00,00,7D,07,00,6A,90,FE,
14249263,00000435,false,Rx,0,8,FF,FF,1E,0B,2A,00,00,00,
14250087,00000155,false,Rx,0,8,3E,87,D0,54,58,40,02,B7,
14251063,000001C7,false,Rx,0,4,AA,A0,FF,C0,00,00,00,00,
14252412,000001A1,false,Rx,0,8,03,C4,1E,11,B6,0C,80,20,
14254313,00000157,false,Rx,0,8,D5,C7,09,C4,FF,E0,00,80,
14254534,00000436,false,Rx,0,6,80,18,76,C9,FF,DC,00,00,
14257413,0000019F,false,Rx,0,8,00,00,7D,0C,00,6A,90,FE,
14260089,00000155,false,Rx,0,8,3E,87,D0,54,58,40,02,B7,
14261063,000001C7,false,Rx,0,4,AA,A0,FF,C0,00,00,00,00,
14262388,000001A1,false,Rx,0,8,04,04,1E,11,96,0C,80,20,
14264291,00000157,false,Rx,0,8,D5,17,09,C4,FF,E0,00,80,
14265037,00000445,false,Rx,0,7,80,55,AA,65,04,82,00,00,
14267412,0000019F,false,Rx,0,8,00,00,7D,01,00,6A,90,FE,
14270137,00000155,false,Rx,0,8,3E,87,D0,54,58,40,02,B7,
14271063,000001C7,false,Rx,0,4,AA,A0,FF,C0,00,00,00,00,
14272413,000001A1,false,Rx,0,8,03,C4,1E,11,C6,0C,80,20,
14274287,00000157,false,Rx,0,8,D5,67,09,C4,FF,E0,00,80,
14277413,0000019F,false,Rx,0,8,00,00,7D,06,00,6A,90,FE,
14277659,00000419,false,Rx,0,6,57,00,28,00,30,00,00,00,
14280113,00000155,false,Rx,0,8,3E,87,D0,54,58,40,02,B7,
14281086,000001C7,false,Rx,0,4,AA,A0,FF,C0,00,00,00,00,
14282410,000001A1,false,Rx,0,8,03,C4,1E,11,76,0C,80,20,
14284295,00000157,false,Rx,0,8,D5,B7,09,C4,FF,E0,00,80,
14287414,0000019F,false,Rx,0,8,00,00,7D,0B,00,6A,90,FE,
14290137,00000155,false,Rx,0,8,3E,87,D0,54,58,40,02,B7,
14291136,000004F7,false,Rx,0,8,00,19,08,00,B0,20,06,F0,
14291333,000001C7,false,Rx,0,4,AA,A0,FF,C0,00,00,00,00,
14291556,00000428,false,Rx,0,8,00,00,00,7F,00,00,00,00,
14291728,0000042F,false,Rx,0,2,00,20,00,00,00,00,00,00,
14292412,000001A1,false,Rx,0,8,04,04,1E,11,96,0C,80,20,
14294362,00000157,false,Rx,0,8,D5,07,09,C4,FF,E0,00,80,
14297420,0000019F,false,Rx,0,8,00,00,7D,00,00,6A,90,FE,
14300165,00000155,false,Rx,0,8,3E,87,D0,54,58,40,02,B7,
14301087,000001C7,false,Rx,0,4,AA,A0,FF,C0,00,00,00,00,
14302412,000001A1,false,Rx,0,8,03,C4,1E,12,06,0C,80,20,
14304287,00000157,false,Rx,0,8,D5,57,09,C4,FF,E0,00,80,
14307413,0000019F,false,Rx,0,8,00,00,7D,05,00,6A,90,FE,
14310138,00000155,false,Rx,0,8,3E,87,D0,54,58,40,02,B7,
14311112,000001C7,false,Rx,0,4,AA,A0,FF,C0,00,00,00,00,
14312412,000001A1,false,Rx,0,8,03,C4,1E,11,86,0C,80,20,
14314337,00000157,false,Rx,0,8,D5,A7,09,C4,FF,E0,00,80,
14317412,0000019F,false,Rx,0,8,00,00,7D,0A,00,6A,90,FE,
14320091,00000155,false,Rx,0,8,3E,87,D0,54,58,40,02,B7,
14321089,000001C7,false,Rx,0,4,AA,A0,FF,C0,00,00,00,00,
14322415,000001A1,false,Rx,0,8,04,04,1E,11,76,0C,80,20,
14324338,00000157,false,Rx,0,8,D5,F7,09,C4,FF,E0,00,80,
