Time Stamp,ID,Extended,Dir,Bus,LEN,D1,D2,D3,D4,D5,D6,D7,D8
4713368,00000157,false,Rx,0,8,D5,C7,09,C4,FF,E0,00,80,
4713509,000001C7,false,Rx,0,4,AA,A0,FF,C0,00,00,00,00,
4714810,000001A1,false,Rx,0,8,AE,44,32,12,B5,0C,80,20,
4719943,0000019F,false,Rx,0,8,00,00,7D,0D,00,6A,90,FE,
4720263,00000155,false,Rx,0,8,3E,87,CD,54,5A,C0,02,B8,
4723477,00000157,false,Rx,0,8,D5,17,09,C4,FF,E0,00,80,
4723630,000004F7,false,Rx,0,8,00,1D,08,00,88,24,06,F0,
4723831,000001C7,false,Rx,0,4,AA,A0,FF,C0,00,00,00,00,
4724090,00000428,false,Rx,0,8,00,00,00,7F,00,00,00,00,
4724228,0000042F,false,Rx,0,2,00,20,00,00,00,00,00,00,
4724861,000001A1,false,Rx,0,8,AE,44,32,12,B5,0C,80,20,
4729868,0000019F,false,Rx,0,8,00,00,7D,02,00,6A,90,FE,
4730166,00000155,false,Rx,0,8,3E,87,CD,54,5A,C0,02,B8,
4733432,00000157,false,Rx,0,8,D5,67,09,C4,FF,E0,00,80,
4733537,000001C7,false,Rx,0,4,AA,A0,FF,C0,00,00,00,00,
4734838,000001A1,false,Rx,0,8,AE,84,32,12,B5,0C,80,20,
4739937,0000019F,false,Rx,0,8,00,00,7D,07,00,6A,90,FE,
4740238,00000155,false,Rx,0,8,3E,87,CD,54,5A,C0,02,B8,
4743535,00000157,false,Rx,0,8,D5,B7,09,C4,FF,E0,00,80,
4743542,000001C7,false,Rx,0,4,AA,A0,FF,C0,00,00,00,00,
4744866,000001A1,false,Rx,0,8,AE,44,32,12,B5,0C,80,20,
4749966,0000019F,false,Rx,0,8,00,00,7D,0C,00,6A,90,FE,
4750262,00000155,false,Rx,0,8,3E,87,CD,54,5A,C0,02,B8,
4753649,00000157,false,Rx,0,8,D5,07,09,C4,FF,E0,00,80,
4753657,000001C7,false,Rx,0,4,AA,A0,FF,C0,00,00,00,00,
4755003,000001A1,false,Rx,0,8,AE,84,32,12,B5,0C,80,20,
4759909,0000019F,false,Rx,0,8,00,00,7D,01,00,6A,90,FE,
4760125,00000511,false,Rx,0,7,04,6B,B2,C1,91,00,EB,00,
4760395,00000155,false,Rx,0,8,3E,87,CD,54,5A,C0,02,B8,
4763432,00000157,false,Rx,0,8,D5,57,09,C4,FF,E0,00,80,
4763582,000001C7,false,Rx,0,4,AA,A0,FF,C0,00,00,00,00,
4764857,000001A1,false,Rx,0,8,AE,C4,32,12,B5,0C,80,20,
4770028,0000019F,false,Rx,0,8,00,00,7D,06,00,6A,90,FE,
4770182,00000155,false,Rx,0,8,3E,87,CD,54,5A,C0,02,B8,
4773528,00000157,false,Rx,0,8,D5,A7,09,C4,FF,E0,00,80,
4773535,000001C7,false,Rx,0,4,AA,A0,FF,C0,00,00,00,00,
4774859,000001A1,false,Rx,0,8,AE,84,32,12,B5,0C,80,20,
4779350,00000423,false,Rx,0,8,07,1E,00,02,5D,80,B2,DA,
4780031,0000019F,false,Rx,0,8,00,00,7D,0B,00,6A,90,FE,
4780205,00000155,false,Rx,0,8,3E,87,CD,54,5A,C0,02,B8,
4780548,00000424,false,Rx,0,8,11,40,56,C1,2D,5E,55,2E,
4780659,00000425,false,Rx,0,8,2A,6A,44,9C,42,0E,B1,06,
4781003,00000445,false,Rx,0,7,80,55,AA,65,04,82,00,00,
4783605,00000157,false,Rx,0,8,D5,F7,09,C4,FF,E0,00,80,
4783612,00000426,false,Rx,0,8,00,60,01,00,59,5C,00,40,
4783833,000001C7,false,Rx,0,4,AA,A0,FF,C0,00,00,00,00,
4785005,000001A1,false,Rx,0,8,AE,84,32,12,B5,0C,80,20,
4789855,0000019F,false,Rx,0,8,00,00,7D,00,00,6A,90,FE,
4790341,00000155,false,Rx,0,8,3E,87,CD,54,5A,C0,02,B8,
4793549,00000157,false,Rx,0,8,D5,47,09,C4,FF,E0,00,80,
4793562,000001C7,false,Rx,0,4,AA,A0,FF,C0,00,00,00,00,
4795001,000001A1,false,Rx,0,8,AE,84,32,12,B5,0C,80,20,
4799244,00000435,false,Rx,0,8,FF,FF,1E,0B,2A,00,00,00,
4799937,0000019F,false,Rx,0,8,00,00,7D,05,00,6A,90,FE,
4800287,00000155,false,Rx,0,8,3E,87,CD,54,5A,C0,02,B8,
4803603,00000157,false,Rx,0,8,D5,97,09,C4,FF,E0,00,80,
4803610,00000436,false,Rx,0,6,86,18,76,CC,FF,DC,00,00,
4803813,000001C7,false,Rx,0,4,AA,A0,FF,C0,00,00,00,00,
4804961,000001A1,false,Rx,0,8,AE,44,32,12,B5,0C,80,20,
4809909,0000019F,false,Rx,0,8,00,00,7D,0A,00,6A,90,FE,
4810105,00000419,false,Rx,0,6,5F,09,2A,E6,30,00,00,00,
4810407,00000155,false,Rx,0,8,3E,87,CD,54,5A,C0,02,B8,
4813599,00000157,false,Rx,0,8,D5,E7,09,C4,FF,E0,00,80,
4813606,000001C7,false,Rx,0,4,AA,A0,FF,C0,00,00,00,00,
4815002,000001A1,false,Rx,0,8,AE,44,32,12,B5,0C,80,20,
4820036,0000019F,false,Rx,0,8,00,00,7D,0F,00,6A,90,FE,
4820184,00000155,false,Rx,0,8,3E,87,CD,54,5A,C0,02,B8,
4823579,00000157,false,Rx,0,8,D5,37,09,C4,FF,E0,00,80,
4823637,000004F7,false,Rx,0,8,00,1D,08,00,88,24,06,F0,
4823876,000001C7,false,Rx,0,4,AA,A0,FF,C0,00,00,00,00,
4824257,00000428,false,Rx,0,8,00,00,00,7F,00,00,00,00,
4824263,0000042F,false,Rx,0,2,00,20,00,00,00,00,00,00,
4825002,000001A1,false,Rx,0,8,AE,84,32,12,B5,0C,80,20,
4830028,0000019F,false,Rx,0,8,00,00,7D,04,00,6A,90,FE,
4830226,00000155,false,Rx,0,8,3E,87,CD,54,5A,C0,02,B8,
4833525,00000157,false,Rx,0,8,D5,87,09,C4,FF,E0,00,80,
4833564,000001C7,false,Rx,0,4,AA,A0,FF,C0,00,00,00,00,
4835026,000001A1,false,Rx,0,8,AE,84,32,12,B5,0C,80,20,
4839998,0000019F,false,Rx,0,8,00,00,7D,09,00,6A,90,FE,
4840250,00000155,false,Rx,0,8,3E,87,CD,54,5A,C0,02,B8,
4843605,00000157,false,Rx,0,8,D5,D7,09,C4,FF,E0,00,80,
4843614,000001C7,false,Rx,0,4,AA,A0,FF,C0,00,00,00,00,
4845024,000001A1,false,Rx,0,8,AE,84,32,12,B5,0C,80,20,
4849842,0000019F,false,Rx,0,8,00,00,7D,0E,00,6A,90,FE,
4850160,00000155,false,Rx,0,8,3E,87,CD,54,5A,C0,02,B8,
4853388,00000157,false,Rx,0,8,D5,27,09,C4,FF,E0,00,80,
4853607,000001C7,false,Rx,0,4,AA,A0,FF,C0,00,00,00,00,
4854809,000001A1,false,Rx,0,8,AE,C4,32,12,B5,0C,80,20,
4859813,0000019F,false,Rx,0,8,00,00,7D,03,00,6A,90,FE,
4860081,00000511,false,Rx,0,7,04,AA,7B,7A,FC,0D,CE,00,
4860308,00000155,false,Rx,0,8,3E,87,CD,54,5A,C0,02,B8,
4863361,00000157,false,Rx,0,8,D5,77,09,C4,FF,E0,00,80,
4863606,000001C7,false,Rx,0,4,AA,A0,FF,C0,00,00,00,00,
4864809,000001A1,false,Rx,0,8,AE,44,32,12,B5,0C,80,20,
4869835,0000019F,false,Rx,0,8,00,00,7D,08,00,6A,90,FE,
4870133,00000155,false,Rx,0,8,3E,87,CD,54,5A,C0,02,B8,
4873384,00000157,false,Rx,0,8,D5,C7,09,C4,FF,E0,00,80,
4873606,000001C7,false,Rx,0,4,AA,A0,FF,C0,00,00,00,00,
4874808,000001A1,false,Rx,0,8,AE,84,32,12,B5,0C,80,20,
4879185,00000423,false,Rx,0,8,07,1E,00,02,B2,80,5D,DA,
4879806,0000019F,false,Rx,0,8,00,00,7D,0D,00,6A,90,FE,
4880160,00000155,false,Rx,0,8,3E,87,CD,54,5A,C0,02,B8,
4880381,00000424,false,Rx,0,8,11,40,56,C1,2D,5E,55,2E,
4880628,00000425,false,Rx,0,8,2A,6A,44,9C,42,0E,B1,06,
4880925,00000445,false,Rx,0,7,80,55,55,65,04,82,00,00,
4883384,00000157,false,Rx,0,8,D5,17,09,C4,FF,E0,00,80,
4883605,00000426,false,Rx,0,8,00,60,01,00,59,5C,00,40,
4883777,000001C7,false,Rx,0,4,AA,A0,FF,C0,00,00,00,00,
4884809,000001A1,false,Rx,0,8,AE,84,32,12,B5,0C,80,20,
4889835,0000019F,false,Rx,0,8,00,00,7D,02,00,6A,90,FE,
4890183,00000155,false,Rx,0,8,3E,87,CD,54,5A,C0,02,B8,
4893337,00000157,false,Rx,0,8,D5,67,09,C4,FF,E0,00,80,
4893606,000001C7,false,Rx,0,4,AA,A0,FF,C0,00,00,00,00,
4894813,000001A1,false,Rx,0,8,AE,44,32,12,B5,0C,80,20,
4899092,00000435,false,Rx,0,8,FF,FF,1E,0B,2A,00,00,00,
4899838,0000019F,false,Rx,0,8,00,00,7D,07,00,6A,90,FE,
4900137,00000155,false,Rx,0,8,3E,87,CD,54,5A,C0,02,B8,
4903389,00000157,false,Rx,0,8,D5,B7,09,C4,FF,E0,00,80,
4903554,00000436,false,Rx,0,6,86,18,76,CC,FF,DC,00,00,
4903750,000001C7,false,Rx,0,4,AA,A0,FF,C0,00,00,00,00,
4904845,000001A1,false,Rx,0,8,AE,84,32,12,B5,0C,80,20,
4909821,0000019F,false,Rx,0,8,00,00,7D,0C,00,6A,90,FE,
4910082,00000419,false,Rx,0,6,5F,09,2A,E6,30,00,00,00,
4910308,00000155,false,Rx,0,8,3E,87,CD,54,5A,C0,02,B8,
4913312,00000157,false,Rx,0,8,D5,07,09,C4,FF,E0,00,80,
4913632,000001C7,false,Rx,0,4,AA,A0,FF,C0,00,00,00,00,
4914809,000001A1,false,Rx,0,8,AE,84,32,12,B5,0C,80,20,
4919834,0000019F,false,Rx,0,8,00,00,7D,01,00,6A,90,FE,
4920182,00000155,false,Rx,0,8,3E,87,CD,54,5A,C0,02,B8,
4923309,00000157,false,Rx,0,8,D5,57,09,C4,FF,E0,00,80,
4923705,000004F7,false,Rx,0,8,00,1D,08,00,88,24,06,F0,
4923876,000001C7,false,Rx,0,4,AA,A0,FF,C0,00,00,00,00,
4924132,00000428,false,Rx,0,8,00,00,00,7F,00,00,00,00,
4924329,0000042F,false,Rx,0,2,00,20,00,00,00,00,00,00,
4924803,000001A1,false,Rx,0,8,AE,44,32,12,B5,0C,80,20,
4929834,0000019F,false,Rx,0,8,00,00,7D,06,00,6A,90,FE,
4930157,00000155,false,Rx,0,8,3E,87,CD,54,5A,C0,02,B8,
4933309,00000157,false,Rx,0,8,D5,A7,09,C4,FF,E0,00,80,
4933630,000001C7,false,Rx,0,4,AA,A0,FF,C0,00,00,00,00,
4934808,000001A1,false,Rx,0,8,AE,84,32,12,B5,0C,80,20,
4939834,0000019F,false,Rx,0,8,00,00,7D,0B,00,6A,90,FE,
4940157,00000155,false,Rx,0,8,3E,87,CD,54,5A,C0,02,B8,
4943309,00000157,false,Rx,0,8,D5,F7,09,C4,FF,E0,00,80,
4943655,000001C7,false,Rx,0,4,AA,A0,FF,C0,00,00,00,00,
4944808,000001A1,false,Rx,0,8,AE,84,32,12,B5,0C,80,20,
4949838,0000019F,false,Rx,0,8,00,00,7D,00,00,6A,90,FE,
4950183,00000155,false,Rx,0,8,3E,87,CD,54,5A,C0,02,B8,
4953342,00000157,false,Rx,0,8,D5,47,09,C4,FF,E0,00,80,
4953662,000001C7,false,Rx,0,4,AA,A0,FF,C0,00,00,00,00,
4954812,000001A1,false,Rx,0,8,AE,44,32,12,B5,0C,80,20,
4959840,0000019F,false,Rx,0,8,00,00,7D,05,00,6A,90,FE,
4960136,00000511,false,Rx,0,7,04,E9,44,33,67,1A,B1,00,
4960335,00000155,false,Rx,0,8,3E,87,CD,54,5A,C0,02,B8,
4963345,00000157,false,Rx,0,8,D5,97,09,C4,FF,E0,00,80,
4963657,000001C7,false,Rx,0,4,AA,A0,FF,C0,00,00,00,00,
4964809,000001A1,false,Rx,0,8,AE,84,32,12,B5,0C,80,20,
4969834,0000019F,false,Rx,0,8,00,00,7D,0A,00,6A,90,FE,
4970132,00000155,false,Rx,0,8,3E,87,CD,54,5A,C0,02,B8,
4973384,00000157,false,Rx,0,8,D5,E7,09,C4,FF,E0,00,80,
4973680,000001C7,false,Rx,0,4,AA,A0,FF,C0,00,00,00,00,
4974808,000001A1,false,Rx,0,8,AE,84,32,12,B5,0C,80,20,
4979163,00000423,false,Rx,0,8,07,1E,00,02,B2,80,5D,DA,
4979830,0000019F,false,Rx,0,8,00,00,7D,0F,00,6A,90,FE,
4980156,00000155,false,Rx,0,8,3E,87,CD,54,5A,C0,02,B8,
4980378,00000424,false,Rx,0,8,11,40,56,C1,2D,5E,AA,2E,
4980626,00000425,false,Rx,0,8,2A,6A,44,9C,42,0E,B1,06,
4980922,00000445,false,Rx,0,7,80,55,55,65,04,82,00,00,
4983288,00000157,false,Rx,0,8,D5,37,09,C4,FF,E0,00,80,
4983538,00000426,false,Rx,0,8,00,60,01,00,59,5C,00,40,
4983690,000001C7,false,Rx,0,4,AA,A0,FF,C0,00,00,00,00,
4984810,000001A1,false,Rx,0,8,AE,84,32,12,B5,0C,80,20,
4989832,0000019F,false,Rx,0,8,00,00,7D,04,00,6A,90,FE,
4990287,00000155,false,Rx,0,8,3E,87,CD,54,5A,C0,02,B8,
4993384,00000157,false,Rx,0,8,D5,87,09,C4,FF,E0,00,80,
4993680,000001C7,false,Rx,0,4,AA,A0,FF,C0,00,00,00,00,
4994806,000001A1,false,Rx,0,8,AE,84,32,12,B5,0C,80,20,
4999097,00000435,false,Rx,0,8,FF,FF,1E,0B,2A,00,00,00,
4999865,0000019F,false,Rx,0,8,00,00,7D,09,00,6A,90,FE,
5000134,00000155,false,Rx,0,8,3E,87,CD,54,5A,C0,02,B8,
5003624,00000157,false,Rx,0,8,D5,D7,09,C4,FF,E0,00,80,
5003629,00000436,false,Rx,0,6,86,18,76,CC,FF,DC,00,00,
5003747,000001C7,false,Rx,0,4,AA,A0,FF,C0,00,00,00,00,
5004884,000001A1,false,Rx,0,8,AE,84,32,12,B5,0C,80,20,
5009946,0000019F,false,Rx,0,8,00,00,7D,0E,00,6A,90,FE,
5010210,00000419,false,Rx,0,6,5F,09,2A,E6,30,00,00,00,
5010387,00000155,false,Rx,0,8,3E,87,CD,54,5A,C0,02,B8,
5013513,00000157,false,Rx,0,8,D5,27,09,C4,FF,E0,00,80,
5013764,000001C7,false,Rx,0,4,AA,A0,FF,C0,00,00,00,00,
5014988,000001A1,false,Rx,0,8,AE,84,32,12,B5,0C,80,20,
5020003,0000019F,false,Rx,0,8,00,00,7D,03,00,6A,90,FE,
5020230,00000155,false,Rx,0,8,3E,87,CD,54,5A,C0,02,B8,
5023665,00000157,false,Rx,0,8,D5,77,09,C4,FF,E0,00,80,
5023822,000004F7,false,Rx,0,8,00,1D,08,00,88,24,06,F0,
5024027,000001C7,false,Rx,0,4,AA,A0,FF,C0,00,00,00,00,
5024248,00000428,false,Rx,0,8,00,00,00,7F,00,00,00,00,
5024533,0000042F,false,Rx,0,2,00,20,00,00,00,00,00,00,
5025002,000001A1,false,Rx,0,8,AE,84,32,12,B5,0C,80,20,
5030097,0000019F,false,Rx,0,8,00,00,7D,08,00,6A,90,FE,
5030225,00000155,false,Rx,0,8,3E,87,CD,54,5A,C0,02,B8,
5033469,00000157,false,Rx,0,8,D5,C7,09,C4,FF,E0,00,80,
5033790,000001C7,false,Rx,0,4,AA,A0,FF,C0,00,00,00,00,
5035034,000001A1,false,Rx,0,8,AE,84,32,12,B5,0C,80,20,
5040102,0000019F,false,Rx,0,8,00,00,7D,0D,00,6A,90,FE,
5040238,00000155,false,Rx,0,8,3E,87,CD,54,5A,C0,02,B8,
5043551,00000157,false,Rx,0,8,D5,17,09,C4,FF,E0,00,80,
5043791,000001C7,false,Rx,0,4,AA,A0,FF,C0,00,00,00,00,
5044836,000001A1,false,Rx,0,8,AE,44,32,12,B5,0C,80,20,
5050097,0000019F,false,Rx,0,8,00,00,7D,02,00,6A,90,FE,
5050248,00000155,false,Rx,0,8,3E,87,CD,54,5A,C0,02,B8,
5053549,00000157,false,Rx,0,8,D5,67,09,C4,FF,E0,00,80,
5053779,000001C7,false,Rx,0,4,AA,A0,FF,C0,00,00,00,00,
5055073,000001A1,false,Rx,0,8,AE,84,32,12,B5,0C,80,20,
5060123,0000019F,false,Rx,0,8,00,00,7D,07,00,6A,90,FE,
5060133,00000511,false,Rx,0,7,04,28,0D,EC,D2,27,94,00,
5060387,00000155,false,Rx,0,8,3E,87,CD,54,5A,C0,02,B8,
5063531,00000157,false,Rx,0,8,D5,B7,09,C4,FF,E0,00,80,
5063831,000001C7,false,Rx,0,4,AA,A0,FF,C0,00,00,00,00,
5065049,000001A1,false,Rx,0,8,AE,44,32,12,B5,0C,80,20,
5070123,0000019F,false,Rx,0,8,00,00,7D,0C,00,6A,90,FE,
5070132,00000155,false,Rx,0,8,3E,87,CD,54,5A,C0,02,B8,
5073601,00000157,false,Rx,0,8,D5,07,09,C4,FF,E0,00,80,
5073810,000001C7,false,Rx,0,4,AA,A0,FF,C0,00,00,00,00,
5075103,000001A1,false,Rx,0,8,AE,44,32,12,B5,0C,80,20,
5079302,00000423,false,Rx,0,8,07,1E,00,02,B2,80,5D,DA,
5080124,0000019F,false,Rx,0,8,00,00,7D,01,00,6A,90,FE,
5080167,00000155,false,Rx,0,8,3E,87,CD,54,5A,C0,02,B8,
5080458,00000424,false,Rx,0,8,11,40,56,C1,2D,5E,AA,2E,
5080682,00000425,false,Rx,0,8,2A,6A,44,9C,42,0E,B1,06,
5080890,000004AE,false,Rx,0,8,D2,B2,3C,A0,92,5A,88,84,
5081091,00000445,false,Rx,0,7,80,55,55,65,04,82,00,00,
5081288,000004AF,false,Rx,0,5,65,3B,4B,3A,40,00,00,00,
5081441,00000659,false,Rx,0,4,26,00,03,36,00,00,00,00,
5083623,00000157,false,Rx,0,8,D5,57,09,C4,FF,E0,00,80,
5083633,00000426,false,Rx,0,8,00,60,01,00,59,5C,00,40,
5083837,000001C7,false,Rx,0,4,AA,A0,FF,C0,00,00,00,00,
5085028,000001A1,false,Rx,0,8,AE,84,32,12,B5,0C,80,20,
5090129,0000019F,false,Rx,0,8,00,00,7D,06,00,6A,90,FE,
5090248,00000155,false,Rx,0,8,3E,87,CD,54,5A,C0,02,B8,
5093555,00000157,false,Rx,0,8,D5,A7,09,C4,FF,E0,00,80,
5093851,000001C7,false,Rx,0,4,AA,A0,FF,C0,00,00,00,00,
5095109,000001A1,false,Rx,0,8,AE,84,32,12,B5,0C,80,20,
5099208,00000435,false,Rx,0,8,FF,FF,1E,0B,2A,00,00,00,
5099870,0000019F,false,Rx,0,8,00,00,7D,0B,00,6A,90,FE,
5100139,00000155,false,Rx,0,8,3E,87,CD,54,5A,C0,02,B8,
5103377,00000157,false,Rx,0,8,D5,F7,09,C4,FF,E0,00,80,
5103567,00000436,false,Rx,0,6,86,18,76,CC,FF,DC,00,00,
5103769,000001C7,false,Rx,0,4,AA,A0,FF,C0,00,00,00,00,
5104839,000001A1,false,Rx,0,8,AE,84,32,12,B5,0C,80,20,
5109870,0000019F,false,Rx,0,8,00,00,7D,00,00,6A,90,FE,
5110086,00000155,false,Rx,0,8,3E,87,CD,54,5A,C0,02,B8,
5110288,00000419,false,Rx,0,6,5F,09,2A,E6,30,00,00,00,
5113391,00000157,false,Rx,0,8,D5,47,09,C4,FF,E0,00,80,
5113792,000001C7,false,Rx,0,4,AA,A0,FF,C0,00,00,00,00,
5114840,000001A1,false,Rx,0,8,AE,84,32,12,B5,0C,80,20,
5119866,0000019F,false,Rx,0,8,00,00,7D,05,00,6A,90,FE,
5120188,00000155,false,Rx,0,8,3E,87,CD,54,5A,C0,02,B8,
5123390,00000157,false,Rx,0,8,D5,97,09,C4,FF,E0,00,80,
5123841,000004F7,false,Rx,0,8,00,1D,08,00,88,24,06,F0,
5124017,000001C7,false,Rx,0,4,AA,A0,FF,C0,00,00,00,00,
5124288,00000428,false,Rx,0,8,00,00,00,7F,00,00,00,00,
5124465,0000042F,false,Rx,0,2,00,20,00,00,00,00,00,00,
5124843,000001A1,false,Rx,0,8,AE,84,32,12,B5,0C,80,20,
5129866,0000019F,false,Rx,0,8,00,00,7D,0A,00,6A,90,FE,
5130164,00000155,false,Rx,0,8,3E,87,CD,54,5A,C0,02,B8,
5133315,00000157,false,Rx,0,8,D5,E7,09,C4,FF,E0,00,80,
5133791,000001C7,false,Rx,0,4,AA,A0,FF,C0,00,00,00,00,
5134842,000001A1,false,Rx,0,8,AE,44,32,12,B5,0C,80,20,
5139866,0000019F,false,Rx,0,8,00,00,7D,0F,00,6A,90,FE,
5140163,00000155,false,Rx,0,8,3E,87,CD,54,5A,C0,02,B8,
5143391,00000157,false,Rx,0,8,D5,37,09,C4,FF,E0,00,80,
5143788,000001C7,false,Rx,0,4,AA,A0,FF,C0,00,00,00,00,
5144838,000001A1,false,Rx,0,8,AE,84,32,12,B5,0C,80,20,
5149864,0000019F,false,Rx,0,8,00,00,7D,04,00,6A,90,FE,
5150184,00000155,false,Rx,0,8,3E,87,CD,54,5A,C0,02,B8,
5153287,00000157,false,Rx,0,8,D5,87,09,C4,FF,E0,00,80,
5153812,000001C7,false,Rx,0,4,AA,A0,FF,C0,00,00,00,00,
5154878,000001A1,false,Rx,0,8,AE,84,32,12,B5,0C,80,20,
5159904,0000019F,false,Rx,0,8,00,00,7D,09,00,6A,90,FE,
5160179,00000511,false,Rx,0,7,04,67,D6,A5,3D,34,77,00,
5160399,00000155,false,Rx,0,8,3E,87,CD,54,5A,C0,02,B8,
5163377,00000157,false,Rx,0,8,D5,D7,09,C4,FF,E0,00,80,
5163859,000001C7,false,Rx,0,4,AA,A0,FF,C0,00,00,00,00,
5164886,000001A1,false,Rx,0,8,AE,44,32,12,B5,0C,80,20,
5169912,0000019F,false,Rx,0,8,00,00,7D,0E,00,6A,90,FE,
5170185,00000155,false,Rx,0,8,3E,87,CD,54,5A,C0,02,B8,
5173410,00000157,false,Rx,0,8,D5,27,09,C4,FF,E0,00,80,
5173862,000001C7,false,Rx,0,4,AA,A0,FF,C0,00,00,00,00,
5174885,000001A1,false,Rx,0,8,AE,84,32,12,B5,0C,80,20,
5179038,00000423,false,Rx,0,8,07,1E,00,02,B2,80,5D,DA,
5179900,0000019F,false,Rx,0,8,00,00,7D,03,00,6A,90,FE,
5180180,00000155,false,Rx,0,8,3E,87,CD,54,5A,C0,02,B8,
5180391,00000424,false,Rx,0,8,11,40,56,C1,2D,5E,AA,2E,
5180664,00000425,false,Rx,0,8,2A,6A,44,9C,42,0E,B1,06,
5180936,00000445,false,Rx,0,7,80,55,55,65,04,82,00,00,
5183411,00000157,false,Rx,0,8,D5,77,09,C4,FF,E0,00,80,
5183664,00000426,false,Rx,0,8,00,60,01,00,59,5C,00,40,
5183864,000001C7,false,Rx,0,4,AA,A0,FF,C0,00,00,00,00,
5184885,000001A1,false,Rx,0,8,AE,84,32,12,B5,0C,80,20,
5189911,0000019F,false,Rx,0,8,00,00,7D,08,00,6A,90,FE,
5190205,00000155,false,Rx,0,8,3E,87,CD,54,5A,C0,02,B8,
5193402,00000157,false,Rx,0,8,D5,C7,09,C4,FF,E0,00,80,
5193873,000001C7,false,Rx,0,4,AA,A0,FF,C0,00,00,00,00,
5194877,000001A1,false,Rx,0,8,AE,44,32,12,B5,0C,80,20,
5199111,00000435,false,Rx,0,8,FF,FF,1E,0B,2A,00,00,00,
5199882,0000019F,false,Rx,0,8,00,00,7D,0D,00,6A,90,FE,
5200185,00000155,false,Rx,0,8,3E,87,CD,54,5A,C0,02,B8,
5203437,00000157,false,Rx,0,8,D5,17,09,C4,FF,E0,00,80,
5203638,00000436,false,Rx,0,6,86,18,76,CC,FF,DC,00,00,
5203893,000001C7,false,Rx,0,4,AA,A0,FF,C0,00,00,00,00,
5204890,000001A1,false,Rx,0,8,AE,84,32,12,B5,0C,80,20,
5209870,0000019F,false,Rx,0,8,00,00,7D,02,00,6A,90,FE,
5210087,00000155,false,Rx,0,8,3E,87,CD,54,5A,C0,02,B8,
5210288,00000419,false,Rx,0,6,5F,09,2A,E6,30,00,00,00,
5213316,00000157,false,Rx,0,8,D5,67,09,C4,FF,E0,00,80,
5213836,000001C7,false,Rx,0,4,AA,A0,FF,C0,00,00,00,00,
5214909,000001A1,false,Rx,0,8,AE,84,32,12,B5,0C,80,20,
5219914,0000019F,false,Rx,0,8,00,00,7D,07,00,6A,90,FE,
5220187,00000155,false,Rx,0,8,3E,87,CD,54,5A,C0,02,B8,
5223410,00000157,false,Rx,0,8,D5,B7,09,C4,FF,E0,00,80,
5223987,000004F7,false,Rx,0,8,00,1D,08,00,88,24,06,F0,
5224185,000001C7,false,Rx,0,4,AA,A0,FF,C0,00,00,00,00,
5224387,00000428,false,Rx,0,8,00,00,00,7F,00,00,00,00,
5224524,0000042F,false,Rx,0,2,00,20,00,00,00,00,00,00,
5224892,000001A1,false,Rx,0,8,AE,44,32,12,B5,0C,80,20,
5229907,0000019F,false,Rx,0,8,00,00,7D,0C,00,6A,90,FE,
5230225,00000155,false,Rx,0,8,3E,87,CD,54,5A,C0,02,B8,
5233405,00000157,false,Rx,0,8,D5,07,09,C4,FF,E0,00,80,
5233863,000001C7,false,Rx,0,4,AA,A0,FF,C0,00,00,00,00,
5234885,000001A1,false,Rx,0,8,AE,84,32,12,B5,0C,80,20,
5239911,0000019F,false,Rx,0,8,00,00,7D,01,00,6A,90,FE,
5240235,00000155,false,Rx,0,8,3E,87,CD,54,5A,C0,02,B8,
5243410,00000157,false,Rx,0,8,D5,57,09,C4,FF,E0,00,80,
5243912,000001C7,false,Rx,0,4,AA,A0,FF,C0,00,00,00,00,
5244836,000001A1,false,Rx,0,8,AE,84,32,12,B5,0C,80,20,
5249862,0000019F,false,Rx,0,8,00,00,7D,06,00,6A,90,FE,
5250235,00000155,false,Rx,0,8,3E,87,CD,54,5A,C0,02,B8,
5253410,00000157,false,Rx,0,8,D5,A7,09,C4,FF,E0,00,80,
5253889,000001C7,false,Rx,0,4,AA,A0,FF,C0,00,00,00,00,
5254885,000001A1,false,Rx,0,8,AE,44,32,12,B5,0C,80,20,
5259865,0000019F,false,Rx,0,8,00,00,7D,0B,00,6A,90,FE,
5260134,00000155,false,Rx,0,8,3E,87,CD,54,5A,C0,02,B8,
5260306,00000511,false,Rx,0,7,04,A6,9F,5E,A8,41,5A,00,
5263358,00000157,false,Rx,0,8,D5,F7,09,C4,FF,E0,00,80,
5263830,000001C7,false,Rx,0,4,AA,A0,FF,C0,00,00,00,00,
5264858,000001A1,false,Rx,0,8,AE,84,32,12,B5,0C,80,20,
5269934,0000019F,false,Rx,0,8,00,00,7D,00,00,6A,90,FE,
5270135,00000155,false,Rx,0,8,3E,87,CD,54,5A,C0,02,B8,
5273648,00000157,false,Rx,0,8,D5,47,09,C4,FF,E0,00,80,
5273844,000001C7,false,Rx,0,4,AA,A0,FF,C0,00,00,00,00,
5275105,000001A1,false,Rx,0,8,AE,84,32,12,B5,0C,80,20,
5279304,00000423,false,Rx,0,8,07,1E,00,02,B2,80,5D,DA,
5279960,0000019F,false,Rx,0,8,00,00,7D,05,00,6A,90,FE,
5280209,00000155,false,Rx,0,8,3E,87,CD,54,5A,C0,02,B8,
5280379,00000424,false,Rx,0,8,11,40,56,C1,2D,5E,AA,2E,
5280635,00000425,false,Rx,0,8,2A,6A,44,9C,42,0E,B1,06,
5280911,00000445,false,Rx,0,7,80,55,55,65,04,82,00,00,
5283340,00000157,false,Rx,0,8,D5,97,09,C4,FF,E0,00,80,
5283619,00000426,false,Rx,0,8,00,60,01,00,59,5C,00,40,
5283917,000001C7,false,Rx,0,4,AA,A0,FF,C0,00,00,00,00,
5284927,000001A1,false,Rx,0,8,AE,44,32,12,B5,0C,80,20,
5290129,0000019F,false,Rx,0,8,00,00,7D,0A,00,6A,90,FE,
5290176,00000155,false,Rx,0,8,3E,87,CD,54,5A,C0,02,B8,
5293512,00000157,false,Rx,0,8,D5,E7,09,C4,FF,E0,00,80,
5294038,000001C7,false,Rx,0,4,AA,A0,FF,C0,00,00,00,00,
5295079,000001A1,false,Rx,0,8,AE,84,32,12,B5,0C,80,20,
5299384,00000435,false,Rx,0,8,FF,FF,1E,0B,2A,00,00,00,
5300013,0000019F,false,Rx,0,8,00,00,7D,0F,00,6A,90,FE,
5300137,00000155,false,Rx,0,8,3E,87,CD,54,5A,C0,02,B8,
5303390,00000157,false,Rx,0,8,D5,37,09,C4,FF,E0,00,80,
5303549,00000436,false,Rx,0,6,86,18,76,CC,FF,DC,00,00,
5304128,000001C7,false,Rx,0,4,AA,A0,FF,C0,00,00,00,00,
5305126,000001A1,false,Rx,0,8,AE,84,32,12,B5,0C,80,20,
5310065,0000019F,false,Rx,0,8,00,00,7D,04,00,6A,90,FE,
5310145,00000155,false,Rx,0,8,3E,87,CD,54,5A,C0,02,B8,
5310391,00000419,false,Rx,0,6,5F,0A,2A,E6,30,00,00,00,
5313529,00000157,false,Rx,0,8,D5,87,09,C4,FF,E0,00,80,
5314055,000001C7,false,Rx,0,4,AA,A0,FF,C0,00,00,00,00,
5315018,000001A1,false,Rx,0,8,AE,44,32,12,B5,0C,80,20,
5320051,0000019F,false,Rx,0,8,00,00,7D,09,00,6A,90,FE,
5320203,00000155,false,Rx,0,8,3E,87,CD,54,5A,C0,02,B8,
5323583,00000157,false,Rx,0,8,D5,D7,09,C4,FF,E0,00,80,
5324101,000004F7,false,Rx,0,8,00,1D,08,00,88,24,06,F0,
5324137,000001C7,false,Rx,0,4,AA,A0,FF,C0,00,00,00,00,
5324543,00000428,false,Rx,0,8,00,00,00,7F,00,00,00,00,
5324585,0000042F,false,Rx,0,2,00,20,00,00,00,00,00,00,
5325032,000001A1,false,Rx,0,8,AE,84,32,12,B5,0C,80,20,
5330143,0000019F,false,Rx,0,8,00,00,7D,0E,00,6A,90,FE,
5330152,00000155,false,Rx,0,8,3E,87,CD,54,5A,C0,02,B8,
5333627,00000157,false,Rx,0,8,D5,27,09,C4,FF,E0,00,80,
5333961,000001C7,false,Rx,0,4,AA,A0,FF,C0,00,00,00,00,
5335128,000001A1,false,Rx,0,8,AE,84,32,12,B5,0C,80,20,
5340099,0000019F,false,Rx,0,8,00,00,7D,03,00,6A,90,FE,
5340144,00000155,false,Rx,0,8,3E,87,CD,54,5A,C0,02,B8,
5343588,00000157,false,Rx,0,8,D5,77,09,C4,FF,E0,00,80,
5344051,000001C7,false,Rx,0,4,AA,A0,FF,C0,00,00,00,00,
5345024,000001A1,false,Rx,0,8,AE,44,32,12,B5,0C,80,20,
5349902,0000019F,false,Rx,0,8,00,00,7D,08,00,6A,90,FE,
5350203,00000155,false,Rx,0,8,3E,87,CD,54,5A,C0,02,B8,
5353302,00000157,false,Rx,0,8,D5,C7,09,C4,FF,E0,00,80,
5353901,000001C7,false,Rx,0,4,AA,A0,FF,C0,00,00,00,00,
5354874,000001A1,false,Rx,0,8,AE,84,32,12,B5,0C,80,20,
5359900,0000019F,false,Rx,0,8,00,00,7D,0D,00,6A,90,FE,
5360147,00000511,false,Rx,0,7,04,E5,68,17,13,4E,3D,00,
5360374,00000155,false,Rx,0,8,3E,87,CD,54,5A,C0,02,B8,
5363375,00000157,false,Rx,0,8,D5,17,09,C4,FF,E0,00,80,
5363901,000001C7,false,Rx,0,4,AA,A0,FF,C0,00,00,00,00,
5364873,000001A1,false,Rx,0,8,AE,84,32,12,B5,0C,80,20,
5369901,0000019F,false,Rx,0,8,00,00,7D,02,00,6A,90,FE,
5370148,00000155,false,Rx,0,8,3E,87,CD,54,5A,C0,02,B8,
5373399,00000157,false,Rx,0,8,D5,67,09,C4,FF,E0,00,80,
5373925,000001C7,false,Rx,0,4,AA,A0,FF,C0,00,00,00,00,
5374873,000001A1,false,Rx,0,8,AE,44,32,12,B5,0C,80,20,
5379149,00000423,false,Rx,0,8,07,1E,00,02,5D,80,B2,DA,
5379900,0000019F,false,Rx,0,8,00,00,7D,07,00,6A,90,FE,
5380148,00000155,false,Rx,0,8,3E,87,CD,54,5A,C0,02,B8,
5380350,00000424,false,Rx,0,8,11,40,56,C1,2D,5E,AA,2E,
5380602,00000425,false,Rx,0,8,2A,6A,44,9C,42,0E,B1,06,
5380904,00000445,false,Rx,0,7,80,55,AA,65,04,82,00,00,
5383398,00000157,false,Rx,0,8,D5,B7,09,C4,FF,E0,00,80,
5383625,00000426,false,Rx,0,8,00,60,01,00,59,5C,00,40,
5383900,000001C7,false,Rx,0,4,AA,A0,FF,C0,00,00,00,00,
5384871,000001A1,false,Rx,0,8,AE,84,32,12,B5,0C,80,20,
5389899,0000019F,false,Rx,0,8,00,00,7D,0C,00,6A,90,FE,
5390136,00000155,false,Rx,0,8,3E,87,CD,54,5A,C0,02,B8,
5393289,00000157,false,Rx,0,8,D5,07,09,C4,FF,E0,00,80,
5393907,000001C7,false,Rx,0,4,AA,A0,FF,C0,00,00,00,00,
5394858,000001A1,false,Rx,0,8,AE,84,32,12,B5,0C,80,20,
5399212,00000435,false,Rx,0,8,FF,FF,1E,0B,2A,00,00,00,
5399883,0000019F,false,Rx,0,8,00,00,7D,01,00,6A,90,FE,
5400132,00000155,false,Rx,0,8,3E,87,CD,54,5A,C0,02,B8,
5403387,00000157,false,Rx,0,8,D5,57,09,C4,FF,E0,00,80,
5403576,00000436,false,Rx,0,6,86,18,76,CC,FF,DC,00,00,
5403927,000001C7,false,Rx,0,4,AA,A0,FF,C0,00,00,00,00,
5404873,000001A1,false,Rx,0,8,AE,84,32,12,B5,0C,80,20,
5409896,0000019F,false,Rx,0,8,00,00,7D,06,00,6A,90,FE,
5410147,00000155,false,Rx,0,8,3E,87,CD,54,5A,C0,02,B8,
5410347,00000419,false,Rx,0,6,5F,09,2A,E6,30,00,00,00,
5413299,00000157,false,Rx,0,8,D5,A7,09,C4,FF,E0,00,80,
5413950,000001C7,false,Rx,0,4,AA,A0,FF,C0,00,00,00,00,
5414873,000001A1,false,Rx,0,8,AE,84,32,12,B5,0C,80,20,
5418191,0000069F,false,Rx,0,4,71,30,28,2F,00,00,00,00,
5419890,0000019F,false,Rx,0,8,00,00,7D,0B,00,6A,90,FE,
5420138,00000155,false,Rx,0,8,3E,87,CD,54,5A,C0,02,B8,
5423299,00000157,false,Rx,0,8,D5,F7,09,C4,FF,E0,00,80,
5424025,000004F7,false,Rx,0,8,00,1D,08,00,88,24,06,F0,
5424223,000001C7,false,Rx,0,4,AA,A0,FF,C0,00,00,00,00,
5424510,00000428,false,Rx,0,8,00,00,00,7F,00,00,00,00,
5424678,0000042F,false,Rx,0,2,00,20,00,00,00,00,00,00,
5424905,000001A1,false,Rx,0,8,AE,84,32,12,B5,0C,80,20,
5429899,0000019F,false,Rx,0,8,00,00,7D,00,00,6A,90,FE,
5430172,00000155,false,Rx,0,8,3E,87,CD,54,5A,C0,02,B8,
5433299,00000157,false,Rx,0,8,D5,47,09,C4,FF,E0,00,80,
5433951,000001C7,false,Rx,0,4,AA,A0,FF,C0,00,00,00,00,
5434873,000001A1,false,Rx,0,8,AE,84,32,12,B5,0C,80,20,
5439898,0000019F,false,Rx,0,8,00,00,7D,05,00,6A,90,FE,
5440170,00000155,false,Rx,0,8,3E,87,CD,54,5A,C0,02,B8,
5443324,00000157,false,Rx,0,8,D5,97,09,C4,FF,E0,00,80,
5443951,000001C7,false,Rx,0,4,AA,A0,FF,C0,00,00,00,00,
5444869,000001A1,false,Rx,0,8,AE,84,32,12,B5,0C,80,20,
5449885,0000019F,false,Rx,0,8,00,00,7D,0A,00,6A,90,FE,
5450156,00000155,false,Rx,0,8,3E,87,CD,54,5A,C0,02,B8,
5453573,00000157,false,Rx,0,8,D5,E7,09,C4,FF,E0,00,80,
5454173,000001C7,false,Rx,0,4,AA,A0,FF,C0,00,00,00,00,
5455126,000001A1,false,Rx,0,8,AE,84,32,12,B5,0C,80,20,
5459949,0000019F,false,Rx,0,8,00,00,7D,0F,00,6A,90,FE,
5460190,00000155,false,Rx,0,8,3E,87,CD,54,5A,C0,02,B8,
5460390,00000511,false,Rx,0,7,04,24,31,D0,7E,5B,20,00,
5463299,00000157,false,Rx,0,8,D5,37,09,C4,FF,E0,00,80,
5463973,000001C7,false,Rx,0,4,AA,A0,FF,C0,00,00,00,00,
5464899,000001A1,false,Rx,0,8,AE,44,32,12,B5,0C,80,20,
5470070,0000019F,false,Rx,0,8,00,00,7D,04,00,6A,90,FE,
5470132,00000155,false,Rx,0,8,3E,87,CD,54,5A,C0,02,B8,
5473487,00000157,false,Rx,0,8,D5,87,09,C4,FF,E0,00,80,
5474112,000001C7,false,Rx,0,4,AA,A0,FF,C0,00,00,00,00,
5475152,000001A1,false,Rx,0,8,AE,84,32,12,B5,0C,80,20,
5479302,00000423,false,Rx,0,8,07,1E,00,02,5D,80,B2,DA,
5480143,0000019F,false,Rx,0,8,00,00,7D,09,00,6A,90,FE,
5480152,00000155,false,Rx,0,8,3E,87,CD,54,5A,C0,02,B8,
5480416,00000424,false,Rx,0,8,11,40,56,C1,2D,5E,55,2E,
5480672,00000425,false,Rx,0,8,2A,6A,44,9C,42,0E,B1,06,
5480972,00000445,false,Rx,0,7,80,55,AA,65,04,82,00,00,
5483460,00000157,false,Rx,0,8,D5,D7,09,C4,FF,E0,00,80,
5483540,00000426,false,Rx,0,8,00,60,01,00,59,5C,00,40,
5484128,000001C7,false,Rx,0,4,AA,A0,FF,C0,00,00,00,00,
5485049,000001A1,false,Rx,0,8,AE,84,32,12,B5,0C,80,20,
5489904,0000019F,false,Rx,0,8,00,00,7D,0E,00,6A,90,FE,
5490211,00000155,false,Rx,0,8,3E,87,CD,54,5A,C0,02,B8,
5493626,00000157,false,Rx,0,8,D5,27,09,C4,FF,E0,00,80,
5494152,000001C7,false,Rx,0,4,AA,A0,FF,C0,00,00,00,00,
5495148,000001A1,false,Rx,0,8,AE,84,32,12,B5,0C,80,20,
5499303,00000435,false,Rx,0,8,FF,FF,1E,0B,2A,00,00,00,
5500074,0000019F,false,Rx,0,8,00,00,7D,03,00,6A,90,FE,
5500137,00000155,false,Rx,0,8,3E,87,CD,54,5A,C0,02,B8,
5503530,00000157,false,Rx,0,8,D5,77,09,C4,FF,E0,00,80,
5503548,00000436,false,Rx,0,6,86,18,76,CC,FF,DC,00,00,
5504007,000001C7,false,Rx,0,4,AA,A0,FF,C0,00,00,00,00,
5505050,000001A1,false,Rx,0,8,AE,84,32,12,B5,0C,80,20,
5510145,0000019F,false,Rx,0,8,00,00,7D,08,00,6A,90,FE,
5510155,00000155,false,Rx,0,8,3E,87,CD,54,5A,C0,02,B8,
5510418,00000419,false,Rx,0,6,5F,09,2A,E6,30,00,00,00,
5513657,00000157,false,Rx,0,8,D5,C7,09,C4,FF,E0,00,80,
5514167,000001C7,false,Rx,0,4,AA,A0,FF,C0,00,00,00,00,
5514944,000001A1,false,Rx,0,8,AE,84,32,12,B5,0C,80,20,
5520159,0000019F,false,Rx,0,8,00,00,7D,0D,00,6A,90,FE,
5520168,00000155,false,Rx,0,8,3E,87,CD,54,5A,C0,02,B8,
5523551,00000157,false,Rx,0,8,D5,17,09,C4,FF,E0,00,80,
5524170,000004F7,false,Rx,0,8,00,1D,08,00,88,24,06,F0,
5524264,000001C7,false,Rx,0,4,AA,A0,FF,C0,00,00,00,00,
5524617,00000428,false,Rx,0,8,00,00,00,7F,00,00,00,00,
5524811,0000042F,false,Rx,0,2,00,20,00,00,00,00,00,00,
5525038,000001A1,false,Rx,0,8,AE,44,32,12,B5,0C,80,20,
5530020,0000019F,false,Rx,0,8,00,00,7D,02,00,6A,90,FE,
5530138,00000155,false,Rx,0,8,3E,87,CD,54,5A,C0,02,B8,
5533335,00000157,false,Rx,0,8,D5,67,09,C4,FF,E0,00,80,
5534254,000001C7,false,Rx,0,4,AA,A0,FF,C0,00,00,00,00,
5535150,000001A1,false,Rx,0,8,AE,84,32,12,B5,0C,80,20,
5540081,0000019F,false,Rx,0,8,00,00,7D,07,00,6A,90,FE,
5540136,00000155,false,Rx,0,8,3E,87,CD,54,5A,C0,02,B8,
5543504,00000157,false,Rx,0,8,D5,B7,09,C4,FF,E0,00,80,
5544171,000001C7,false,Rx,0,4,AA,A0,FF,C0,00,00,00,00,
5544969,000001A1,false,Rx,0,8,AE,84,32,12,B5,0C,80,20,
5550131,0000019F,false,Rx,0,8,00,00,7D,0C,00,6A,90,FE,
5550141,00000155,false,Rx,0,8,3E,87,CD,54,5A,C0,02,B8,
5553593,00000157,false,Rx,0,8,D5,07,09,C4,FF,E0,00,80,
5554268,000001C7,false,Rx,0,4,AA,A0,FF,C0,00,00,00,00,
5554974,000001A1,false,Rx,0,8,AE,44,32,12,B5,0C,80,20,
5560182,0000019F,false,Rx,0,8,00,00,7D,01,00,6A,90,FE,
5560190,00000155,false,Rx,0,8,3E,87,CD,54,5A,C0,02,B8,
5560403,00000511,false,Rx,0,7,04,63,FA,89,E9,68,03,00,
5563355,00000157,false,Rx,0,8,D5,57,09,C4,FF,E0,00,80,
5564282,000001C7,false,Rx,0,4,AA,A0,FF,C0,00,00,00,00,
5564935,000001A1,false,Rx,0,8,AE,84,32,12,B5,0C,80,20,
5570170,0000019F,false,Rx,0,8,00,00,7D,06,00,6A,90,FE,
5570179,00000155,false,Rx,0,8,3E,87,CD,54,5A,C0,02,B8,
5573576,00000157,false,Rx,0,8,D5,A7,09,C4,FF,E0,00,80,
5574272,000001C7,false,Rx,0,4,AA,A0,FF,C0,00,00,00,00,
5575148,000001A1,false,Rx,0,8,AE,84,32,12,B5,0C,80,20,
5579397,00000423,false,Rx,0,8,07,1E,00,02,5D,80,B2,DA,
5580077,0000019F,false,Rx,0,8,00,00,7D,0B,00,6A,90,FE,
5580137,00000155,false,Rx,0,8,3E,87,CD,54,5A,C0,02,B9,
5580538,00000424,false,Rx,0,8,11,40,56,C1,2D,5E,55,2E,
5580604,00000425,false,Rx,0,8,2A,6A,44,9C,42,0E,B1,06,
5581041,00000445,false,Rx,0,7,80,55,AA,65,04,82,00,00,
5583575,00000157,false,Rx,0,8,D5,F7,09,C4,FF,E0,00,80,
5583584,00000426,false,Rx,0,8,00,60,01,00,59,5C,00,40,
5584203,000001C7,false,Rx,0,4,AA,A0,FF,C0,00,00,00,00,
5585050,000001A1,false,Rx,0,8,AE,84,32,12,B5,0C,80,20,
5590012,0000019F,false,Rx,0,8,00,00,7D,00,00,6A,90,FE,
5590139,00000155,false,Rx,0,8,3E,87,CD,54,5A,C0,02,B9,
5593579,00000157,false,Rx,0,8,D5,47,09,C4,FF,E0,00,80,
5594295,000001C7,false,Rx,0,4,AA,A0,FF,C0,00,00,00,00,
5595149,000001A1,false,Rx,0,8,AE,84,32,12,B5,0C,80,20,
5599448,00000435,false,Rx,0,8,FF,FF,1E,0B,2A,00,00,00,
5599930,0000019F,false,Rx,0,8,00,00,7D,05,00,6A,90,FE,
5600150,00000155,false,Rx,0,8,3E,87,CD,54,5A,C0,02,B9,
5603326,00000157,false,Rx,0,8,D5,97,09,C4,FF,E0,00,80,
5603524,00000436,false,Rx,0,6,86,18,76,CC,FF,DC,00,00,
5604053,000001C7,false,Rx,0,4,AA,A0,FF,C0,00,00,00,00,
5604898,000001A1,false,Rx,0,8,AE,84,32,12,B5,0C,80,20,
5609926,0000019F,false,Rx,0,8,00,00,7D,0A,00,6A,90,FE,
5610148,00000155,false,Rx,0,8,3E,87,CD,54,5A,C0,02,B9,
5610375,00000419,false,Rx,0,6,5F,0A,2A,E6,30,00,00,00,
5613400,00000157,false,Rx,0,8,D5,E7,09,C4,FF,E0,00,80,
5614050,000001C7,false,Rx,0,4,AA,A0,FF,C0,00,00,00,00,
5614899,000001A1,false,Rx,0,8,AE,44,32,12,B5,0C,80,20,
5619924,0000019F,false,Rx,0,8,00,00,7D,0F,00,6A,90,FE,
5620148,00000155,false,Rx,0,8,3E,87,CD,54,5A,C0,02,B9,
5623399,00000157,false,Rx,0,8,D5,37,09,C4,FF,E0,00,80,
5624149,000004F7,false,Rx,0,8,00,1D,08,00,88,24,06,F0,
5624300,000001C7,false,Rx,0,4,AA,A0,FF,C0,00,00,00,00,
5624552,00000428,false,Rx,0,8,00,00,00,7F,00,00,00,00,
5624705,0000042F,false,Rx,0,2,00,20,00,00,00,00,00,00,
5624932,000001A1,false,Rx,0,8,AE,44,32,12,B5,0C,80,20,
5629923,0000019F,false,Rx,0,8,00,00,7D,04,00,6A,90,FE,
5630147,00000155,false,Rx,0,8,3E,87,CD,54,5A,C0,02,B9,
5633349,00000157,false,Rx,0,8,D5,87,09,C4,FF,E0,00,80,
5634076,000001C7,false,Rx,0,4,AA,A0,FF,C0,00,00,00,00,
5634899,000001A1,false,Rx,0,8,AE,44,32,12,B5,0C,80,20,
5639927,0000019F,false,Rx,0,8,00,00,7D,09,00,6A,90,FE,
5640148,00000155,false,Rx,0,8,3E,87,CD,54,5A,C0,02,B9,
5643348,00000157,false,Rx,0,8,D5,D7,09,C4,FF,E0,00,80,
5644073,000001C7,false,Rx,0,4,AA,A0,FF,C0,00,00,00,00,
5644897,000001A1,false,Rx,0,8,AE,44,32,12,B5,0C,80,20,
5649916,0000019F,false,Rx,0,8,00,00,7D,0E,00,6A,90,FE,
5650133,00000155,false,Rx,0,8,3E,87,CD,54,5A,C0,02,B9,
5653312,00000157,false,Rx,0,8,D5,27,09,C4,FF,E0,00,80,
5654058,000001C7,false,Rx,0,4,AA,A0,FF,C0,00,00,00,00,
5654918,000001A1,false,Rx,0,8,AE,84,32,12,B5,0C,80,20,
5659950,0000019F,false,Rx,0,8,00,00,7D,03,00,6A,90,FE,
5660148,00000155,false,Rx,0,8,3E,87,CD,54,5A,C0,02,B9,
5660374,00000511,false,Rx,0,7,04,A2,C3,42,54,75,E6,00,
5663300,00000157,false,Rx,0,8,D5,77,09,C4,FF,E0,00,80,
5664075,000001C7,false,Rx,0,4,AA,A0,FF,C0,00,00,00,00,
5664899,000001A1,false,Rx,0,8,AE,84,32,12,B5,0C,80,20,
5669924,0000019F,false,Rx,0,8,00,00,7D,08,00,6A,90,FE,
5670147,00000155,false,Rx,0,8,3E,87,CD,54,5A,C0,02,BA,
5673315,00000157,false,Rx,0,8,D5,C7,09,C4,FF,E0,00,80,
5674096,000001C7,false,Rx,0,4,AA,A0,FF,C0,00,00,00,00,
5674914,000001A1,false,Rx,0,8,AE,84,32,12,B5,0C,80,20,
5679149,00000423,false,Rx,0,8,07,1E,00,02,5D,80,B2,DA,
5679926,0000019F,false,Rx,0,8,00,00,7D,0D,00,6A,90,FE,
5680151,00000155,false,Rx,0,8,3E,87,CD,54,5A,C0,02,B9,
5680378,00000424,false,Rx,0,8,11,40,56,C1,2D,5E,55,2E,
5680604,00000425,false,Rx,0,8,2A,6A,44,9C,42,0E,B1,06,
5680881,00000445,false,Rx,0,7,80,55,AA,65,04,82,00,00,
5683399,00000157,false,Rx,0,8,D5,17,09,C4,FF,E0,00,80,
5683625,00000426,false,Rx,0,8,00,60,01,00,59,5C,00,40,
5684078,000001C7,false,Rx,0,4,AA,A0,FF,C0,00,00,00,00,
5684824,000001A1,false,Rx,0,8,AE,84,32,12,B5,0C,80,20,
5689849,0000019F,false,Rx,0,8,00,00,7D,02,00,6A,90,FE,
5690148,00000155,false,Rx,0,8,3E,87,CD,54,5A,C0,02,B9,
5693302,00000157,false,Rx,0,8,D5,67,09,C4,FF,E0,00,80,
5694146,000001C7,false,Rx,0,4,AA,A0,FF,C0,00,00,00,00,
5694846,000001A1,false,Rx,0,8,AE,84,32,12,B5,0C,80,20,
5699149,00000435,false,Rx,0,8,FF,FF,1E,0B,2A,00,00,00,
5699851,0000019F,false,Rx,0,8,00,00,7D,07,00,6A,90,FE,
5700077,00000155,false,Rx,0,8,3E,87,CD,54,5A,C0,02,BA,
5703319,00000157,false,Rx,0,8,D5,B7,09,C4,FF,E0,00,80,
5703510,00000436,false,Rx,0,6,86,18,76,CC,FF,DC,00,00,
5704133,000001C7,false,Rx,0,4,AA,A0,FF,C0,00,00,00,00,
5704811,000001A1,false,Rx,0,8,AE,44,32,12,B5,0C,80,20,
5709835,0000019F,false,Rx,0,8,00,00,7D,0C,00,6A,90,FE,
5710056,00000155,false,Rx,0,8,3E,87,CD,54,5A,C0,02,B9,
5710256,00000419,false,Rx,0,6,5F,09,2A,E6,30,00,00,00,
5713523,00000157,false,Rx,0,8,D5,07,09,C4,FF,E0,00,80,
5714170,000001C7,false,Rx,0,4,AA,A0,FF,C0,00,00,00,00,
5714850,000001A1,false,Rx,0,8,AE,44,32,12,B5,0C,80,20,
5720024,0000019F,false,Rx,0,8,00,00,7D,01,00,6A,90,FE,
5720133,00000155,false,Rx,0,8,3E,87,CD,54,5A,C0,02,BA,
5723313,00000157,false,Rx,0,8,D5,57,09,C4,FF,E0,00,80,
5724275,000004F7,false,Rx,0,8,00,1D,08,00,88,24,06,F0,
5724337,000001C7,false,Rx,0,4,AA,A0,FF,C0,00,00,00,00,
5724698,00000428,false,Rx,0,8,00,00,00,7F,00,00,00,00,
5724876,000001A1,false,Rx,0,8,AE,44,32,12,B5,0C,80,20,
5725044,0000042F,false,Rx,0,2,00,20,00,00,00,00,00,00,
5730101,0000019F,false,Rx,0,8,00,00,7D,06,00,6A,90,FE,
5730161,00000155,false,Rx,0,8,3E,87,CD,54,5A,C0,02,B9,
5733457,00000157,false,Rx,0,8,D5,A7,09,C4,FF,E0,00,80,
5734300,000001C7,false,Rx,0,4,AA,A0,FF,C0,00,00,00,00,
5734882,000001A1,false,Rx,0,8,AE,44,32,12,B5,0C,80,20,
5740109,0000019F,false,Rx,0,8,00,00,7D,0B,00,6A,90,FE,
5740163,00000155,false,Rx,0,8,3E,87,CD,54,5A,C0,02,BA,
5743496,00000157,false,Rx,0,8,D5,F7,09,C4,FF,E0,00,80,
5744303,000001C7,false,Rx,0,4,AA,A0,FF,C0,00,00,00,00,
5744996,000001A1,false,Rx,0,8,AE,84,32,12,B5,0C,80,20,
5749916,0000019F,false,Rx,0,8,00,00,7D,00,00,6A,90,FE,
5750241,00000155,false,Rx,0,8,3E,87,CD,54,5A,C0,02,B9,
5753575,00000157,false,Rx,0,8,D5,47,09,C4,FF,E0,00,80,
5754400,000001C7,false,Rx,0,4,AA,A0,FF,C0,00,00,00,00,
5755101,000001A1,false,Rx,0,8,AE,84,32,12,B5,0C,80,20,
5760100,0000019F,false,Rx,0,8,00,00,7D,05,00,6A,90,FE,
5760143,00000511,false,Rx,0,7,04,E1,8C,FB,BF,82,C9,00,
5760411,00000155,false,Rx,0,8,3E,87,CD,54,5A,C0,02,BA,
5763464,00000157,false,Rx,0,8,D5,97,09,C4,FF,E0,00,80,
5764219,000001C7,false,Rx,0,4,AA,A0,FF,C0,00,00,00,00,
5764984,000001A1,false,Rx,0,8,AE,84,32,12,B5,0C,80,20,
5770100,0000019F,false,Rx,0,8,00,00,7D,0A,00,6A,90,FE,
5770109,00000155,false,Rx,0,8,3E,87,CD,54,5A,C0,02,B9,
5773480,00000157,false,Rx,0,8,D5,E7,09,C4,FF,E0,00,80,
5774400,000001C7,false,Rx,0,4,AA,A0,FF,C0,00,00,00,00,
5775098,000001A1,false,Rx,0,8,AE,84,32,12,B5,0C,80,20,
5779445,00000423,false,Rx,0,8,07,1E,00,02,5D,80,B2,DA,
5780043,0000019F,false,Rx,0,8,00,00,7D,0F,00,6A,90,FE,
5780137,00000155,false,Rx,0,8,3E,87,CD,54,5A,C0,02,B9,
5780502,00000424,false,Rx,0,8,11,40,56,C1,2D,5E,55,2E,
5780578,00000425,false,Rx,0,8,2A,6A,44,9C,42,0E,B1,06,
5781038,00000445,false,Rx,0,7,80,55,AA,65,04,82,00,00,
5783512,00000157,false,Rx,0,8,D5,37,09,C4,FF,E0,00,80,
5783602,00000426,false,Rx,0,8,00,60,01,00,59,5C,00,40,
5784151,000001C7,false,Rx,0,4,AA,A0,FF,C0,00,00,00,00,
5784859,000001A1,false,Rx,0,8,AE,84,32,12,B5,0C,80,20,
5789924,0000019F,false,Rx,0,8,00,00,7D,04,00,6A,90,FE,
5790206,00000155,false,Rx,0,8,3E,87,CD,54,5A,C0,02,BA,
5793552,00000157,false,Rx,0,8,D5,87,09,C4,FF,E0,00,80,
5794426,000001C7,false,Rx,0,4,AA,A0,FF,C0,00,00,00,00,
5795045,000001A1,false,Rx,0,8,AE,44,32,12,B5,0C,80,20,
5799273,00000435,false,Rx,0,8,FF,FF,1E,0B,2A,00,00,00,
5800101,0000019F,false,Rx,0,8,00,00,7D,09,00,6A,90,FE,
5800110,00000155,false,Rx,0,8,3E,87,CD,54,5A,C0,02,B9,
5803476,00000157,false,Rx,0,8,D5,D7,09,C4,FF,E0,00,80,
5803494,00000436,false,Rx,0,6,86,18,76,CC,FF,DC,00,00,
5804325,000001C7,false,Rx,0,4,AA,A0,FF,C0,00,00,00,00,
5805094,000001A1,false,Rx,0,8,AE,84,32,12,95,0C,80,20,
5809913,0000019F,false,Rx,0,8,00,00,7D,0E,00,6A,90,FE,
5810142,00000155,false,Rx,0,8,3E,87,CD,54,5A,C0,02,B9,
5810371,00000419,false,Rx,0,6,5F,09,2A,E6,30,00,00,00,
5813372,00000157,false,Rx,0,8,D5,27,09,C4,FF,E0,00,80,
5814330,000001C7,false,Rx,0,4,AA,A0,FF,C0,00,00,00,00,
5814841,000001A1,false,Rx,0,8,AE,84,32,12,95,0C,80,20,
5820107,0000019F,false,Rx,0,8,00,00,7D,03,00,6A,90,FE,
5820152,00000155,false,Rx,0,8,3E,87,CD,54,5A,C0,02,B9,
5823532,00000157,false,Rx,0,8,D5,77,09,C4,FF,E0,00,80,
5824400,000004F7,false,Rx,0,8,00,1D,08,00,88,24,06,F0,
5824407,000001C7,false,Rx,0,4,AA,A0,FF,C0,00,00,00,00,
5824909,00000428,false,Rx,0,8,00,00,00,7F,00,00,00,00,
5824919,000001A1,false,Rx,0,8,AE,44,32,12,95,0C,80,20,
5825028,0000042F,false,Rx,0,2,00,20,00,00,00,00,00,00,
5830103,0000019F,false,Rx,0,8,00,00,7D,08,00,6A,90,FE,
5830162,00000155,false,Rx,0,8,3E,87,CD,54,5A,C0,02,B9,
5833599,00000157,false,Rx,0,8,D5,C7,09,C4,FF,E0,00,80,
5834451,000001C7,false,Rx,0,4,AA,A0,FF,C0,00,00,00,00,
5835007,000001A1,false,Rx,0,8,AE,84,32,12,95,0C,80,20,
5840096,0000019F,false,Rx,0,8,00,00,7D,0D,00,6A,90,FE,
5840163,00000155,false,Rx,0,8,3E,87,CD,54,5A,C0,02,B9,
5843599,00000157,false,Rx,0,8,D5,17,09,C4,FF,E0,00,80,
5844357,000001C7,false,Rx,0,4,AA,A0,FF,C0,00,00,00,00,
5845095,000001A1,false,Rx,0,8,AE,84,32,12,95,0C,80,20,
5849897,0000019F,false,Rx,0,8,00,00,7D,02,00,6A,90,FE,
5850150,00000155,false,Rx,0,8,3E,87,CD,54,5A,C0,02,B9,
5853402,00000157,false,Rx,0,8,D5,67,09,C4,FF,E0,00,80,
5854199,000001C7,false,Rx,0,4,AA,A0,FF,C0,00,00,00,00,
5854851,000001A1,false,Rx,0,8,AE,44,32,12,95,0C,80,20,
5859866,0000019F,false,Rx,0,8,00,00,7D,07,00,6A,90,FE,
5860096,00000155,false,Rx,0,8,3E,87,CD,54,5A,C0,02,B9,
5860298,00000511,false,Rx,0,7,04,20,55,B4,2A,8F,AC,00,
5863349,00000157,false,Rx,0,8,D5,B7,09,C4,FF,E0,00,80,
5864224,000001C7,false,Rx,0,4,AA,A0,FF,C0,00,00,00,00,
5864852,000001A1,false,Rx,0,8,AE,44,32,12,95,0C,80,20,
5869849,0000019F,false,Rx,0,8,00,00,7D,0C,00,6A,90,FE,
5870148,00000155,false,Rx,0,8,3E,87,CD,54,5A,C0,02,B9,
5873349,00000157,false,Rx,0,8,D5,07,09,C4,FF,E0,00,80,
5874225,000001C7,false,Rx,0,4,AA,A0,FF,C0,00,00,00,00,
5874852,000001A1,false,Rx,0,8,AE,84,32,12,95,0C,80,20,
5879074,00000423,false,Rx,0,8,07,1E,00,02,B2,80,5D,DA,
5879849,0000019F,false,Rx,0,8,00,00,7D,01,00,6A,90,FE,
5880148,00000155,false,Rx,0,8,3E,87,CD,54,5A,C0,02,B9,
5880325,00000424,false,Rx,0,8,11,40,56,C1,2D,5E,55,2E,
5880552,00000425,false,Rx,0,8,2A,6A,44,9C,42,0E,B1,06,
5880854,00000445,false,Rx,0,7,80,55,55,65,04,82,00,00,
5883299,00000157,false,Rx,0,8,D5,57,09,C4,FF,E0,00,80,
5883550,00000426,false,Rx,0,8,00,60,01,00,59,5C,00,40,
5884224,000001C7,false,Rx,0,4,AA,A0,FF,C0,00,00,00,00,
5884852,000001A1,false,Rx,0,8,AE,44,32,12,95,0C,80,20,
5889873,0000019F,false,Rx,0,8,00,00,7D,06,00,6A,90,FE,
5890144,00000155,false,Rx,0,8,3E,87,CD,54,5A,C0,02,B9,
5893392,00000157,false,Rx,0,8,D5,A7,09,C4,FF,E0,00,80,
5894240,000001C7,false,Rx,0,4,AA,A0,FF,C0,00,00,00,00,
5894839,000001A1,false,Rx,0,8,AE,84,32,12,95,0C,80,20,
5898978,00000435,false,Rx,0,8,FF,FF,1E,0B,2A,00,00,00,
5899877,0000019F,false,Rx,0,8,00,00,7D,0B,00,6A,90,FE,
5900124,00000155,false,Rx,0,8,3E,87,CD,54,5A,C0,02,B9,
5903394,00000157,false,Rx,0,8,D5,F7,09,C4,FF,E0,00,80,
5903586,00000436,false,Rx,0,6,86,18,76,CC,FF,DC,00,00,
5904243,000001C7,false,Rx,0,4,AA,A0,FF,C0,00,00,00,00,
5904854,000001A1,false,Rx,0,8,AE,84,32,12,95,0C,80,20,
5909879,0000019F,false,Rx,0,8,00,00,7D,00,00,6A,90,FE,
5910146,00000155,false,Rx,0,8,3E,87,CD,54,5A,C0,02,B9,
5910298,00000419,false,Rx,0,6,5F,09,2A,E6,30,00,00,00,
5913374,00000157,false,Rx,0,8,D5,47,09,C4,FF,E0,00,80,
5914249,000001C7,false,Rx,0,4,AA,A0,FF,C0,00,00,00,00,
5914851,000001A1,false,Rx,0,8,AE,84,32,12,95,0C,80,20,
5919866,0000019F,false,Rx,0,8,00,00,7D,05,00,6A,90,FE,
5920087,00000155,false,Rx,0,8,3E,87,CD,54,5A,C0,02,B9,
5923374,00000157,false,Rx,0,8,D5,97,09,C4,FF,E0,00,80,
5924323,000004F7,false,Rx,0,8,00,1D,08,00,88,24,06,F0,
5924509,000001C7,false,Rx,0,4,AA,A0,FF,C0,00,00,00,00,
5924753,00000428,false,Rx,0,8,00,00,00,7F,00,00,00,00,
5924980,000001A1,false,Rx,0,8,AE,84,32,12,95,0C,80,20,
5925146,0000042F,false,Rx,0,2,00,20,00,00,00,00,00,00,
5929874,0000019F,false,Rx,0,8,00,00,7D,0A,00,6A,90,FE,
5930148,00000155,false,Rx,0,8,3E,87,CD,54,5A,C0,02,B9,
5933349,00000157,false,Rx,0,8,D5,E7,09,C4,FF,E0,00,80,
5934273,000001C7,false,Rx,0,4,AA,A0,FF,C0,00,00,00,00,
5934852,000001A1,false,Rx,0,8,AE,C4,32,12,95,0C,80,20,
5939848,0000019F,false,Rx,0,8,00,00,7D,0F,00,6A,90,FE,
5940147,00000155,false,Rx,0,8,3E,87,CD,54,5A,C0,02,B9,
5943275,00000157,false,Rx,0,8,D5,37,09,C4,FF,E0,00,80,
5944263,000001C7,false,Rx,0,4,AA,A0,FF,C0,00,00,00,00,
5944833,000001A1,false,Rx,0,8,AE,44,32,12,95,0C,80,20,
5949858,0000019F,false,Rx,0,8,00,00,7D,04,00,6A,90,FE,
5950132,00000155,false,Rx,0,8,3E,87,CD,54,5A,C0,02,B9,
5953527,00000157,false,Rx,0,8,D5,87,09,C4,FF,E0,00,80,
5954527,000001C7,false,Rx,0,4,AA,A0,FF,C0,00,00,00,00,
5954909,000001A1,false,Rx,0,8,AE,44,32,12,95,0C,80,20,
5959919,0000019F,false,Rx,0,8,00,00,7D,09,00,6A,90,FE,
5960166,00000155,false,Rx,0,8,3E,87,CD,54,5A,C0,02,B9,
5960316,00000511,false,Rx,0,7,04,5F,1E,6D,95,9C,8F,00,
5963576,00000157,false,Rx,0,8,D5,D7,09,C4,FF,E0,00,80,
5964283,000001C7,false,Rx,0,4,AA,A0,FF,C0,00,00,00,00,
5965001,000001A1,false,Rx,0,8,AE,84,32,12,95,0C,80,20,
5970016,0000019F,false,Rx,0,8,00,00,7D,0E,00,6A,90,FE,
5970125,00000155,false,Rx,0,8,3E,87,CD,54,5A,C0,02,B9,
5973506,00000157,false,Rx,0,8,D5,27,09,C4,FF,E0,00,80,
5974550,000001C7,false,Rx,0,4,AA,A0,FF,C0,00,00,00,00,
5974905,000001A1,false,Rx,0,8,AE,44,32,12,95,0C,80,20,
5979331,00000423,false,Rx,0,8,07,1E,00,02,B2,80,5D,DA,
5980134,0000019F,false,Rx,0,8,00,00,7D,03,00,6A,90,FE,
5980145,00000155,false,Rx,0,8,3E,87,CD,54,5A,C0,02,B9,
5980363,00000424,false,Rx,0,8,11,40,56,C1,2D,5E,AA,2E,
5980650,00000425,false,Rx,0,8,2A,6A,44,9C,42,0E,B1,06,
5980911,00000445,false,Rx,0,7,80,55,55,65,04,82,00,00,
5983422,00000157,false,Rx,0,8,D5,77,09,C4,FF,E0,00,80,
5983675,00000426,false,Rx,0,8,00,60,01,00,59,5C,00,40,
5984458,000001C7,false,Rx,0,4,AA,A0,FF,C0,00,00,00,00,
5985001,000001A1,false,Rx,0,8,AE,84,32,12,95,0C,80,20,
5990127,0000019F,false,Rx,0,8,00,00,7D,08,00,6A,90,FE,
5990453,00000155,false,Rx,0,8,3E,87,CD,54,5A,C0,02,B9,
5993599,00000157,false,Rx,0,8,D5,C7,09,C4,FF,E0,00,80,
5994551,000001C7,false,Rx,0,4,AA,A0,FF,C0,00,00,00,00,
5994936,000001A1,false,Rx,0,8,AE,84,32,12,95,0C,80,20,
5999232,00000435,false,Rx,0,8,FF,FF,1E,0B,2A,00,00,00,
5999869,0000019F,false,Rx,0,8,00,00,7D,0D,00,6A,90,FE,
6000153,00000155,false,Rx,0,8,3E,87,CD,54,5A,C0,02,B9,
6003629,00000157,false,Rx,0,8,D5,17,09,C4,FF,E0,00,80,
6003638,00000436,false,Rx,0,6,86,18,76,CC,FF,DC,00,00,
6004383,000001C7,false,Rx,0,4,AA,A0,FF,C0,00,00,00,00,
6005038,000001A1,false,Rx,0,8,AE,44,32,12,95,0C,80,20,
6009968,0000019F,false,Rx,0,8,00,00,7D,02,00,6A,90,FE,
6010189,00000155,false,Rx,0,8,3E,87,CD,54,5A,C0,02,B9,
6010352,00000419,false,Rx,0,6,5F,09,2A,E6,30,00,00,00,
6013633,00000157,false,Rx,0,8,D5,67,09,C4,FF,E0,00,80,
6014574,000001C7,false,Rx,0,4,AA,A0,FF,C0,00,00,00,00,
6014900,000001A1,false,Rx,0,8,AE,84,32,12,95,0C,80,20,
6019949,0000019F,false,Rx,0,8,00,00,7D,07,00,6A,90,FE,
6020190,00000155,false,Rx,0,8,3E,87,CD,54,5A,C0,02,B9,
6023395,00000157,false,Rx,0,8,D5,B7,09,C4,FF,E0,00,80,
6024408,000004F7,false,Rx,0,8,00,1D,08,00,88,24,06,F0,
6024577,000001C7,false,Rx,0,4,AA,A0,FF,C0,00,00,00,00,
6024998,00000428,false,Rx,0,8,00,00,00,7F,00,00,00,00,
6025065,000001A1,false,Rx,0,8,AE,84,32,12,95,0C,80,20,
6025219,0000042F,false,Rx,0,2,00,20,00,00,00,00,00,00,
6030128,0000019F,false,Rx,0,8,00,00,7D,0C,00,6A,90,FE,
6030137,00000155,false,Rx,0,8,3E,87,CD,54,5A,C0,02,B9,
6033552,00000157,false,Rx,0,8,D5,07,09,C4,FF,E0,00,80,
6034581,000001C7,false,Rx,0,4,AA,A0,FF,C0,00,00,00,00,
6034934,000001A1,false,Rx,0,8,AE,44,32,12,95,0C,80,20,
6040132,0000019F,false,Rx,0,8,00,00,7D,01,00,6A,90,FE,
6040139,00000155,false,Rx,0,8,3E,87,CD,54,5A,C0,02,B9,
6043456,00000157,false,Rx,0,8,D5,57,09,C4,FF,E0,00,80,
6044395,000001C7,false,Rx,0,4,AA,A0,FF,C0,00,00,00,00,
6044924,000001A1,false,Rx,0,8,AE,44,32,12,95,0C,80,20,
6050128,0000019F,false,Rx,0,8,00,00,7D,06,00,6A,90,FE,
6050136,00000155,false,Rx,0,8,3E,87,CD,54,5A,C0,02,B9,
6053601,00000157,false,Rx,0,8,D5,A7,09,C4,FF,E0,00,80,
6054601,000001C7,false,Rx,0,4,AA,A0,FF,C0,00,00,00,00,
6054935,000001A1,false,Rx,0,8,AE,84,32,12,95,0C,80,20,
6060123,0000019F,false,Rx,0,8,00,00,7D,0B,00,6A,90,FE,
6060139,00000155,false,Rx,0,8,3E,87,CD,54,5A,C0,02,B9,
6060404,00000511,false,Rx,0,7,04,9E,E7,26,00,A9,72,00,
6063550,00000157,false,Rx,0,8,D5,F7,09,C4,FF,E0,00,80,
6064500,000001C7,false,Rx,0,4,AA,A0,FF,C0,00,00,00,00,
6064858,000001A1,false,Rx,0,8,AE,44,32,12,95,0C,80,20,
6069913,0000019F,false,Rx,0,8,00,00,7D,00,00,6A,90,FE,
6070225,00000155,false,Rx,0,8,3E,87,CD,54,5A,C0,02,B9,
6073527,00000157,false,Rx,0,8,D5,47,09,C4,FF,E0,00,80,
6074603,000001C7,false,Rx,0,4,AA,A0,FF,C0,00,00,00,00,
6074923,000001A1,false,Rx,0,8,AE,84,32,12,95,0C,80,20,
6079328,00000423,false,Rx,0,8,07,1E,00,02,B2,80,5D,DA,
6080053,0000019F,false,Rx,0,8,00,00,7D,05,00,6A,90,FE,
6080202,00000155,false,Rx,0,8,3E,87,CD,54,5A,C0,02,B9,
6080384,00000424,false,Rx,0,8,11,40,56,C1,2D,5E,AA,2E,
6080654,00000425,false,Rx,0,8,2A,6A,44,9C,42,0E,B1,06,
6080846,00000445,false,Rx,0,7,80,55,55,65,04,82,00,00,
6083340,00000157,false,Rx,0,8,D5,97,09,C4,FF,E0,00,80,
6083565,00000426,false,Rx,0,8,00,60,01,00,59,5C,00,40,
6084365,000001C7,false,Rx,0,4,AA,A0,FF,C0,00,00,00,00,
6085029,000001A1,false,Rx,0,8,AE,84,32,12,95,0C,80,20,
6090126,0000019F,false,Rx,0,8,00,00,7D,0A,00,6A,90,FE,
6090134,00000155,false,Rx,0,8,3E,87,CD,54,5A,C0,02,B9,
6093573,00000157,false,Rx,0,8,D5,E7,09,C4,FF,E0,00,80,
6094624,000001C7,false,Rx,0,4,AA,A0,FF,C0,00,00,00,00,
6094944,000001A1,false,Rx,0,8,AE,44,32,12,95,0C,80,20,
6099228,00000435,false,Rx,0,8,FF,FF,1E,0B,2A,00,00,00,
6099890,0000019F,false,Rx,0,8,00,00,7D,0F,00,6A,90,FE,
6100193,00000155,false,Rx,0,8,3E,87,CD,54,5A,C0,02,B9,
6103315,00000157,false,Rx,0,8,D5,37,09,C4,FF,E0,00,80,
6103517,00000436,false,Rx,0,6,86,18,76,CC,FF,DC,00,00,
6104412,000001C7,false,Rx,0,4,AA,A0,FF,C0,00,00,00,00,
6104916,000001A1,false,Rx,0,8,AE,84,32,12,95,0C,80,20,
6109911,0000019F,false,Rx,0,8,00,00,7D,04,00,6A,90,FE,
6110187,00000155,false,Rx,0,8,3E,87,CD,54,5A,C0,02,B9,
6110365,00000419,false,Rx,0,6,5F,09,2A,E6,30,00,00,00,
6113336,00000157,false,Rx,0,8,D5,87,09,C4,FF,E0,00,80,
6114390,000001C7,false,Rx,0,4,AA,A0,FF,C0,00,00,00,00,
6114890,000001A1,false,Rx,0,8,AE,84,32,12,95,0C,80,20,
6119912,0000019F,false,Rx,0,8,00,00,7D,09,00,6A,90,FE,
6120187,00000155,false,Rx,0,8,3E,87,CD,54,5A,C0,02,B9,
6123361,00000157,false,Rx,0,8,D5,D7,09,C4,FF,E0,00,80,
6124465,000004F7,false,Rx,0,8,00,1D,08,00,88,24,06,F0,
6124644,000001C7,false,Rx,0,4,AA,A0,FF,C0,00,00,00,00,
6124893,000001A1,false,Rx,0,8,AE,44,32,12,95,0C,80,20,
6125180,00000428,false,Rx,0,8,00,00,00,7F,00,00,00,00,
6125314,0000042F,false,Rx,0,2,00,20,00,00,00,00,00,00,
6129911,0000019F,false,Rx,0,8,00,00,7D,0E,00,6A,90,FE,
6130187,00000155,false,Rx,0,8,3E,87,CD,54,5A,C0,02,B9,
6133361,00000157,false,Rx,0,8,D5,27,09,C4,FF,E0,00,80,
6134386,000001C7,false,Rx,0,4,AA,A0,FF,C0,00,00,00,00,
6134915,000001A1,false,Rx,0,8,AE,84,32,12,95,0C,80,20,
6139911,0000019F,false,Rx,0,8,00,00,7D,03,00,6A,90,FE,
6140186,00000155,false,Rx,0,8,3E,87,CD,54,5A,C0,02,BA,
6143340,00000157,false,Rx,0,8,D5,77,09,C4,FF,E0,00,80,
6144334,000001C7,false,Rx,0,4,AA,A0,FF,C0,00,00,00,00,
6144856,000001A1,false,Rx,0,8,AE,84,32,12,95,0C,80,20,
6149904,0000019F,false,Rx,0,8,00,00,7D,08,00,6A,90,FE,
6150152,00000155,false,Rx,0,8,3E,87,CD,54,5A,C0,02,BA,
6153305,00000157,false,Rx,0,8,D5,C7,09,C4,FF,E0,00,80,
6154375,000001C7,false,Rx,0,4,AA,A0,FF,C0,00,00,00,00,
6154878,000001A1,false,Rx,0,8,AE,84,32,12,95,0C,80,20,
6159915,0000019F,false,Rx,0,8,00,00,7D,0D,00,6A,90,FE,
6160187,00000155,false,Rx,0,8,3E,87,CD,54,5A,C0,02,B9,
6160327,00000511,false,Rx,0,7,04,DD,B0,DF,6B,B6,55,00,
6163437,00000157,false,Rx,0,8,D5,17,09,C4,FF,E0,00,80,
6164373,000001C7,false,Rx,0,4,AA,A0,FF,C0,00,00,00,00,
6164916,000001A1,false,Rx,0,8,AE,84,32,12,95,0C,80,20,
6169901,0000019F,false,Rx,0,8,00,00,7D,02,00,6A,90,FE,
6170177,00000155,false,Rx,0,8,3E,87,CD,54,5A,C0,02,B9,
6173314,00000157,false,Rx,0,8,D5,67,09,C4,FF,E0,00,80,
6174395,000001C7,false,Rx,0,4,AA,A0,FF,C0,00,00,00,00,
6174914,000001A1,false,Rx,0,8,AE,C4,32,12,95,0C,80,20,
6179114,00000423,false,Rx,0,8,07,1E,00,02,B2,80,5D,DA,
6179937,0000019F,false,Rx,0,8,00,00,7D,07,00,6A,90,FE,
6180189,00000155,false,Rx,0,8,3E,87,CD,54,5A,C0,02,B9,
6180389,00000424,false,Rx,0,8,11,40,56,C1,2D,5E,AA,2E,
6180595,00000425,false,Rx,0,8,2A,6A,44,9C,42,0E,B1,06,
6180823,00000445,false,Rx,0,7,80,55,55,65,04,82,00,00,
6183367,00000157,false,Rx,0,8,D5,B7,09,C4,FF,E0,00,80,
6183614,00000426,false,Rx,0,8,00,60,01,00,59,5C,00,40,
6184415,000001C7,false,Rx,0,4,AA,A0,FF,C0,00,00,00,00,
6184917,000001A1,false,Rx,0,8,AE,44,32,12,95,0C,80,20,
6189937,0000019F,false,Rx,0,8,00,00,7D,0C,00,6A,90,FE,
6190187,00000155,false,Rx,0,8,3E,87,CD,54,5A,C0,02,B9,
6193290,00000157,false,Rx,0,8,D5,07,09,C4,FF,E0,00,80,
6194384,000001C7,false,Rx,0,4,AA,A0,FF,C0,00,00,00,00,
6194856,000001A1,false,Rx,0,8,AE,84,32,12,95,0C,80,20,
6199165,00000435,false,Rx,0,8,FF,FF,1E,0B,2A,00,00,00,
6199881,0000019F,false,Rx,0,8,00,00,7D,01,00,6A,90,FE,
6200148,00000155,false,Rx,0,8,3E,87,CD,54,5A,C0,02,BA,
6203648,00000157,false,Rx,0,8,D5,57,09,C4,FF,E0,00,80,
6203657,00000436,false,Rx,0,6,86,18,76,CC,FF,DC,00,00,
6204558,000001C7,false,Rx,0,4,AA,A0,FF,C0,00,00,00,00,
6204961,000001A1,false,Rx,0,8,AE,84,32,12,95,0C,80,20,
6209908,0000019F,false,Rx,0,8,00,00,7D,06,00,6A,90,FE,
6210140,00000155,false,Rx,0,8,3E,87,CD,54,5A,C0,02,B9,
6210318,00000419,false,Rx,0,6,5F,09,2A,E6,30,00,00,00,
6213559,00000157,false,Rx,0,8,D5,A7,09,C4,FF,E0,00,80,
6214555,000001C7,false,Rx,0,4,AA,A0,FF,C0,00,00,00,00,
6215016,000001A1,false,Rx,0,8,AE,44,32,12,95,0C,80,20,
6220021,0000019F,false,Rx,0,8,00,00,7D,0B,00,6A,90,FE,
6220178,00000155,false,Rx,0,8,3E,87,CD,54,5A,C0,02,B9,
6223552,00000157,false,Rx,0,8,D5,F7,09,C4,FF,E0,00,80,
6224671,000004F7,false,Rx,0,8,00,1D,08,00,88,28,06,F0,
6224680,000001C7,false,Rx,0,4,AA,A0,FF,C0,00,00,00,00,
6224904,000001A1,false,Rx,0,8,AE,84,32,12,95,0C,80,20,
6225318,00000428,false,Rx,0,8,00,00,00,7F,00,00,00,00,
6225328,0000042F,false,Rx,0,2,00,20,00,00,00,00,00,00,
6229940,0000019F,false,Rx,0,8,00,00,7D,00,00,6A,90,FE,
6230190,00000155,false,Rx,0,8,3E,87,CD,54,5A,C0,02,BA,
6233623,00000157,false,Rx,0,8,D5,47,09,C4,FF,E0,00,80,
6234677,000001C7,false,Rx,0,4,AA,A0,FF,C0,00,00,00,00,
6234921,000001A1,false,Rx,0,8,AE,84,32,12,95,0C,80,20,
6240145,0000019F,false,Rx,0,8,00,00,7D,05,00,6A,90,FE,
6240155,00000155,false,Rx,0,8,3E,87,CD,54,5A,C0,02,B9,
6243549,00000157,false,Rx,0,8,D5,97,09,C4,FF,E0,00,80,
6244547,000001C7,false,Rx,0,4,AA,A0,FF,C0,00,00,00,00,
6245025,000001A1,false,Rx,0,8,AE,44,32,12,95,0C,80,20,
6250152,0000019F,false,Rx,0,8,00,00,7D,0A,00,6A,90,FE,
6250162,00000155,false,Rx,0,8,3E,87,CD,54,5A,C0,02,BA,
6253350,00000157,false,Rx,0,8,D5,E7,09,C4,FF,E0,00,80,
6254484,000001C7,false,Rx,0,4,AA,A0,FF,C0,00,00,00,00,
6255027,000001A1,false,Rx,0,8,AE,84,32,12,95,0C,80,20,
6260155,0000019F,false,Rx,0,8,00,00,7D,0F,00,6A,90,FE,
6260163,00000155,false,Rx,0,8,3E,87,CD,54,5A,C0,02,B9,
6260366,00000511,false,Rx,0,7,04,1C,79,98,D6,C3,38,00,
6263463,00000157,false,Rx,0,8,D5,37,09,C4,FF,E0,00,80,
6264556,000001C7,false,Rx,0,4,AA,A0,FF,C0,00,00,00,00,
6265087,000001A1,false,Rx,0,8,AE,84,32,12,95,0C,80,20,
6270054,0000019F,false,Rx,0,8,00,00,7D,04,00,6A,90,FE,
6270210,00000155,false,Rx,0,8,3E,87,CD,54,5A,C0,02,B9,
6273420,00000157,false,Rx,0,8,D5,87,09,C4,FF,E0,00,80,
6274676,000001C7,false,Rx,0,4,AA,A0,FF,C0,00,00,00,00,
6274910,000001A1,false,Rx,0,8,AE,44,32,12,95,0C,80,20,
6279393,00000423,false,Rx,0,8,07,1E,00,02,B2,80,5D,DA,
6279989,0000019F,false,Rx,0,8,00,00,7D,09,00,6A,90,FE,
6280188,00000155,false,Rx,0,8,3E,87,CD,54,5A,C0,02,B9,
6280391,00000424,false,Rx,0,8,11,40,56,C1,2D,5E,AA,2E,
6280568,00000425,false,Rx,0,8,2A,6A,44,9C,42,0E,B1,06,
6280796,00000445,false,Rx,0,7,80,55,55,65,04,82,00,00,
6283480,00000157,false,Rx,0,8,D5,D7,09,C4,FF,E0,00,80,
6283545,00000426,false,Rx,0,8,00,60,01,00,59,5C,00,40,
6284660,000001C7,false,Rx,0,4,AA,A0,FF,C0,00,00,00,00,
6284960,000001A1,false,Rx,0,8,AE,44,32,12,95,0C,80,20,
6290109,0000019F,false,Rx,0,8,00,00,7D,0E,00,6A,90,FE,
6290131,00000155,false,Rx,0,8,3E,87,CD,54,5A,C0,02,B9,
6293553,00000157,false,Rx,0,8,D5,27,09,C4,FF,E0,00,80,
6294701,000001C7,false,Rx,0,4,AA,A0,FF,C0,00,00,00,00,
6294934,000001A1,false,Rx,0,8,AE,44,32,12,95,0C,80,20,
6299404,00000435,false,Rx,0,8,FF,FF,1E,0B,2A,00,00,00,
6300144,0000019F,false,Rx,0,8,00,00,7D,03,00,6A,90,FE,
6300153,00000155,false,Rx,0,8,3E,87,CD,54,5A,C0,02,B9,
6303468,00000157,false,Rx,0,8,D5,77,09,C4,FF,E0,00,80,
6303479,00000436,false,Rx,0,6,86,18,76,CC,FF,DC,00,00,
6304568,000001C7,false,Rx,0,4,AA,A0,FF,C0,00,00,00,00,
6304934,000001A1,false,Rx,0,8,AE,44,32,12,95,0C,80,20,
6310144,0000019F,false,Rx,0,8,00,00,7D,08,00,6A,90,FE,
6310151,00000155,false,Rx,0,8,3E,87,CD,54,5A,C0,02,BA,
6310366,00000419,false,Rx,0,6,5F,09,2A,E6,30,00,00,00,
6313327,00000157,false,Rx,0,8,D5,C7,09,C4,FF,E0,00,80,
6314707,000001C7,false,Rx,0,4,AA,A0,FF,C0,00,00,00,00,
6314913,000001A1,false,Rx,0,8,AE,84,32,12,95,0C,80,20,
6320175,0000019F,false,Rx,0,8,00,00,7D,0D,00,6A,90,FE,
6320186,00000155,false,Rx,0,8,3E,87,CD,54,5A,C0,02,BA,
6323601,00000157,false,Rx,0,8,D5,17,09,C4,FF,E0,00,80,
6324680,000004F7,false,Rx,0,8,00,1D,08,00,88,28,06,F0,
6324755,000001C7,false,Rx,0,4,AA,A0,FF,C0,00,00,00,00,
6325053,000001A1,false,Rx,0,8,AE,84,32,12,95,0C,80,20,
6325271,00000428,false,Rx,0,8,00,00,00,7F,00,00,00,00,
6325446,0000042F,false,Rx,0,2,00,20,00,00,00,00,00,00,
6330075,0000019F,false,Rx,0,8,00,00,7D,02,00,6A,90,FE,
6330199,00000155,false,Rx,0,8,3E,87,CD,54,5A,C0,02,B9,
6333328,00000157,false,Rx,0,8,D5,67,09,C4,FF,E0,00,80,
6334562,000001C7,false,Rx,0,4,AA,A0,FF,C0,00,00,00,00,
6334949,000001A1,false,Rx,0,8,AE,84,32,12,95,0C,80,20,
6340160,0000019F,false,Rx,0,8,00,00,7D,07,00,6A,90,FE,
6340168,00000155,false,Rx,0,8,3E,87,CD,54,5A,C0,02,B9,
6343526,00000157,false,Rx,0,8,D5,B7,09,C4,FF,E0,00,80,
6344732,000001C7,false,Rx,0,4,AA,A0,FF,C0,00,00,00,00,
6344895,000001A1,false,Rx,0,8,AE,84,32,12,95,0C,80,20,
6349947,0000019F,false,Rx,0,8,00,00,7D,0C,00,6A,90,FE,
6350190,00000155,false,Rx,0,8,3E,87,CD,54,5A,C0,02,B9,
6353376,00000157,false,Rx,0,8,D5,07,09,C4,FF,E0,00,80,
6354538,000001C7,false,Rx,0,4,AA,A0,FF,C0,00,00,00,00,
6354915,000001A1,false,Rx,0,8,AE,84,32,12,95,0C,80,20,
6359902,0000019F,false,Rx,0,8,00,00,7D,01,00,6A,90,FE,
6360186,00000155,false,Rx,0,8,3E,87,CD,54,5A,C0,02,B9,
6360388,00000511,false,Rx,0,7,04,5B,42,51,41,D0,1B,00,
6363386,00000157,false,Rx,0,8,D5,57,09,C4,FF,E0,00,80,
6364514,000001C7,false,Rx,0,4,AA,A0,FF,C0,00,00,00,00,
6364941,000001A1,false,Rx,0,8,AE,44,32,12,95,0C,80,20,
6369938,0000019F,false,Rx,0,8,00,00,7D,06,00,6A,90,FE,
6370187,00000155,false,Rx,0,8,3E,87,CD,54,5A,C0,02,B9,
6373362,00000157,false,Rx,0,8,D5,A7,09,C4,FF,E0,00,80,
6374537,000001C7,false,Rx,0,4,AA,A0,FF,C0,00,00,00,00,
6374941,000001A1,false,Rx,0,8,AE,84,32,12,95,0C,80,20,
6379037,00000423,false,Rx,0,8,07,1E,00,02,5D,80,B2,DA,
6379937,0000019F,false,Rx,0,8,00,00,7D,0B,00,6A,90,FE,
6380186,00000155,false,Rx,0,8,3E,87,CD,54,5A,C0,02,B9,
6380417,00000424,false,Rx,0,8,11,40,56,C1,2D,5E,AA,2E,
6380640,00000425,false,Rx,0,8,2A,6A,44,9C,42,0E,B1,06,
6380850,00000445,false,Rx,0,7,80,55,AA,65,04,82,00,00,
6383337,00000157,false,Rx,0,8,D5,F7,09,C4,FF,E0,00,80,
6383589,00000426,false,Rx,0,8,00,60,01,00,59,5C,00,40,
6384545,000001C7,false,Rx,0,4,AA,A0,FF,C0,00,00,00,00,
6384941,000001A1,false,Rx,0,8,AE,44,32,12,95,0C,80,20,
6389937,0000019F,false,Rx,0,8,00,00,7D,00,00,6A,90,FE,
6390190,00000155,false,Rx,0,8,3E,87,CD,54,5A,C0,02,B9,
6393265,00000157,false,Rx,0,8,D5,47,09,C4,FF,E0,00,80,
6394485,000001C7,false,Rx,0,4,AA,A0,FF,C0,00,00,00,00,
6394883,000001A1,false,Rx,0,8,AE,44,32,12,95,0C,80,20,
6399011,00000435,false,Rx,0,8,FF,FF,1E,0B,2A,00,00,00,
6399890,0000019F,false,Rx,0,8,00,00,7D,05,00,6A,90,FE,
6400153,00000155,false,Rx,0,8,3E,87,CD,54,5A,C0,02,B9,
6403318,00000157,false,Rx,0,8,D5,97,09,C4,FF,E0,00,80,
6403513,00000436,false,Rx,0,6,86,18,76,CC,FF,DC,00,00,
6404502,000001C7,false,Rx,0,4,AA,A0,FF,C0,00,00,00,00,
6404877,000001A1,false,Rx,0,8,AE,84,32,12,95,0C,80,20,
6409964,0000019F,false,Rx,0,8,00,00,7D,0A,00,6A,90,FE,
6410187,00000155,false,Rx,0,8,3E,87,CD,54,5A,C0,02,B9,
6410389,00000419,false,Rx,0,6,5F,09,2A,E6,30,00,00,00,
6413361,00000157,false,Rx,0,8,D5,E7,09,C4,FF,E0,00,80,
6414562,000001C7,false,Rx,0,4,AA,A0,FF,C0,00,00,00,00,
6414915,000001A1,false,Rx,0,8,AE,84,32,12,95,0C,80,20,
6418752,0000069F,false,Rx,0,4,71,30,28,2F,00,00,00,00,
6419952,0000019F,false,Rx,0,8,00,00,7D,0F,00,6A,90,FE,
6420179,00000155,false,Rx,0,8,3E,87,CD,54,5A,C0,02,B9,
6423312,00000157,false,Rx,0,8,D5,37,09,C4,FF,E0,00,80,
6424586,000004F7,false,Rx,0,8,00,1D,08,00,88,28,06,F0,
6424814,000001C7,false,Rx,0,4,AA,A0,FF,C0,00,00,00,00,
6425017,000001A1,false,Rx,0,8,AE,84,32,12,95,0C,80,20,
6425267,00000428,false,Rx,0,8,00,00,00,7F,00,00,00,00,
6425414,0000042F,false,Rx,0,2,00,20,00,00,00,00,00,00,
6429962,0000019F,false,Rx,0,8,00,00,7D,04,00,6A,90,FE,
6430187,00000155,false,Rx,0,8,3E,87,CD,54,5A,C0,02,B9,
6433415,00000157,false,Rx,0,8,D5,87,09,C4,FF,E0,00,80,
6434568,000001C7,false,Rx,0,4,AA,A0,FF,C0,00,00,00,00,
6434948,000001A1,false,Rx,0,8,AE,84,32,12,95,0C,80,20,
6439963,0000019F,false,Rx,0,8,00,00,7D,09,00,6A,90,FE,
6440187,00000155,false,Rx,0,8,3E,87,CD,54,5A,C0,02,B9,
6443340,00000157,false,Rx,0,8,D5,D7,09,C4,FF,E0,00,80,
6444533,000001C7,false,Rx,0,4,AA,A0,FF,C0,00,00,00,00,
6444882,000001A1,false,Rx,0,8,AE,44,32,12,95,0C,80,20,
6449909,0000019F,false,Rx,0,8,00,00,7D,0E,00,6A,90,FE,
6450132,00000155,false,Rx,0,8,3E,87,CD,54,5A,C0,02,B9,
6453413,00000157,false,Rx,0,8,D5,27,09,C4,FF,E0,00,80,
6454563,000001C7,false,Rx,0,4,AA,A0,FF,C0,00,00,00,00,
6454941,000001A1,false,Rx,0,8,AE,44,32,12,95,0C,80,20,
6459931,0000019F,false,Rx,0,8,00,00,7D,03,00,6A,90,FE,
6460144,00000155,false,Rx,0,8,3E,87,CD,54,5A,C0,02,B9,
6460346,00000511,false,Rx,0,7,04,9A,0B,0A,AC,DD,FE,00,
6463339,00000157,false,Rx,0,8,D5,77,09,C4,FF,E0,00,80,
6464552,000001C7,false,Rx,0,4,AA,A0,FF,C0,00,00,00,00,
6464941,000001A1,false,Rx,0,8,AE,84,32,12,95,0C,80,20,
6469952,0000019F,false,Rx,0,8,00,00,7D,08,00,6A,90,FE,
6470177,00000155,false,Rx,0,8,3E,87,CD,54,5A,C0,02,B9,
6473412,00000157,false,Rx,0,8,D5,C7,09,C4,FF,E0,00,80,
6474589,000001C7,false,Rx,0,4,AA,A0,FF,C0,00,00,00,00,
6474940,000001A1,false,Rx,0,8,AE,84,32,12,95,0C,80,20,
6479189,00000423,false,Rx,0,8,07,1E,00,02,5D,80,B2,DA,
6479965,0000019F,false,Rx,0,8,00,00,7D,0D,00,6A,90,FE,
6480187,00000155,false,Rx,0,8,3E,87,CD,54,5A,C0,02,B9,
6480415,00000424,false,Rx,0,8,11,40,56,C1,2D,5E,55,2E,
6480643,00000425,false,Rx,0,8,2A,6A,44,9C,42,0E,B1,06,
6480869,00000445,false,Rx,0,7,80,55,AA,65,04,82,00,00,
6483361,00000157,false,Rx,0,8,D5,17,09,C4,FF,E0,00,80,
6483592,00000426,false,Rx,0,8,00,60,01,00,59,5C,00,40,
6484558,000001C7,false,Rx,0,4,AA,A0,FF,C0,00,00,00,00,
6484940,000001A1,false,Rx,0,8,AE,84,32,12,95,0C,80,20,
6489963,0000019F,false,Rx,0,8,00,00,7D,02,00,6A,90,FE,
6490187,00000155,false,Rx,0,8,3E,87,CD,54,5A,C0,02,B9,
6493338,00000157,false,Rx,0,8,D5,67,09,C4,FF,E0,00,80,
6494558,000001C7,false,Rx,0,4,AA,A0,FF,C0,00,00,00,00,
6494880,000001A1,false,Rx,0,8,AE,84,32,12,95,0C,80,20,
6499124,00000435,false,Rx,0,8,FF,FF,1E,0B,2A,00,00,00,
6500178,0000019F,false,Rx,0,8,00,00,7D,07,00,6A,90,FE,
6500186,00000155,false,Rx,0,8,3E,87,CD,54,5A,C0,02,B9,
6503538,00000157,false,Rx,0,8,D5,B7,09,C4,FF,E0,00,80,
6503546,00000436,false,Rx,0,6,86,18,76,CC,FF,DC,00,00,
6504591,000001C7,false,Rx,0,4,AA,A0,FF,C0,00,00,00,00,
6504978,000001A1,false,Rx,0,8,AE,84,32,12,95,0C,80,20,
6510180,0000019F,false,Rx,0,8,00,00,7D,0C,00,6A,90,FE,
6510187,00000155,false,Rx,0,8,3E,87,CD,54,5A,C0,02,B9,
6510385,00000419,false,Rx,0,6,5F,09,2A,E6,30,00,00,00,
6513373,00000157,false,Rx,0,8,D5,07,09,C4,FF,E0,00,80,
6514608,000001C7,false,Rx,0,4,AA,A0,FF,C0,00,00,00,00,
6514930,000001A1,false,Rx,0,8,AE,44,32,12,95,0C,80,20,
6520179,0000019F,false,Rx,0,8,00,00,7D,01,00,6A,90,FE,
6520188,00000155,false,Rx,0,8,3E,87,CD,54,5A,C0,02,B9,
6523519,00000157,false,Rx,0,8,D5,57,09,C4,FF,E0,00,80,
6524672,000004F7,false,Rx,0,8,00,1D,08,00,88,28,06,F0,
6524818,000001C7,false,Rx,0,4,AA,A0,FF,C0,00,00,00,00,
6525230,000001A1,false,Rx,0,8,AE,84,32,12,95,0C,80,20,
6525287,00000428,false,Rx,0,8,00,00,00,7F,00,00,00,00,
6525513,0000042F,false,Rx,0,2,00,20,00,00,00,00,00,00,
6530180,0000019F,false,Rx,0,8,00,00,7D,06,00,6A,90,FE,
6530189,00000155,false,Rx,0,8,3E,87,CD,54,5A,C0,02,B8,
6533446,00000157,false,Rx,0,8,D5,A7,09,C4,FF,E0,00,80,
6534724,000001C7,false,Rx,0,4,AA,A0,FF,C0,00,00,00,00,
6534924,000001A1,false,Rx,0,8,AE,84,32,12,95,0C,80,20,
6540173,0000019F,false,Rx,0,8,00,00,7D,0B,00,6A,90,FE,
6540181,00000155,false,Rx,0,8,3E,87,CD,54,5A,C0,02,B9,
6543530,00000157,false,Rx,0,8,D5,F7,09,C4,FF,E0,00,80,
6544595,000001C7,false,Rx,0,4,AA,A0,FF,C0,00,00,00,00,
6544962,000001A1,false,Rx,0,8,AE,44,32,12,95,0C,80,20,
6550185,0000019F,false,Rx,0,8,00,00,7D,00,00,6A,90,FE,
6550195,00000155,false,Rx,0,8,3E,87,CD,54,5A,C0,02,B8,
6553576,00000157,false,Rx,0,8,D5,47,09,C4,FF,E0,00,80,
6554850,000001C7,false,Rx,0,4,AA,A0,FF,C0,00,00,00,00,
6554908,000001A1,false,Rx,0,8,AE,84,32,12,95,0C,80,20,
6560187,0000019F,false,Rx,0,8,00,00,7D,05,00,6A,90,FE,
6560195,00000155,false,Rx,0,8,3E,87,CD,54,5A,C0,02,B8,
6560415,00000511,false,Rx,0,7,04,D9,D4,C3,17,EA,E1,00,
6563516,00000157,false,Rx,0,8,D5,97,09,C4,FF,E0,00,80,
6564603,000001C7,false,Rx,0,4,AA,A0,FF,C0,00,00,00,00,
6565081,000001A1,false,Rx,0,8,AE,84,32,12,95,0C,80,20,
6570180,0000019F,false,Rx,0,8,00,00,7D,0A,00,6A,90,FE,
6570189,00000155,false,Rx,0,8,3E,87,CD,54,5A,C0,02,B8,
6573526,00000157,false,Rx,0,8,D5,E7,09,C4,FF,E0,00,80,
6574758,000001C7,false,Rx,0,4,AA,A0,FF,C0,00,00,00,00,
6574903,000001A1,false,Rx,0,8,AE,44,32,12,95,0C,80,20,
6579254,00000423,false,Rx,0,8,07,1E,00,02,5D,80,B2,DA,
6580172,0000019F,false,Rx,0,8,00,00,7D,0F,00,6A,90,FE,
6580180,00000155,false,Rx,0,8,3E,87,CD,54,5A,C0,02,B8,
6580376,00000424,false,Rx,0,8,11,40,56,C1,2D,5E,55,2E,
6580689,00000425,false,Rx,0,8,2A,6A,44,9C,42,0E,B1,06,
6580869,00000445,false,Rx,0,7,80,55,AA,65,04,82,00,00,
6583577,00000157,false,Rx,0,8,D5,37,09,C4,FF,E0,00,80,
6583586,00000426,false,Rx,0,8,00,60,01,00,59,5C,00,40,
6584881,000001C7,false,Rx,0,4,AA,A0,FF,C0,00,00,00,00,
6584911,000001A1,false,Rx,0,8,AE,84,32,12,95,0C,80,20,
6590185,0000019F,false,Rx,0,8,00,00,7D,04,00,6A,90,FE,
6590194,00000155,false,Rx,0,8,3E,87,CD,54,5A,C0,02,B8,
6593553,00000157,false,Rx,0,8,D5,87,09,C4,FF,E0,00,80,
6594897,000001C7,false,Rx,0,4,AA,A0,FF,C0,00,00,00,00,
6594911,000001A1,false,Rx,0,8,AE,84,32,12,95,0C,80,20,
6599230,00000435,false,Rx,0,8,FF,FF,1E,0B,2A,00,00,00,
6599930,0000019F,false,Rx,0,8,00,00,7D,09,00,6A,90,FE,
6600166,00000155,false,Rx,0,8,3E,87,CD,54,5A,C0,02,B8,
6603299,00000157,false,Rx,0,8,D5,D7,09,C4,FF,E0,00,80,
6603450,00000436,false,Rx,0,6,86,18,76,CC,FF,DC,00,00,
6604662,000001C7,false,Rx,0,4,AA,A0,FF,C0,00,00,00,00,
6604939,000001A1,false,Rx,0,8,AE,44,32,12,95,0C,80,20,
6609987,0000019F,false,Rx,0,8,00,00,7D,0E,00,6A,90,FE,
6610211,00000155,false,Rx,0,8,3E,87,CD,54,5A,C0,02,B8,
6610413,00000419,false,Rx,0,6,5F,09,2A,E6,30,00,00,00,
6613340,00000157,false,Rx,0,8,D5,27,09,C4,FF,E0,00,80,
6614687,000001C7,false,Rx,0,4,AA,A0,FF,C0,00,00,00,00,
6614965,000001A1,false,Rx,0,8,AE,44,32,12,95,0C,80,20,
6619989,0000019F,false,Rx,0,8,00,00,7D,03,00,6A,90,FE,
6620217,00000155,false,Rx,0,8,3E,87,CD,54,5A,C0,02,B8,
6623339,00000157,false,Rx,0,8,D5,77,09,C4,FF,E0,00,80,
6624768,000004F7,false,Rx,0,8,00,1D,08,00,88,28,06,F0,
6624988,000001A1,false,Rx,0,8,AE,84,32,12,95,0C,80,20,
6625187,000001C7,false,Rx,0,4,AA,A0,FF,C0,00,00,00,00,
6625415,00000428,false,Rx,0,8,00,00,00,7F,00,00,00,00,
6625527,0000042F,false,Rx,0,2,00,20,00,00,00,00,00,00,
6629961,0000019F,false,Rx,0,8,00,00,7D,08,00,6A,90,FE,
6630211,00000155,false,Rx,0,8,3E,87,CD,54,5A,C0,02,B8,
6633362,00000157,false,Rx,0,8,D5,C7,09,C4,FF,E0,00,80,
6634686,000001C7,false,Rx,0,4,AA,A0,FF,C0,00,00,00,00,
6634939,000001A1,false,Rx,0,8,AE,44,32,12,95,0C,80,20,
6639964,0000019F,false,Rx,0,8,00,00,7D,0D,00,6A,90,FE,
6640214,00000155,false,Rx,0,8,3E,87,CD,54,5A,C0,02,B8,
6643296,00000157,false,Rx,0,8,D5,17,09,C4,FF,E0,00,80,
6644665,000001C7,false,Rx,0,4,AA,A0,FF,C0,00,00,00,00,
6644912,000001A1,false,Rx,0,8,AE,84,32,12,95,0C,80,20,
6649963,0000019F,false,Rx,0,8,00,00,7D,02,00,6A,90,FE,
6650180,00000155,false,Rx,0,8,3E,87,CD,54,5A,C0,02,B8,
6653246,00000157,false,Rx,0,8,D5,67,09,C4,FF,E0,00,80,
6654671,000001C7,false,Rx,0,4,AA,A0,FF,C0,00,00,00,00,
6654918,000001A1,false,Rx,0,8,AE,84,32,12,95,0C,80,20,
6659931,0000019F,false,Rx,0,8,00,00,7D,07,00,6A,90,FE,
6660174,00000155,false,Rx,0,8,3E,87,CD,54,5A,C0,02,B8,
6660401,00000511,false,Rx,0,7,04,18,9D,7C,82,F7,C4,00,
6663350,00000157,false,Rx,0,8,D5,B7,09,C4,FF,E0,00,80,
6664666,000001C7,false,Rx,0,4,AA,A0,FF,C0,00,00,00,00,
6664914,000001A1,false,Rx,0,8,AE,44,32,12,95,0C,80,20,
6669950,0000019F,false,Rx,0,8,00,00,7D,0C,00,6A,90,FE,
6670173,00000155,false,Rx,0,8,3E,87,CD,54,5A,C0,02,B8,
6673325,00000157,false,Rx,0,8,D5,07,09,C4,FF,E0,00,80,
6674675,000001C7,false,Rx,0,4,AA,A0,FF,C0,00,00,00,00,
6674927,000001A1,false,Rx,0,8,AE,84,32,12,95,0C,80,20,
6678924,00000423,false,Rx,0,8,07,1E,00,02,5D,80,B2,DA,
6679950,0000019F,false,Rx,0,8,00,00,7D,01,00,6A,90,FE,
6680173,00000155,false,Rx,0,8,3E,87,CD,54,5A,C0,02,B8,
6680401,00000424,false,Rx,0,8,11,40,56,C1,2D,5E,55,2E,
6680628,00000425,false,Rx,0,8,2A,6A,44,9C,42,0E,B1,06,
6680855,00000445,false,Rx,0,7,80,55,AA,65,04,82,00,00,
6683249,00000157,false,Rx,0,8,D5,57,09,C4,FF,E0,00,80,
6683500,00000426,false,Rx,0,8,00,60,01,00,59,5C,00,40,
6684675,000001C7,false,Rx,0,4,AA,A0,FF,C0,00,00,00,00,
6684926,000001A1,false,Rx,0,8,AE,84,32,12,95,0C,80,20,
6689950,0000019F,false,Rx,0,8,00,00,7D,06,00,6A,90,FE,
6690172,00000155,false,Rx,0,8,3E,87,CD,54,5A,C0,02,B8,
6693327,00000157,false,Rx,0,8,D5,A7,09,C4,FF,E0,00,80,
6694724,000001C7,false,Rx,0,4,AA,A0,FF,C0,00,00,00,00,
6694954,000001A1,false,Rx,0,8,AE,44,32,12,95,0C,80,20,
6699193,00000435,false,Rx,0,8,FF,FF,1E,0B,2A,00,00,00,
6700205,0000019F,false,Rx,0,8,00,00,7D,0B,00,6A,90,FE,
6700214,00000155,false,Rx,0,8,3E,87,CD,54,5A,C0,02,B8,
6703545,00000157,false,Rx,0,8,D5,F7,09,C4,FF,E0,00,80,
6703554,00000436,false,Rx,0,6,86,18,76,CC,FF,DC,00,00,
6704715,000001C7,false,Rx,0,4,AA,A0,FF,C0,00,00,00,00,
6704957,000001A1,false,Rx,0,8,AE,44,32,12,95,0C,80,20,
6709953,0000019F,false,Rx,0,8,00,00,7D,00,00,6A,90,FE,
6710164,00000155,false,Rx,0,8,3E,87,CD,54,5A,C0,02,B8,
6710366,00000419,false,Rx,0,6,5F,09,2A,E6,30,00,00,00,
6713600,00000157,false,Rx,0,8,D5,47,09,C4,FF,E0,00,80,
6714961,000001C7,false,Rx,0,4,AA,A0,FF,C0,00,00,00,00,
6714969,000001A1,false,Rx,0,8,AE,84,32,12,95,0C,80,20,
6720103,0000019F,false,Rx,0,8,00,00,7D,05,00,6A,90,FE,
6720255,00000155,false,Rx,0,8,3E,87,CD,54,5A,C0,02,B8,
6723579,00000157,false,Rx,0,8,D5,97,09,C4,FF,E0,00,80,
6724949,000004F7,false,Rx,0,8,00,1D,08,00,88,28,06,F0,
6724991,000001A1,false,Rx,0,8,AE,84,32,12,95,0C,80,20,
6725256,000001C7,false,Rx,0,4,AA,A0,FF,C0,00,00,00,00,
6725471,00000428,false,Rx,0,8,00,00,00,7F,00,00,00,00,
6725627,0000042F,false,Rx,0,2,00,20,00,00,00,00,00,00,
6730205,0000019F,false,Rx,0,8,00,00,7D,0A,00,6A,90,FE,
6730214,00000155,false,Rx,0,8,3E,87,CD,54,5A,C0,02,B8,
6733569,00000157,false,Rx,0,8,D5,E7,09,C4,FF,E0,00,80,
6734977,000001C7,false,Rx,0,4,AA,A0,FF,C0,00,00,00,00,
6734986,000001A1,false,Rx,0,8,AE,84,32,12,95,0C,80,20,
6740158,0000019F,false,Rx,0,8,00,00,7D,0F,00,6A,90,FE,
6740165,00000155,false,Rx,0,8,3E,87,CD,54,5A,C0,02,B8,
6743481,00000157,false,Rx,0,8,D5,37,09,C4,FF,E0,00,80,
6744874,000001C7,false,Rx,0,4,AA,A0,FF,C0,00,00,00,00,
6744986,000001A1,false,Rx,0,8,AE,84,32,12,95,0C,80,20,
6750159,0000019F,false,Rx,0,8,00,00,7D,04,00,6A,90,FE,
6750181,00000155,false,Rx,0,8,3E,87,CD,54,5A,C0,02,B8,
6753526,00000157,false,Rx,0,8,D5,87,09,C4,FF,E0,00,80,
6754915,000001C7,false,Rx,0,4,AA,A0,FF,C0,00,00,00,00,
6754952,000001A1,false,Rx,0,8,AE,44,32,12,95,0C,80,20,
6760158,0000019F,false,Rx,0,8,00,00,7D,09,00,6A,90,FE,
6760165,00000155,false,Rx,0,8,3E,87,CD,54,5A,C0,02,B8,
6760460,00000511,false,Rx,0,7,04,57,66,35,ED,04,A7,00,
6763557,00000157,false,Rx,0,8,D5,D7,09,C4,FF,E0,00,80,
6764808,000001C7,false,Rx,0,4,AA,A0,FF,C0,00,00,00,00,
6765001,000001A1,false,Rx,0,8,AE,84,32,12,95,0C,80,20,
6770154,0000019F,false,Rx,0,8,00,00,7D,0E,00,6A,90,FE,
6770190,00000155,false,Rx,0,8,3E,87,CD,54,5A,C0,02,B8,
6773535,00000157,false,Rx,0,8,D5,27,09,C4,FF,E0,00,80,
6774902,000001C7,false,Rx,0,4,AA,A0,FF,C0,00,00,00,00,
6775012,000001A1,false,Rx,0,8,AE,44,32,12,95,0C,80,20,
6779238,00000423,false,Rx,0,8,07,1E,00,02,5D,80,B2,DA,
6780122,0000019F,false,Rx,0,8,00,00,7D,03,00,6A,90,FE,
6780156,00000155,false,Rx,0,8,3E,87,CD,54,5A,C0,02,B8,
6780547,00000424,false,Rx,0,8,11,40,56,C1,2D,5E,55,2E,
6780723,00000425,false,Rx,0,8,2A,6A,44,9C,42,0E,B1,06,
6780904,00000445,false,Rx,0,7,80,55,AA,65,04,82,00,00,
6783482,00000157,false,Rx,0,8,D5,77,09,C4,FF,E0,00,80,
6783519,00000426,false,Rx,0,8,00,60,01,00,59,5C,00,40,
6784911,000001C7,false,Rx,0,4,AA,A0,FF,C0,00,00,00,00,
6785021,000001A1,false,Rx,0,8,AE,44,32,12,95,0C,80,20,
6790164,0000019F,false,Rx,0,8,00,00,7D,08,00,6A,90,FE,
6790181,00000155,false,Rx,0,8,3E,87,CD,54,5A,C0,02,B8,
6793504,00000157,false,Rx,0,8,D5,C7,09,C4,FF,E0,00,80,
6794909,000001C7,false,Rx,0,4,AA,A0,FF,C0,00,00,00,00,
6795056,000001A1,false,Rx,0,8,AE,84,32,12,95,0C,80,20,
6799269,00000435,false,Rx,0,8,FF,FF,1E,0B,2A,00,00,00,
6800155,0000019F,false,Rx,0,8,00,00,7D,0D,00,6A,90,FE,
6800191,00000155,false,Rx,0,8,3E,87,CD,54,5A,C0,02,B8,
6803554,00000157,false,Rx,0,8,D5,17,09,C4,FF,E0,00,80,
6803561,00000436,false,Rx,0,6,86,18,76,CC,FF,DC,00,00,
6804858,000001C7,false,Rx,0,4,AA,A0,FF,C0,00,00,00,00,
6805027,000001A1,false,Rx,0,8,AE,84,32,12,95,0C,80,20,
6810191,0000019F,false,Rx,0,8,00,00,7D,02,00,6A,90,FE,
6810199,00000155,false,Rx,0,8,3E,87,CD,54,5A,C0,02,B8,
6810425,00000419,false,Rx,0,6,5F,09,2A,E6,30,00,00,00,
6813554,00000157,false,Rx,0,8,D5,67,09,C4,FF,E0,00,80,
6814939,000001C7,false,Rx,0,4,AA,A0,FF,C0,00,00,00,00,
6815050,000001A1,false,Rx,0,8,AE,44,32,12,95,0C,80,20,
6820159,0000019F,false,Rx,0,8,00,00,7D,07,00,6A,90,FE,
6820182,00000155,false,Rx,0,8,3E,87,CD,54,5A,C0,02,B8,
6823512,00000157,false,Rx,0,8,D5,B7,09,C4,FF,E0,00,80,
6825051,000004F7,false,Rx,0,8,00,1D,08,00,88,28,06,F0,
6825063,000001A1,false,Rx,0,8,AE,84,32,12,95,0C,80,20,
6825279,000001C7,false,Rx,0,4,AA,A0,FF,C0,00,00,00,00,
6825692,00000428,false,Rx,0,8,00,00,00,7F,00,00,00,00,
6825700,0000042F,false,Rx,0,2,00,20,00,00,00,00,00,00,
6830156,0000019F,false,Rx,0,8,00,00,7D,0C,00,6A,90,FE,
6830193,00000155,false,Rx,0,8,3E,87,CD,54,5A,C0,02,B8,
6833479,00000157,false,Rx,0,8,D5,07,09,C4,FF,E0,00,80,
6835003,000001C7,false,Rx,0,4,AA,A0,FF,C0,00,00,00,00,
6835015,000001A1,false,Rx,0,8,AE,84,32,12,95,0C,80,20,
6840158,0000019F,false,Rx,0,8,00,00,7D,01,00,6A,90,FE,
6840202,00000155,false,Rx,0,8,3E,87,CD,54,5A,C0,02,B8,
6843456,00000157,false,Rx,0,8,D5,57,09,C4,FF,E0,00,80,
6845008,000001C7,false,Rx,0,4,AA,A0,FF,C0,00,00,00,00,
6845019,000001A1,false,Rx,0,8,AE,44,32,12,95,0C,80,20,
6849978,0000019F,false,Rx,0,8,00,00,7D,06,00,6A,90,FE,
6850190,00000155,false,Rx,0,8,3E,87,CD,54,5A,C0,02,B8,
6853296,00000157,false,Rx,0,8,D5,A7,09,C4,FF,E0,00,80,
6854792,000001C7,false,Rx,0,4,AA,A0,FF,C0,00,00,00,00,
6855038,000001A1,false,Rx,0,8,AE,84,32,12,95,0C,80,20,
6859966,0000019F,false,Rx,0,8,00,00,7D,0B,00,6A,90,FE,
6860191,00000155,false,Rx,0,8,3E,87,CD,54,5A,C0,02,B8,
6860411,00000511,false,Rx,0,7,04,96,2F,EE,58,11,8A,00,
6863290,00000157,false,Rx,0,8,D5,F7,09,C4,FF,E0,00,80,
6864815,000001C7,false,Rx,0,4,AA,A0,FF,C0,00,00,00,00,
6865037,000001A1,false,Rx,0,8,AE,84,32,12,95,0C,80,20,
6869966,0000019F,false,Rx,0,8,00,00,7D,00,00,6A,90,FE,
6870189,00000155,false,Rx,0,8,3E,87,CD,54,5A,C0,02,B8,
6873290,00000157,false,Rx,0,8,D5,47,09,C4,FF,E0,00,80,
6874816,000001C7,false,Rx,0,4,AA,A0,FF,C0,00,00,00,00,
6875038,000001A1,false,Rx,0,8,AE,44,32,12,95,0C,80,20,
6879092,00000423,false,Rx,0,8,07,1E,00,02,B2,80,5D,DA,
6879940,0000019F,false,Rx,0,8,00,00,7D,05,00,6A,90,FE,
6880190,00000155,false,Rx,0,8,3E,87,CD,54,5A,C0,02,B8,
6880411,00000424,false,Rx,0,8,11,40,56,C1,2D,5E,55,2E,
6880659,00000425,false,Rx,0,8,2A,6A,44,9C,42,0E,B1,06,
6880855,00000445,false,Rx,0,7,80,55,55,65,04,82,00,00,
6883243,00000157,false,Rx,0,8,D5,97,09,C4,FF,E0,00,80,
6883488,00000426,false,Rx,0,8,00,60,01,00,59,5C,00,40,
6884816,000001C7,false,Rx,0,4,AA,A0,FF,C0,00,00,00,00,
6885037,000001A1,false,Rx,0,8,AE,84,32,12,95,0C,80,20,
6889940,0000019F,false,Rx,0,8,00,00,7D,0A,00,6A,90,FE,
6890186,00000155,false,Rx,0,8,3E,87,CD,54,5A,C0,02,B8,
6893268,00000157,false,Rx,0,8,D5,E7,09,C4,FF,E0,00,80,
6894840,000001C7,false,Rx,0,4,AA,A0,FF,C0,00,00,00,00,
6895061,000001A1,false,Rx,0,8,AE,84,32,12,95,0C,80,20,
6899192,00000435,false,Rx,0,8,FF,FF,1E,0B,2A,00,00,00,
6899962,0000019F,false,Rx,0,8,00,00,7D,0F,00,6A,90,FE,
6900192,00000155,false,Rx,0,8,3E,87,CD,54,5A,C0,02,B8,
6903319,00000157,false,Rx,0,8,D5,37,09,C4,FF,E0,00,80,
6903489,00000436,false,Rx,0,6,86,18,76,CC,FF,DC,00,00,
6904842,000001C7,false,Rx,0,4,AA,A0,FF,C0,00,00,00,00,
6905059,000001A1,false,Rx,0,8,AE,84,32,12,95,0C,80,20,
6909970,0000019F,false,Rx,0,8,00,00,7D,04,00,6A,90,FE,
6910190,00000155,false,Rx,0,8,3E,87,CD,54,5A,C0,02,B8,
6910412,00000419,false,Rx,0,6,5F,09,2A,E6,30,00,00,00,
6913366,00000157,false,Rx,0,8,D5,87,09,C4,FF,E0,00,80,
6914845,000001C7,false,Rx,0,4,AA,A0,FF,C0,00,00,00,00,
6915062,000001A1,false,Rx,0,8,AE,84,32,12,95,0C,80,20,
6919967,0000019F,false,Rx,0,8,00,00,7D,09,00,6A,90,FE,
6920190,00000155,false,Rx,0,8,3E,87,CD,54,5A,C0,02,B8,
6923266,00000157,false,Rx,0,8,D5,D7,09,C4,FF,E0,00,80,
6924915,000004F7,false,Rx,0,8,00,1D,08,00,88,28,06,F0,
6925139,000001A1,false,Rx,0,8,AE,84,32,12,95,0C,80,20,
6925311,000001C7,false,Rx,0,4,AA,A0,FF,C0,00,00,00,00,
6925559,00000428,false,Rx,0,8,00,00,00,7F,00,00,00,00,
6925731,0000042F,false,Rx,0,2,00,20,00,00,00,00,00,00,
6929966,0000019F,false,Rx,0,8,00,00,7D,0E,00,6A,90,FE,
6930190,00000155,false,Rx,0,8,3E,87,CD,54,5A,C0,02,B8,
6933293,00000157,false,Rx,0,8,D5,27,09,C4,FF,E0,00,80,
6934866,000001C7,false,Rx,0,4,AA,A0,FF,C0,00,00,00,00,
6935088,000001A1,false,Rx,0,8,AE,44,32,12,95,0C,80,20,
6939966,0000019F,false,Rx,0,8,00,00,7D,03,00,6A,90,FE,
6940187,00000155,false,Rx,0,8,3E,87,CD,54,5A,C0,02,B8,
6943295,00000157,false,Rx,0,8,D5,77,09,C4,FF,E0,00,80,
6944902,000001C7,false,Rx,0,4,AA,A0,FF,C0,00,00,00,00,
6945127,000001A1,false,Rx,0,8,AE,84,32,12,95,0C,80,20,
6950003,0000019F,false,Rx,0,8,00,00,7D,08,00,6A,90,FE,
6950227,00000155,false,Rx,0,8,3E,87,CD,54,5A,C0,02,B8,
6953551,00000157,false,Rx,0,8,D5,C7,09,C4,FF,E0,00,80,
6955079,000001C7,false,Rx,0,4,AA,A0,FF,C0,00,00,00,00,
6955164,000001A1,false,Rx,0,8,AE,84,32,12,95,0C,80,20,
6959971,0000019F,false,Rx,0,8,00,00,7D,0D,00,6A,90,FE,
6960185,00000155,false,Rx,0,8,3E,87,CD,54,5A,C0,02,B8,
6960410,00000511,false,Rx,0,7,04,D5,F8,A7,C3,1E,6D,00,
6963419,00000157,false,Rx,0,8,D5,17,09,C4,FF,E0,00,80,
6964934,000001C7,false,Rx,0,4,AA,A0,FF,C0,00,00,00,00,
6965126,000001A1,false,Rx,0,8,AE,44,32,12,95,0C,80,20,
6970133,0000019F,false,Rx,0,8,00,00,7D,02,00,6A,90,FE,
6970189,00000155,false,Rx,0,8,3E,87,CD,54,5A,C0,02,B8,
6973442,00000157,false,Rx,0,8,D5,67,09,C4,FF,E0,00,80,
6975052,000001C7,false,Rx,0,4,AA,A0,FF,C0,00,00,00,00,
6975059,000001A1,false,Rx,0,8,AE,84,32,12,95,0C,80,20,
6979207,00000423,false,Rx,0,8,07,1E,00,02,B2,80,5D,DA,
6980084,0000019F,false,Rx,0,8,00,00,7D,07,00,6A,90,FE,
6980234,00000155,false,Rx,0,8,3E,87,CD,54,5A,C0,02,B7,
6980461,00000424,false,Rx,0,8,11,40,56,C1,2D,5E,AA,2E,
6980735,00000425,false,Rx,0,8,2A,6A,44,9C,42,0E,B1,06,
6980926,00000445,false,Rx,0,7,80,55,55,65,04,82,00,00,
6983302,00000157,false,Rx,0,8,D5,B7,09,C4,FF,E0,00,80,
6983549,00000426,false,Rx,0,8,00,60,01,00,59,5C,00,40,
6985036,000001C7,false,Rx,0,4,AA,A0,FF,C0,00,00,00,00,
6985054,000001A1,false,Rx,0,8,AE,84,32,12,95,0C,80,20,
6990178,0000019F,false,Rx,0,8,00,00,7D,0C,00,6A,90,FE,
6990185,00000155,false,Rx,0,8,3E,87,CD,54,5A,C0,02,B8,
6993479,00000157,false,Rx,0,8,D5,07,09,C4,FF,E0,00,80,
6995054,000001C7,false,Rx,0,4,AA,A0,FF,C0,00,00,00,00,
6995062,000001A1,false,Rx,0,8,AE,84,32,12,95,0C,80,20,
6999206,00000435,false,Rx,0,8,FF,FF,1E,0B,2A,00,00,00,
7000187,0000019F,false,Rx,0,8,00,00,7D,01,00,6A,90,FE,
7000207,00000155,false,Rx,0,8,3E,87,CD,54,5A,C0,02,B8,
7003530,00000157,false,Rx,0,8,D5,57,09,C4,FF,E0,00,80,
7003538,00000436,false,Rx,0,6,86,18,76,CC,FF,DC,00,00,
7005078,000001C7,false,Rx,0,4,AA,A0,FF,C0,00,00,00,00,
7005085,000001A1,false,Rx,0,8,AE,84,32,12,95,0C,80,20,
7009999,0000019F,false,Rx,0,8,00,00,7D,06,00,6A,90,FE,
7010228,00000155,false,Rx,0,8,3E,87,CD,54,5A,C0,02,B8,
7010451,00000419,false,Rx,0,6,5F,09,2A,E6,30,00,00,00,
7013507,00000157,false,Rx,0,8,D5,A7,09,C4,FF,E0,00,80,
7015129,000001C7,false,Rx,0,4,AA,A0,FF,C0,00,00,00,00,
7015137,000001A1,false,Rx,0,8,AE,44,32,12,95,0C,80,20,
7020244,0000019F,false,Rx,0,8,00,00,7D,0B,00,6A,90,FE,
7020268,00000155,false,Rx,0,8,3E,87,CD,54,5A,C0,02,B8,
7023502,00000157,false,Rx,0,8,D5,F7,09,C4,FF,E0,00,80,
7025203,000004F7,false,Rx,0,8,00,1D,08,00,88,28,06,F0,
7025212,000001A1,false,Rx,0,8,AE,44,32,12,95,0C,80,20,
7025369,000001C7,false,Rx,0,4,AA,A0,FF,C0,00,00,00,00,
7025813,00000428,false,Rx,0,8,00,00,00,7F,00,00,00,00,
7025822,0000042F,false,Rx,0,2,00,20,00,00,00,00,00,00,
7030255,0000019F,false,Rx,0,8,00,00,7D,00,00,6A,90,FE,
7030262,00000155,false,Rx,0,8,3E,87,CD,54,5A,C0,02,B8,
7033600,00000157,false,Rx,0,8,D5,47,09,C4,FF,E0,00,80,
7035061,000001C7,false,Rx,0,4,AA,A0,FF,C0,00,00,00,00,
7035218,000001A1,false,Rx,0,8,AE,84,32,12,95,0C,80,20,
7040232,0000019F,false,Rx,0,8,00,00,7D,05,00,6A,90,FE,
7040241,00000155,false,Rx,0,8,3E,87,CD,54,5A,C0,02,B8,
7043465,00000157,false,Rx,0,8,D5,97,09,C4,FF,E0,00,80,
7045103,000001C7,false,Rx,0,4,AA,A0,FF,C0,00,00,00,00,
7045112,000001A1,false,Rx,0,8,AE,84,32,12,95,0C,80,20,
7050212,0000019F,false,Rx,0,8,00,00,7D,0A,00,6A,90,FE,
7050222,00000155,false,Rx,0,8,3E,87,CD,54,5A,C0,02,B7,
7053574,00000157,false,Rx,0,8,D5,E7,09,C4,FF,E0,00,80,
7055057,000001C7,false,Rx,0,4,AA,A0,FF,C0,00,00,00,00,
7055216,000001A1,false,Rx,0,8,AE,44,32,12,95,0C,80,20,
7060257,0000019F,false,Rx,0,8,00,00,7D,0F,00,6A,90,FE,
7060266,00000155,false,Rx,0,8,3E,87,CD,54,5A,C0,02,B8,
7060466,00000511,false,Rx,0,7,04,14,C1,60,2E,2B,50,00,
7063495,00000157,false,Rx,0,8,D5,37,09,C4,FF,E0,00,80,
7065087,000001C7,false,Rx,0,4,AA,A0,FF,C0,00,00,00,00,
7065150,000001A1,false,Rx,0,8,AE,84,32,12,95,0C,80,20,
7070265,0000019F,false,Rx,0,8,00,00,7D,04,00,6A,90,FE,
7070274,00000155,false,Rx,0,8,3E,87,CD,54,5A,C0,02,B8,
7073500,00000157,false,Rx,0,8,D5,87,09,C4,FF,E0,00,80,
7075148,000001C7,false,Rx,0,4,AA,A0,FF,C0,00,00,00,00,
7075157,000001A1,false,Rx,0,8,AE,84,32,12,95,0C,80,20,
7079257,00000423,false,Rx,0,8,07,1E,00,02,B2,80,5D,DA,
7080251,0000019F,false,Rx,0,8,00,00,7D,09,00,6A,90,FE,
7080260,00000155,false,Rx,0,8,3E,87,CD,54,5A,C0,02,B8,
7080495,00000424,false,Rx,0,8,11,40,56,C1,2D,5E,AA,2E,
7080743,00000425,false,Rx,0,8,2A,6A,44,9C,42,0E,B1,06,
7080947,00000445,false,Rx,0,7,80,55,55,65,04,82,00,00,
7083501,00000157,false,Rx,0,8,D5,D7,09,C4,FF,E0,00,80,
7083519,00000426,false,Rx,0,8,00,60,01,00,59,5C,00,40,
7085181,000001C7,false,Rx,0,4,AA,A0,FF,C0,00,00,00,00,
7085189,000001A1,false,Rx,0,8,AE,44,32,12,95,0C,80,20,
7090252,0000019F,false,Rx,0,8,00,00,7D,0E,00,6A,90,FE,
7090261,00000155,false,Rx,0,8,3E,87,CD,54,5A,C0,02,B8,
7093584,00000157,false,Rx,0,8,D5,27,09,C4,FF,E0,00,80,
7095184,000001C7,false,Rx,0,4,AA,A0,FF,C0,00,00,00,00,
7095194,000001A1,false,Rx,0,8,AE,84,32,12,95,0C,80,20,
7099268,00000435,false,Rx,0,8,FF,FF,1E,0B,2A,00,00,00,
7100009,0000019F,false,Rx,0,8,00,00,7D,03,00,6A,90,FE,
7100235,00000155,false,Rx,0,8,3E,87,CD,54,5A,C0,02,B8,
7103290,00000157,false,Rx,0,8,D5,77,09,C4,FF,E0,00,80,
7103477,00000436,false,Rx,0,6,86,18,76,CC,FF,DC,00,00,
7104975,000001A1,false,Rx,0,8,AE,44,32,12,95,0C,80,20,
7105149,000001C7,false,Rx,0,4,AA,A0,FF,C0,00,00,00,00,
7110000,0000019F,false,Rx,0,8,00,00,7D,08,00,6A,90,FE,
7110226,00000155,false,Rx,0,8,3E,87,CD,54,5A,C0,02,B8,
7110428,00000419,false,Rx,0,6,5F,09,2A,E6,30,00,00,00,
7113302,00000157,false,Rx,0,8,D5,C7,09,C4,FF,E0,00,80,
7114974,000001A1,false,Rx,0,8,AE,44,32,12,95,0C,80,20,
7115149,000001C7,false,Rx,0,4,AA,A0,FF,C0,00,00,00,00,
7119976,0000019F,false,Rx,0,8,00,00,7D,0D,00,6A,90,FE,
7120224,00000155,false,Rx,0,8,3E,87,CD,54,5A,C0,02,B8,
7123325,00000157,false,Rx,0,8,D5,17,09,C4,FF,E0,00,80,
7124975,000001A1,false,Rx,0,8,AE,84,32,12,95,0C,80,20,
7125224,000004F7,false,Rx,0,8,00,1D,08,00,88,28,06,F0,
7125401,000001C7,false,Rx,0,4,AA,A0,FF,C0,00,00,00,00,
7125704,00000428,false,Rx,0,8,00,00,00,7F,00,00,00,00,
7125855,0000042F,false,Rx,0,2,00,20,00,00,00,00,00,00,
7130001,0000019F,false,Rx,0,8,00,00,7D,02,00,6A,90,FE,
7130224,00000155,false,Rx,0,8,3E,87,CD,54,5A,C0,02,B8,
7133275,00000157,false,Rx,0,8,D5,67,09,C4,FF,E0,00,80,
7134974,000001A1,false,Rx,0,8,AE,84,32,12,95,0C,80,20,
7135149,000001C7,false,Rx,0,4,AA,A0,FF,C0,00,00,00,00,
7140000,0000019F,false,Rx,0,8,00,00,7D,07,00,6A,90,FE,
7140222,00000155,false,Rx,0,8,3E,87,CD,54,5A,C0,02,B8,
7143293,00000157,false,Rx,0,8,D5,B7,09,C4,FF,E0,00,80,
7144964,000001A1,false,Rx,0,8,AE,84,32,12,95,0C,80,20,
7145139,000001C7,false,Rx,0,4,AA,A0,FF,C0,00,00,00,00,
7150011,0000019F,false,Rx,0,8,00,00,7D,0C,00,6A,90,FE,
7150235,00000155,false,Rx,0,8,3E,87,CD,54,5A,C0,02,B8,
7153354,00000157,false,Rx,0,8,D5,07,09,C4,FF,E0,00,80,
7154967,000001A1,false,Rx,0,8,AE,84,32,12,95,0C,80,20,
7155141,000001C7,false,Rx,0,4,AA,A0,FF,C0,00,00,00,00,
7160006,0000019F,false,Rx,0,8,00,00,7D,01,00,6A,90,FE,
7160225,00000155,false,Rx,0,8,3E,87,CD,54,5A,C0,02,B8,
7160451,00000511,false,Rx,0,7,04,53,8A,19,99,38,33,00,
7163300,00000157,false,Rx,0,8,D5,57,09,C4,FF,E0,00,80,
7164976,000001A1,false,Rx,0,8,AE,84,32,12,95,0C,80,20,
7165144,000001C7,false,Rx,0,4,AA,A0,FF,C0,00,00,00,00,
7169991,00000155,false,Rx,0,8,3E,87,CD,54,5A,C0,02,B8,
7170215,0000019F,false,Rx,0,8,00,00,7D,06,00,6A,90,FE,
7173251,00000157,false,Rx,0,8,D5,A7,09,C4,FF,E0,00,80,
7174974,000001A1,false,Rx,0,8,AE,44,32,12,95,0C,80,20,
7175149,000001C7,false,Rx,0,4,AA,A0,FF,C0,00,00,00,00,
7179100,00000423,false,Rx,0,8,07,1E,00,02,B2,80,5D,DA,
7179999,0000019F,false,Rx,0,8,00,00,7D,0B,00,6A,90,FE,
7180224,00000155,false,Rx,0,8,3E,87,CD,54,5A,C0,02,B8,
7180469,00000424,false,Rx,0,8,11,40,56,C1,2D,5E,AA,2E,
7180704,00000425,false,Rx,0,8,2A,6A,44,9C,42,0E,B1,06,
7180906,00000445,false,Rx,0,7,80,55,55,65,04,82,00,00,
7183299,00000157,false,Rx,0,8,D5,F7,09,C4,FF,E0,00,80,
7183526,00000426,false,Rx,0,8,00,60,01,00,59,5C,00,40,
7184974,000001A1,false,Rx,0,8,AE,44,32,12,95,0C,80,20,
7185149,000001C7,false,Rx,0,4,AA,A0,FF,C0,00,00,00,00,
7189999,0000019F,false,Rx,0,8,00,00,7D,00,00,6A,90,FE,
7190246,00000155,false,Rx,0,8,3E,87,CD,54,5A,C0,02,B8,
7193277,00000157,false,Rx,0,8,D5,47,09,C4,FF,E0,00,80,
7194992,000001A1,false,Rx,0,8,AE,84,32,12,95,0C,80,20,
7195133,000001C7,false,Rx,0,4,AA,A0,FF,C0,00,00,00,00,
7199010,00000435,false,Rx,0,8,FF,FF,1E,0B,2A,00,00,00,
7199984,0000019F,false,Rx,0,8,00,00,7D,05,00,6A,90,FE,
7200233,00000155,false,Rx,0,8,3E,87,CD,54,5A,C0,02,B8,
7203456,00000157,false,Rx,0,8,D5,97,09,C4,FF,E0,00,80,
7203463,00000436,false,Rx,0,6,86,18,76,CC,FF,DC,00,00,
7205219,000001A1,false,Rx,0,8,AE,44,32,12,95,0C,80,20,
7205228,000001C7,false,Rx,0,4,AA,A0,FF,C0,00,00,00,00,
7210008,00000155,false,Rx,0,8,3E,87,CD,54,5A,C0,02,B8,
7210224,0000019F,false,Rx,0,8,00,00,7D,0A,00,6A,90,FE,
7210477,00000419,false,Rx,0,6,5F,09,2A,E6,30,00,00,00,
7213425,00000157,false,Rx,0,8,D5,E7,09,C4,FF,E0,00,80,
7215126,000001A1,false,Rx,0,8,AE,84,32,12,95,0C,80,20,
7215138,000001C7,false,Rx,0,4,AA,A0,FF,C0,00,00,00,00,
7220148,0000019F,false,Rx,0,8,00,00,7D,0F,00,6A,90,FE,
7220208,00000155,false,Rx,0,8,3E,87,CD,54,5A,C0,02,B8,
7223526,00000157,false,Rx,0,8,D5,37,09,C4,FF,E0,00,80,
7225230,000001A1,false,Rx,0,8,AE,84,32,12,95,0C,80,20,
7225239,000004F7,false,Rx,0,8,00,1D,08,00,88,28,06,F0,
7225441,000001C7,false,Rx,0,4,AA,A0,FF,C0,00,00,00,00,
7225729,00000428,false,Rx,0,8,00,00,00,7F,00,00,00,00,
7225888,0000042F,false,Rx,0,2,00,20,00,00,00,00,00,00,
7230277,0000019F,false,Rx,0,8,00,00,7D,04,00,6A,90,FE,
7230286,00000155,false,Rx,0,8,3E,87,CD,54,5A,C0,02,B8,
7233316,00000157,false,Rx,0,8,D5,87,09,C4,FF,E0,00,80,
7235224,000001A1,false,Rx,0,8,AE,84,32,12,95,0C,80,20,
7235233,000001C7,false,Rx,0,4,AA,A0,FF,C0,00,00,00,00,
7240256,0000019F,false,Rx,0,8,00,00,7D,09,00,6A,90,FE,
7240266,00000155,false,Rx,0,8,3E,87,CD,54,5A,C0,02,B8,
7243524,00000157,false,Rx,0,8,D5,D7,09,C4,FF,E0,00,80,
7245250,000001A1,false,Rx,0,8,AE,84,32,12,95,0C,80,20,
7245259,000001C7,false,Rx,0,4,AA,A0,FF,C0,00,00,00,00,
7250277,0000019F,false,Rx,0,8,00,00,7D,0E,00,6A,90,FE,
7250286,00000155,false,Rx,0,8,3E,87,CD,54,5A,C0,02,B8,
7253456,00000157,false,Rx,0,8,D5,27,09,C4,FF,E0,00,80,
7255254,000001A1,false,Rx,0,8,AE,84,32,12,95,0C,80,20,
7255263,000001C7,false,Rx,0,4,AA,A0,FF,C0,00,00,00,00,
7260284,0000019F,false,Rx,0,8,00,00,7D,03,00,6A,90,FE,
7260293,00000155,false,Rx,0,8,3E,87,CD,54,5A,C0,02,B8,
7260490,00000511,false,Rx,0,7,04,92,53,D2,04,45,16,00,
7263564,00000157,false,Rx,0,8,D5,77,09,C4,FF,E0,00,80,
7265252,000001A1,false,Rx,0,8,AE,44,32,12,95,0C,80,20,
7265261,000001C7,false,Rx,0,4,AA,A0,FF,C0,00,00,00,00,
7270229,00000155,false,Rx,0,8,3E,87,CD,54,5A,C0,02,B8,
7270238,0000019F,false,Rx,0,8,00,00,7D,08,00,6A,90,FE,
7273553,00000157,false,Rx,0,8,D5,C7,09,C4,FF,E0,00,80,
7275255,000001A1,false,Rx,0,8,AE,84,32,12,95,0C,80,20,
7275264,000001C7,false,Rx,0,4,AA,A0,FF,C0,00,00,00,00,
7279285,00000423,false,Rx,0,8,07,1E,00,02,B2,80,5D,DA,
7280252,0000019F,false,Rx,0,8,00,00,7D,0D,00,6A,90,FE,
7280261,00000155,false,Rx,0,8,3E,87,CD,54,5A,C0,02,B8,
7280514,00000424,false,Rx,0,8,11,40,56,C1,2D,5E,AA,2E,
7280779,00000425,false,Rx,0,8,2A,6A,44,9C,42,0E,B1,06,
7280972,00000445,false,Rx,0,7,80,55,55,65,04,82,00,00,
7283552,00000157,false,Rx,0,8,D5,17,09,C4,FF,E0,00,80,
7283560,00000426,false,Rx,0,8,00,60,01,00,59,5C,00,40,
7285259,000001A1,false,Rx,0,8,AE,84,32,12,95,0C,80,20,
7285267,000001C7,false,Rx,0,4,AA,A0,FF,C0,00,00,00,00,
7290272,0000019F,false,Rx,0,8,00,00,7D,02,00,6A,90,FE,
7290281,00000155,false,Rx,0,8,3E,87,CD,54,5A,C0,02,B8,
7293526,00000157,false,Rx,0,8,D5,67,09,C4,FF,E0,00,80,
7295201,000001A1,false,Rx,0,8,AE,84,32,12,95,0C,80,20,
7295210,000001C7,false,Rx,0,4,AA,A0,FF,C0,00,00,00,00,
7299225,00000435,false,Rx,0,8,FF,FF,1E,0B,2A,00,00,00,
7300250,00000155,false,Rx,0,8,3E,87,CD,54,5A,C0,02,B8,
7300259,0000019F,false,Rx,0,8,00,00,7D,07,00,6A,90,FE,
7303476,00000157,false,Rx,0,8,D5,B7,09,C4,FF,E0,00,80,
7303484,00000436,false,Rx,0,6,86,18,76,CC,FF,DC,00,00,
7305132,000001A1,false,Rx,0,8,AE,84,32,12,95,0C,80,20,
7305168,000001C7,false,Rx,0,4,AA,A0,FF,C0,00,00,00,00,
7310008,00000155,false,Rx,0,8,3E,87,CD,54,5A,C0,02,B8,
7310280,0000019F,false,Rx,0,8,00,00,7D,0C,00,6A,90,FE,
7310562,00000419,false,Rx,0,6,5F,0A,2A,E6,30,00,00,00,
7313435,00000157,false,Rx,0,8,D5,07,09,C4,FF,E0,00,80,
7315202,000001A1,false,Rx,0,8,AE,84,32,12,95,0C,80,20,
7315209,000001C7,false,Rx,0,4,AA,A0,FF,C0,00,00,00,00,
7320225,0000019F,false,Rx,0,8,00,00,7D,01,00,6A,90,FE,
7320233,00000155,false,Rx,0,8,3E,87,CD,54,5A,C0,02,B8,
7323559,00000157,false,Rx,0,8,D5,57,09,C4,FF,E0,00,80,
7325206,000001A1,false,Rx,0,8,AE,44,32,12,95,0C,80,20,
7325213,000004F7,false,Rx,0,8,00,1D,08,00,88,28,06,F0,
7325516,000001C7,false,Rx,0,4,AA,A0,FF,C0,00,00,00,00,
7325786,00000428,false,Rx,0,8,00,00,00,7F,00,00,00,00,
7325945,0000042F,false,Rx,0,2,00,20,00,00,00,00,00,00,
7330115,00000155,false,Rx,0,8,3E,87,CD,54,5A,C0,02,B8,
7330257,0000019F,false,Rx,0,8,00,00,7D,06,00,6A,90,FE,
7333453,00000157,false,Rx,0,8,D5,A7,09,C4,FF,E0,00,80,
7335202,000001A1,false,Rx,0,8,AE,84,32,12,95,0C,80,20,
7335209,000001C7,false,Rx,0,4,AA,A0,FF,C0,00,00,00,00,
7340209,00000155,false,Rx,0,8,3E,87,CD,54,5A,C0,02,B8,
7340245,0000019F,false,Rx,0,8,00,00,7D,0B,00,6A,90,FE,
7343509,00000157,false,Rx,0,8,D5,F7,09,C4,FF,E0,00,80,
7345201,000001A1,false,Rx,0,8,AE,84,32,12,95,0C,80,20,
7345208,000001C7,false,Rx,0,4,AA,A0,FF,C0,00,00,00,00,
7350026,0000019F,false,Rx,0,8,00,00,7D,00,00,6A,90,FE,
7350243,00000155,false,Rx,0,8,3E,87,CD,54,5A,C0,02,B8,
7353307,00000157,false,Rx,0,8,D5,47,09,C4,FF,E0,00,80,
7355008,000001A1,false,Rx,0,8,AE,44,32,12,95,0C,80,20,
7355166,000001C7,false,Rx,0,4,AA,A0,FF,C0,00,00,00,00,
7360017,0000019F,false,Rx,0,8,00,00,7D,05,00,6A,90,FE,
7360242,00000155,false,Rx,0,8,3E,87,CD,54,5A,C0,02,B8,
7360462,00000511,false,Rx,0,7,04,D1,1C,8B,6F,52,F9,00,
7363317,00000157,false,Rx,0,8,D5,97,09,C4,FF,E0,00,80,
7364991,000001A1,false,Rx,0,8,AE,84,32,12,95,0C,80,20,
7365165,000001C7,false,Rx,0,4,AA,A0,FF,C0,00,00,00,00,
7369967,00000155,false,Rx,0,8,3E,87,CD,54,5A,C0,02,B8,
7370190,0000019F,false,Rx,0,8,00,00,7D,0A,00,6A,90,FE,
7373267,00000157,false,Rx,0,8,D5,E7,09,C4,FF,E0,00,80,
7374990,000001A1,false,Rx,0,8,AE,84,32,12,95,0C,80,20,
7375165,000001C7,false,Rx,0,4,AA,A0,FF,C0,00,00,00,00,
7379016,00000423,false,Rx,0,8,07,1E,00,02,5D,80,B2,DA,
7379990,00000155,false,Rx,0,8,3E,87,CD,54,5A,C0,02,B8,
7380241,0000019F,false,Rx,0,8,00,00,7D,0F,00,6A,90,FE,
7380462,00000424,false,Rx,0,8,11,40,56,C1,2D,5E,AA,2E,
7380709,00000425,false,Rx,0,8,2A,6A,44,9C,42,0E,B1,06,
7380931,00000445,false,Rx,0,7,80,55,AA,65,04,82,00,00,
7383291,00000157,false,Rx,0,8,D5,37,09,C4,FF,E0,00,80,
7383537,00000426,false,Rx,0,8,00,60,01,00,59,5C,00,40,
7384990,000001A1,false,Rx,0,8,AE,44,32,12,95,0C,80,20,
7385165,000001C7,false,Rx,0,4,AA,A0,FF,C0,00,00,00,00,
7390015,0000019F,false,Rx,0,8,00,00,7D,04,00,6A,90,FE,
7390237,00000155,false,Rx,0,8,3E,87,CD,54,5A,C0,02,B8,
7393316,00000157,false,Rx,0,8,D5,87,09,C4,FF,E0,00,80,
7394986,000001A1,false,Rx,0,8,AE,84,32,12,95,0C,80,20,
7395163,000001C7,false,Rx,0,4,AA,A0,FF,C0,00,00,00,00,
7398964,00000435,false,Rx,0,8,FF,FF,1E,0B,2A,00,00,00,
7399959,00000155,false,Rx,0,8,3E,87,CD,54,5A,C0,02,B8,
7400208,0000019F,false,Rx,0,8,00,00,7D,09,00,6A,90,FE,
7403248,00000157,false,Rx,0,8,D5,D7,09,C4,FF,E0,00,80,
7403457,00000436,false,Rx,0,6,86,18,76,CC,FF,DC,00,00,
7404992,000001A1,false,Rx,0,8,AE,84,32,12,95,0C,80,20,
7405163,000001C7,false,Rx,0,4,AA,A0,FF,C0,00,00,00,00,
7409965,00000155,false,Rx,0,8,3E,87,CD,54,5A,C0,02,B8,
7410211,0000019F,false,Rx,0,8,00,00,7D,0E,00,6A,90,FE,
7410483,00000419,false,Rx,0,6,5F,09,2A,E6,30,00,00,00,
7413351,00000157,false,Rx,0,8,D5,27,09,C4,FF,E0,00,80,
7415051,000001A1,false,Rx,0,8,AE,84,32,12,95,0C,80,20,
7415166,000001C7,false,Rx,0,4,AA,A0,FF,C0,00,00,00,00,
7419502,0000069F,false,Rx,0,4,71,30,28,2F,00,00,00,00,
7420050,0000019F,false,Rx,0,8,00,00,7D,03,00,6A,90,FE,
7420277,00000155,false,Rx,0,8,3E,87,CD,54,5A,C0,02,B8,
7423327,00000157,false,Rx,0,8,D5,77,09,C4,FF,E0,00,80,
7425026,000001A1,false,Rx,0,8,AE,44,32,12,95,0C,80,20,
7425277,000004F7,false,Rx,0,8,00,1D,08,00,88,28,06,F0,
7425450,000001C7,false,Rx,0,4,AA,A0,FF,C0,00,00,00,00,
7425722,00000428,false,Rx,0,8,00,00,00,7F,00,00,00,00,
7425895,0000042F,false,Rx,0,2,00,20,00,00,00,00,00,00,
7430054,0000019F,false,Rx,0,8,00,00,7D,08,00,6A,90,FE,
7430276,00000155,false,Rx,0,8,3E,87,CD,54,5A,C0,02,B8,
7433303,00000157,false,Rx,0,8,D5,C7,09,C4,FF,E0,00,80,
7435026,000001A1,false,Rx,0,8,AE,44,32,12,95,0C,80,20,
7435205,000001C7,false,Rx,0,4,AA,A0,FF,C0,00,00,00,00,
7440054,0000019F,false,Rx,0,8,00,00,7D,0D,00,6A,90,FE,
7440276,00000155,false,Rx,0,8,3E,87,CD,54,5A,C0,02,B8,
7443316,00000157,false,Rx,0,8,D5,17,09,C4,FF,E0,00,80,
7444985,000001A1,false,Rx,0,8,AE,44,32,12,95,0C,80,20,
7445183,000001C7,false,Rx,0,4,AA,A0,FF,C0,00,00,00,00,
7450035,0000019F,false,Rx,0,8,00,00,7D,02,00,6A,90,FE,
7450236,00000155,false,Rx,0,8,3E,87,CD,54,5A,C0,02,B8,
7453527,00000157,false,Rx,0,8,D5,67,09,C4,FF,E0,00,80,
7455229,000001A1,false,Rx,0,8,AE,84,32,12,95,0C,80,20,
7455236,000001C7,false,Rx,0,4,AA,A0,FF,C0,00,00,00,00,
7459999,00000155,false,Rx,0,8,3E,87,CD,54,5A,C0,02,B8,
7460216,0000019F,false,Rx,0,8,00,00,7D,07,00,6A,90,FE,
7460509,00000511,false,Rx,0,7,04,10,E5,44,DA,5F,DC,00,
7463502,00000157,false,Rx,0,8,D5,B7,09,C4,FF,E0,00,80,
7465134,000001A1,false,Rx,0,8,AE,84,32,12,95,0C,80,20,
7465161,000001C7,false,Rx,0,4,AA,A0,FF,C0,00,00,00,00,
7470118,00000155,false,Rx,0,8,3E,87,CD,54,5A,C0,02,B8,
7470265,0000019F,false,Rx,0,8,00,00,7D,0C,00,6A,90,FE,
7473527,00000157,false,Rx,0,8,D5,07,09,C4,FF,E0,00,80,
7475229,000001A1,false,Rx,0,8,AE,84,32,12,95,0C,80,20,
7475236,000001C7,false,Rx,0,4,AA,A0,FF,C0,00,00,00,00,
7479231,00000423,false,Rx,0,8,07,1E,00,02,5D,80,B2,DA,
7480201,00000155,false,Rx,0,8,3E,87,CD,54,5A,C0,02,B8,
7480237,0000019F,false,Rx,0,8,00,00,7D,01,00,6A,90,FE,
7480514,00000424,false,Rx,0,8,11,40,56,C1,2D,5E,55,2E,
7480787,00000425,false,Rx,0,8,2A,6A,44,9C,42,0E,B1,06,
7480970,00000445,false,Rx,0,7,80,55,AA,65,04,82,00,00,
7483288,00000157,false,Rx,0,8,D5,57,09,C4,FF,E0,00,80,
7483503,00000426,false,Rx,0,8,00,60,01,00,59,5C,00,40,
7485232,000001A1,false,Rx,0,8,AE,84,32,12,95,0C,80,20,
7485239,000001C7,false,Rx,0,4,AA,A0,FF,C0,00,00,00,00,
7490228,00000155,false,Rx,0,8,3E,87,CD,54,5A,C0,02,B8,
7490265,0000019F,false,Rx,0,8,00,00,7D,06,00,6A,90,FE,
7493552,00000157,false,Rx,0,8,D5,A7,09,C4,FF,E0,00,80,
7495229,000001A1,false,Rx,0,8,AE,84,32,12,95,0C,80,20,
7495236,000001C7,false,Rx,0,4,AA,A0,FF,C0,00,00,00,00,
7499199,00000435,false,Rx,0,8,FF,FF,1E,0B,2A,00,00,00,
7500202,00000155,false,Rx,0,8,3E,87,CD,54,5A,C0,02,B8,
7500209,0000019F,false,Rx,0,8,00,00,7D,0B,00,6A,90,FE,
7503347,00000157,false,Rx,0,8,D5,F7,09,C4,FF,E0,00,80,
7503492,00000436,false,Rx,0,6,86,18,76,CC,FF,DC,00,00,
7505228,000001A1,false,Rx,0,8,AE,44,32,12,95,0C,80,20,
7505235,000001C7,false,Rx,0,4,AA,A0,FF,C0,00,00,00,00,
7510179,00000155,false,Rx,0,8,3E,87,CD,54,5A,C0,02,B8,
7510214,0000019F,false,Rx,0,8,00,00,7D,00,00,6A,90,FE,
7510690,00000419,false,Rx,0,6,5F,09,2A,E6,30,00,00,00,
7513462,00000157,false,Rx,0,8,D5,47,09,C4,FF,E0,00,80,
7515228,000001A1,false,Rx,0,8,AE,84,32,12,95,0C,80,20,
7515235,000001C7,false,Rx,0,4,AA,A0,FF,C0,00,00,00,00,
7520263,0000019F,false,Rx,0,8,00,00,7D,05,00,6A,90,FE,
7520270,00000155,false,Rx,0,8,3E,87,CD,54,5A,C0,02,B8,
7523513,00000157,false,Rx,0,8,D5,97,09,C4,FF,E0,00,80,
7525226,000001A1,false,Rx,0,8,AE,44,32,12,95,0C,80,20,
7525233,000004F7,false,Rx,0,8,00,1D,08,00,88,28,06,F0,
7525487,000001C7,false,Rx,0,4,AA,A0,FF,C0,00,00,00,00,
7525731,00000428,false,Rx,0,8,00,00,00,7F,00,00,00,00,
7525892,0000042F,false,Rx,0,2,00,20,00,00,00,00,00,00,
7530226,00000155,false,Rx,0,8,3E,87,CD,54,5A,C0,02,B8,
7530234,0000019F,false,Rx,0,8,00,00,7D,0A,00,6A,90,FE,
7533509,00000157,false,Rx,0,8,D5,E7,09,C4,FF,E0,00,80,
7535229,000001A1,false,Rx,0,8,AE,44,32,12,95,0C,80,20,
7535237,000001C7,false,Rx,0,4,AA,A0,FF,C0,00,00,00,00,
7540231,00000155,false,Rx,0,8,3E,87,CD,54,5A,C0,02,B8,
7540238,0000019F,false,Rx,0,8,00,00,7D,0F,00,6A,90,FE,
7543458,00000157,false,Rx,0,8,D5,37,09,C4,FF,E0,00,80,
7545227,000001A1,false,Rx,0,8,AE,84,32,12,95,0C,80,20,
7545234,000001C7,false,Rx,0,4,AA,A0,FF,C0,00,00,00,00,
7550207,00000155,false,Rx,0,8,3E,87,CD,54,5A,C0,02,B8,
7550261,0000019F,false,Rx,0,8,00,00,7D,04,00,6A,90,FE,
7553480,00000157,false,Rx,0,8,D5,87,09,C4,FF,E0,00,80,
7555235,000001A1,false,Rx,0,8,AE,84,32,12,95,0C,80,20,
7555243,000001C7,false,Rx,0,4,AA,A0,FF,C0,00,00,00,00,
7560270,00000155,false,Rx,0,8,3E,87,CD,54,5A,C0,02,B8,
7560278,0000019F,false,Rx,0,8,00,00,7D,09,00,6A,90,FE,
7560509,00000511,false,Rx,0,7,04,4F,AE,FD,45,6C,BF,00,
7563314,00000157,false,Rx,0,8,D5,D7,09,C4,FF,E0,00,80,
7565110,000001A1,false,Rx,0,8,AE,84,32,12,95,0C,80,20,
7565190,000001C7,false,Rx,0,4,AA,A0,FF,C0,00,00,00,00,
7570161,00000155,false,Rx,0,8,3E,87,CD,54,5A,C0,02,B8,
7570183,0000019F,false,Rx,0,8,00,00,7D,0E,00,6A,90,FE,
7573492,00000157,false,Rx,0,8,D5,27,09,C4,FF,E0,00,80,
7575238,000001A1,false,Rx,0,8,AE,84,32,12,95,0C,80,20,
7575246,000001C7,false,Rx,0,4,AA,A0,FF,C0,00,00,00,00,
7579316,00000423,false,Rx,0,8,07,1E,00,02,5D,80,B2,DA,
7580213,00000155,false,Rx,0,8,3E,87,CD,54,5A,C0,02,B9,
7580232,0000019F,false,Rx,0,8,00,00,7D,03,00,6A,90,FE,
7580553,00000424,false,Rx,0,8,11,40,56,C1,2D,5E,55,2E,
7580746,00000425,false,Rx,0,8,2A,6A,44,9C,42,0E,B1,06,
7580975,00000445,false,Rx,0,7,80,55,AA,65,04,82,00,00,
7583566,00000157,false,Rx,0,8,D5,77,09,C4,FF,E0,00,80,
7583574,00000426,false,Rx,0,8,00,60,01,00,59,5C,00,40,
7585291,000001A1,false,Rx,0,8,AE,84,32,12,95,0C,80,20,
7585301,000001C7,false,Rx,0,4,AA,A0,FF,C0,00,00,00,00,
7590222,00000155,false,Rx,0,8,3E,87,CD,54,5A,C0,02,B9,
7590241,0000019F,false,Rx,0,8,00,00,7D,08,00,6A,90,FE,
7593558,00000157,false,Rx,0,8,D5,C7,09,C4,FF,E0,00,80,
7595281,000001A1,false,Rx,0,8,AE,44,32,12,95,0C,80,20,
7595292,000001C7,false,Rx,0,4,AA,A0,FF,C0,00,00,00,00,
7599286,00000435,false,Rx,0,8,FF,FF,1E,0B,2A,00,00,00,
7599977,00000155,false,Rx,0,8,3E,87,CD,54,5A,C0,02,B9,
7600223,0000019F,false,Rx,0,8,00,00,7D,0D,00,6A,90,FE,
7603337,00000157,false,Rx,0,8,D5,17,09,C4,FF,E0,00,80,
7603527,00000436,false,Rx,0,6,86,18,76,CC,FF,DC,00,00,
7605022,000001A1,false,Rx,0,8,AE,44,32,12,95,0C,80,20,
7605219,000001C7,false,Rx,0,4,AA,A0,FF,C0,00,00,00,00,
7610016,00000155,false,Rx,0,8,3E,87,CD,54,5A,C0,02,B9,
7610236,0000019F,false,Rx,0,8,00,00,7D,02,00,6A,90,FE,
7610463,00000419,false,Rx,0,6,5F,09,2A,E6,30,00,00,00,
7613288,00000157,false,Rx,0,8,D5,67,09,C4,FF,E0,00,80,
7615088,000001A1,false,Rx,0,8,AE,84,32,12,95,0C,80,20,
7615294,000001C7,false,Rx,0,4,AA,A0,FF,C0,00,00,00,00,
7620067,00000155,false,Rx,0,8,3E,87,CD,54,5A,C0,02,B9,
7620319,0000019F,false,Rx,0,8,00,00,7D,07,00,6A,90,FE,
7623389,00000157,false,Rx,0,8,D5,B7,09,C4,FF,E0,00,80,
7625062,000001A1,false,Rx,0,8,AE,44,32,12,95,0C,80,20,
7625349,000004F7,false,Rx,0,8,00,1C,08,00,88,28,06,F0,
7625524,000001C7,false,Rx,0,4,AA,A0,FF,C0,00,00,00,00,
7625775,00000428,false,Rx,0,8,00,00,00,7F,00,00,00,00,
7625952,0000042F,false,Rx,0,2,00,20,00,00,00,00,00,00,
7630063,00000155,false,Rx,0,8,3E,87,CD,54,5A,C0,02,B9,
7630318,0000019F,false,Rx,0,8,00,00,7D,0C,00,6A,90,FE,
