Time Stamp,ID,Extended,Dir,Bus,LEN,D1,D2,D3,D4,D5,D6,D7,D8
25808145,00000423,false,Rx,0,8,30,7F,FF,FF,FF,E0,FF,FF,
25857310,00000423,false,Rx,0,8,33,7F,FF,FF,FF,E0,FF,FF,
25865529,000004F7,false,Rx,0,8,00,7F,00,00,09,FC,06,F0,
25865538,000001C7,false,Rx,0,4,00,80,FF,C0,00,00,00,00,
25865678,00000428,false,Rx,0,8,00,00,00,7F,00,00,00,00,
25865920,0000042F,false,Rx,0,2,00,00,00,00,00,00,00,00,
25870531,00000423,false,Rx,0,8,07,1E,00,01,B2,80,B2,C8,
25874765,00000426,false,Rx,0,8,00,00,02,00,59,5C,00,40,
25875458,000001C7,false,Rx,0,4,AA,A0,FF,C0,00,00,00,00,
25877161,000001A1,false,Rx,0,8,FF,FF,FF,FF,FE,FC,00,20,
25877330,00000445,false,Rx,0,7,80,DF,AA,65,04,82,00,00,
25882043,0000019F,false,Rx,0,8,FF,FF,FF,FF,00,06,00,FE,
25884713,00000157,false,Rx,0,8,D5,E7,09,C4,FF,E0,00,80,
25885456,000001C7,false,Rx,0,4,AA,A0,FF,C0,00,00,00,00,
25887160,000001A1,false,Rx,0,8,FF,FF,FF,FF,FE,FC,00,20,
25890276,00000435,false,Rx,0,8,FF,FF,1E,EB,FF,FC,00,00,
25892160,0000019F,false,Rx,0,8,FF,FF,FF,F4,00,06,00,FE,
25892169,00000419,false,Rx,0,6,00,00,00,00,00,00,00,00,
25894718,00000157,false,Rx,0,8,D5,37,09,C4,FF,E0,00,80,
25894726,00000436,false,Rx,0,6,80,18,76,CB,FF,DC,00,00,
25895459,000001C7,false,Rx,0,4,AA,A0,FF,C0,00,00,00,00,
25897161,000001A1,false,Rx,0,8,FF,FF,FF,FF,FE,FC,00,20,
25902119,0000019F,false,Rx,0,8,FF,FF,FF,F9,00,06,00,FE,
25904861,00000157,false,Rx,0,8,D5,87,09,C4,FF,E0,00,80,
25905395,000001C7,false,Rx,0,4,AA,A0,FF,C0,00,00,00,00,
25907165,000001A1,false,Rx,0,8,FF,FF,FF,FF,FE,FC,00,20,
25912164,0000019F,false,Rx,0,8,FF,FF,FF,FE,00,06,00,FE,
25914843,00000157,false,Rx,0,8,D5,D7,09,C4,FF,E0,00,80,
25915390,000001C7,false,Rx,0,4,AA,A0,FF,C0,00,00,00,00,
25917160,000001A1,false,Rx,0,8,FF,FF,FF,FF,FE,FC,00,20,
25921979,0000019F,false,Rx,0,8,FF,FF,FF,F3,00,06,00,FE,
25924866,00000157,false,Rx,0,8,D5,27,09,C4,FF,E0,00,80,
25925384,000001C7,false,Rx,0,4,AA,A0,FF,C0,00,00,00,00,
25927162,000001A1,false,Rx,0,8,FF,FF,FF,FF,FE,FC,00,20,
25932160,0000019F,false,Rx,0,8,FF,FF,FF,F8,00,06,00,FE,
25934529,00000157,false,Rx,0,8,D5,77,09,C4,FF,E0,00,80,
25935509,000001C7,false,Rx,0,4,AA,A0,FF,C0,00,00,00,00,
25937161,000001A1,false,Rx,0,8,FF,FF,FF,FF,FE,FC,00,20,
25941998,0000019F,false,Rx,0,8,FF,FF,FF,FD,00,06,00,FE,
25944788,00000157,false,Rx,0,8,D5,C7,09,C4,FF,E0,00,80,
25945412,000001C7,false,Rx,0,4,AA,A0,FF,C0,00,00,00,00,
25947159,000001A1,false,Rx,0,8,FF,FF,FF,FF,FE,FC,00,20,
25952158,0000019F,false,Rx,0,8,FF,FF,FF,F2,00,06,00,FE,
25954816,00000157,false,Rx,0,8,D5,17,09,C4,FF,E0,00,80,
25955536,000001C7,false,Rx,0,4,AA,A0,FF,C0,00,00,00,00,
25957185,000001A1,false,Rx,0,8,FF,FF,FF,FF,FE,FC,00,20,
25962085,0000019F,false,Rx,0,8,FF,FF,FF,F7,00,06,00,FE,
25964861,00000157,false,Rx,0,8,D5,67,09,C4,FF,E0,00,80,
25965513,000004F7,false,Rx,0,8,00,19,0C,00,90,20,06,F0,
25965571,000001C7,false,Rx,0,4,AA,A0,FF,C0,00,00,00,00,
25966015,00000428,false,Rx,0,8,00,00,00,7F,00,00,80,00,
25966041,0000042F,false,Rx,0,2,00,20,00,00,00,00,00,00,
25967161,000001A1,false,Rx,0,8,FF,FF,FF,FF,FE,FC,00,20,
25970494,00000423,false,Rx,0,8,07,1E,00,01,B2,80,B2,C8,
25972162,0000019F,false,Rx,0,8,FF,FF,FF,FC,00,06,00,FE,
25974866,00000157,false,Rx,0,8,D5,B7,09,C4,FF,E0,00,80,
25974875,00000426,false,Rx,0,8,00,08,02,00,59,5C,00,40,
25975533,000001C7,false,Rx,0,4,AA,A0,FF,C0,00,00,00,00,
25977161,000001A1,false,Rx,0,8,FF,FF,FF,FF,FE,FC,00,20,
25977375,00000445,false,Rx,0,7,80,DF,AA,65,04,82,00,00,
25982173,0000019F,false,Rx,0,8,FF,FF,FF,F1,00,06,00,FE,
25984785,00000157,false,Rx,0,8,D5,07,09,C4,FF,E0,00,80,
25985538,000001C7,false,Rx,0,4,AA,A0,FF,C0,00,00,00,00,
25987162,000001A1,false,Rx,0,8,FF,FF,FF,FF,FE,FC,00,20,
25990467,00000435,false,Rx,0,8,FF,FF,1E,EB,FF,FC,00,00,
25992114,0000019F,false,Rx,0,8,FF,FF,FF,F6,00,06,00,FE,
25992121,00000419,false,Rx,0,6,00,00,00,00,00,00,00,00,
25994732,00000157,false,Rx,0,8,D5,57,09,C4,FF,E0,00,80,
25994744,00000436,false,Rx,0,6,80,18,76,CB,FF,DC,00,00,
25995560,000001C7,false,Rx,0,4,AA,A0,FF,C0,00,00,00,00,
25997183,000001A1,false,Rx,0,8,FF,FF,FF,FF,FE,FC,00,20,
26001916,0000019F,false,Rx,0,8,FF,FF,FF,FB,00,06,00,FE,
26004764,00000157,false,Rx,0,8,D5,A7,09,C4,FF,E0,00,80,
26005459,000001C7,false,Rx,0,4,AA,A0,FF,C0,00,00,00,00,
26007163,000001A1,false,Rx,0,8,FF,FF,FF,FF,FE,FC,00,20,
26012164,0000019F,false,Rx,0,8,FF,FF,FF,F0,00,06,00,FE,
26014764,00000157,false,Rx,0,8,D5,F7,09,C4,FF,E0,00,80,
26015560,000001C7,false,Rx,0,4,AA,A0,FF,C0,00,00,00,00,
26017156,000001A1,false,Rx,0,8,FF,FF,FF,FF,FE,FC,00,20,
26022064,0000019F,false,Rx,0,8,FF,FF,FF,F5,00,06,00,FE,
26024818,00000157,false,Rx,0,8,D5,47,09,C4,FF,E0,00,80,
26025458,000001C7,false,Rx,0,4,AA,A0,FF,C0,00,00,00,00,
26027164,000001A1,false,Rx,0,8,FF,FF,FF,FF,FE,FC,00,20,
26032164,0000019F,false,Rx,0,8,FF,FF,FF,FA,00,06,00,FE,
26034743,00000157,false,Rx,0,8,D5,97,09,C4,FF,E0,00,80,
26035586,000001C7,false,Rx,0,4,AA,A0,FF,C0,00,00,00,00,
26037186,000001A1,false,Rx,0,8,78,03,12,C8,35,0C,80,20,
26042027,0000019F,false,Rx,0,8,00,00,42,DF,00,62,90,FE,
26042267,00000511,false,Rx,0,7,04,54,81,20,6E,EB,90,00,
26044614,00000157,false,Rx,0,8,D5,E7,09,C4,FF,E0,00,80,
26045365,000001C7,false,Rx,0,4,AA,A0,FF,C0,00,00,00,00,
26046988,000001A1,false,Rx,0,8,00,44,6C,2F,75,0C,80,20,
26051992,0000019F,false,Rx,0,8,00,00,62,74,00,96,90,FE,
26054465,00000157,false,Rx,0,8,D5,37,09,C4,FF,E0,00,80,
26055364,000001C7,false,Rx,0,4,AA,A0,FF,C0,00,00,00,00,
26056989,000001A1,false,Rx,0,8,00,43,92,14,25,0C,80,20,
26061990,0000019F,false,Rx,0,8,00,00,70,E9,00,74,90,FE,
26064493,00000157,false,Rx,0,8,D5,87,09,C4,FF,E0,00,80,
26065441,000004F7,false,Rx,0,8,00,19,0C,00,90,20,06,F0,
26065670,000001C7,false,Rx,0,4,AA,A0,FF,C0,00,00,00,00,
26065946,00000428,false,Rx,0,8,00,00,00,7F,00,00,80,00,
26066148,0000042F,false,Rx,0,2,00,20,00,00,00,00,00,00,
26067000,000001A1,false,Rx,0,8,00,43,92,14,05,0C,80,20,
26070343,00000423,false,Rx,0,8,07,1E,00,01,B2,80,5D,C8,
26071992,0000019F,false,Rx,0,8,00,00,77,7E,00,37,90,FE,
26074543,00000157,false,Rx,0,8,D5,D7,09,C4,FF,E0,00,80,
26074769,00000426,false,Rx,0,8,00,08,02,00,59,5C,00,40,
26075396,000001C7,false,Rx,0,4,AA,A0,FF,C0,00,00,00,00,
26076991,000001A1,false,Rx,0,8,00,43,92,14,05,0C,80,20,
26077367,00000445,false,Rx,0,7,80,DF,55,65,04,82,00,00,
26081993,0000019F,false,Rx,0,8,00,00,7A,83,00,06,90,FE,
26084481,00000157,false,Rx,0,8,D5,27,09,C4,FF,E0,00,80,
26085382,000001C7,false,Rx,0,4,AA,A0,FF,C0,00,00,00,00,
26086970,000001A1,false,Rx,0,8,00,43,92,14,05,0C,80,20,
26090325,00000435,false,Rx,0,8,FF,FF,1E,0B,FF,FC,00,00,
26091991,0000019F,false,Rx,0,8,00,00,7B,E8,00,4A,90,FE,
26092226,00000419,false,Rx,0,6,A0,FF,C8,FF,28,00,00,00,
26094618,00000157,false,Rx,0,8,D5,77,09,C4,FF,E0,00,80,
26094790,00000436,false,Rx,0,6,80,18,76,CB,FF,DC,00,00,
26095350,000001C7,false,Rx,0,4,AA,A0,FF,C0,00,00,00,00,
26096946,000001A1,false,Rx,0,8,00,43,92,14,05,0C,80,20,
26101975,0000019F,false,Rx,0,8,00,00,7C,8D,00,93,90,FE,
26104483,00000157,false,Rx,0,8,D5,C7,09,C4,FF,E0,00,80,
26105374,000001C7,false,Rx,0,4,AA,A0,FF,C0,00,00,00,00,
26106942,000001A1,false,Rx,0,8,00,43,92,14,05,0C,80,20,
26111970,0000019F,false,Rx,0,8,00,00,7C,C2,00,2F,90,FE,
26114513,00000157,false,Rx,0,8,D5,17,09,C4,FF,E0,00,80,
26115417,000001C7,false,Rx,0,4,AA,A0,FF,C0,00,00,00,00,
26116984,000001A1,false,Rx,0,8,00,43,92,14,05,0C,80,20,
26122007,0000019F,false,Rx,0,8,00,00,7C,E7,00,71,90,FE,
26124583,00000157,false,Rx,0,8,D5,67,09,C4,FF,E0,00,80,
26125406,000001C7,false,Rx,0,4,AA,A0,FF,C0,00,00,00,00,
26127014,000001A1,false,Rx,0,8,00,43,92,14,05,0C,80,20,
26132008,0000019F,false,Rx,0,8,00,00,7C,FC,00,5E,90,FE,
26134631,00000157,false,Rx,0,8,D5,B7,09,C4,FF,E0,00,80,
26135407,000001C7,false,Rx,0,4,AA,A0,FF,C0,00,00,00,00,
26137007,000001A1,false,Rx,0,8,00,43,92,14,05,0C,80,20,
26141976,0000019F,false,Rx,0,8,00,00,7D,01,00,6A,90,FE,
26142246,00000511,false,Rx,0,7,04,93,4A,D9,D9,F8,73,00,
26144422,00000157,false,Rx,0,8,D5,07,09,C4,FF,E0,00,80,
26145322,000001C7,false,Rx,0,4,AA,A0,FF,C0,00,00,00,00,
26146948,000001A1,false,Rx,0,8,00,43,92,14,05,0C,80,20,
26151972,0000019F,false,Rx,0,8,00,00,7D,06,00,6A,90,FE,
26154548,00000157,false,Rx,0,8,D5,57,09,C4,FF,E0,00,80,
26155355,000001C7,false,Rx,0,4,AA,A0,FF,C0,00,00,00,00,
26156956,000001A1,false,Rx,0,8,00,43,92,14,06,0C,80,20,
26161982,0000019F,false,Rx,0,8,00,00,7D,0B,00,6A,90,FE,
26164451,00000157,false,Rx,0,8,D5,A7,09,C4,FF,E0,00,80,
26165418,000004F7,false,Rx,0,8,00,19,0C,00,90,20,06,F0,
26165590,000001C7,false,Rx,0,4,AA,A0,FF,C0,00,00,00,00,
26165894,00000428,false,Rx,0,8,00,00,00,7F,00,00,80,00,
26166073,0000042F,false,Rx,0,2,00,20,00,00,00,00,00,00,
26167018,000001A1,false,Rx,0,8,00,43,92,14,06,0C,80,20,
26170149,00000423,false,Rx,0,8,07,1E,00,01,B2,80,5D,C8,
26171979,0000019F,false,Rx,0,8,00,00,7D,00,00,6A,90,FE,
26174500,00000157,false,Rx,0,8,D5,F7,09,C4,FF,E0,00,80,
26174750,00000426,false,Rx,0,8,00,08,02,00,59,5C,00,40,
26175349,000001C7,false,Rx,0,4,AA,A0,FF,C0,00,00,00,00,
26176968,000001A1,false,Rx,0,8,00,43,A6,14,06,0C,80,20,
26177323,00000445,false,Rx,0,7,80,DF,55,65,04,82,00,00,
26181975,0000019F,false,Rx,0,8,00,00,7D,05,00,6A,90,FE,
26184568,00000157,false,Rx,0,8,D5,47,09,C4,FF,E0,00,80,
26185343,000001C7,false,Rx,0,4,AA,A0,FF,C0,00,00,00,00,
26186968,000001A1,false,Rx,0,8,00,43,92,14,06,0C,80,20,
26190219,00000435,false,Rx,0,8,FF,FF,1E,A9,FF,FC,00,00,
26191968,0000019F,false,Rx,0,8,00,00,7D,0A,00,6A,90,FE,
26192244,00000419,false,Rx,0,6,FF,FF,FC,FF,FE,00,00,00,
26194588,00000157,false,Rx,0,8,D5,97,09,C4,FF,E0,00,80,
26194788,00000436,false,Rx,0,6,80,18,76,CB,FF,DC,00,00,
26195386,000001C7,false,Rx,0,4,AA,A0,FF,C0,00,00,00,00,
26197011,000001A1,false,Rx,0,8,00,43,A6,14,06,0C,80,20,
26202001,0000019F,false,Rx,0,8,00,00,7D,0F,00,6A,90,FE,
26204575,00000157,false,Rx,0,8,D5,E7,09,C4,FF,E0,00,80,
26205407,000001C7,false,Rx,0,4,AA,A0,FF,C0,00,00,00,00,
26207000,000001A1,false,Rx,0,8,00,43,A6,14,06,0C,80,20,
26212058,0000019F,false,Rx,0,8,00,00,7D,04,00,6A,90,FE,
26214457,00000157,false,Rx,0,8,D5,37,09,C4,FF,E0,00,80,
26215407,000001C7,false,Rx,0,4,AA,A0,FF,C0,00,00,00,00,
26217013,000001A1,false,Rx,0,8,00,43,92,14,06,0C,80,20,
26222026,0000019F,false,Rx,0,8,00,00,7D,09,00,6A,90,FE,
26224504,00000157,false,Rx,0,8,D5,87,09,C4,FF,E0,00,80,
26225645,000001C7,false,Rx,0,4,AA,A0,FF,C0,00,00,00,00,
26227016,000001A1,false,Rx,0,8,00,43,92,14,06,0C,80,20,
26232073,0000019F,false,Rx,0,8,00,00,7D,0E,00,6A,90,FE,
26234529,00000157,false,Rx,0,8,D5,D7,09,C4,FF,E0,00,80,
26235632,000001C7,false,Rx,0,4,AA,A0,FF,C0,00,00,00,00,
26237237,000001A1,false,Rx,0,8,00,43,92,14,06,0C,80,20,
26242152,0000019F,false,Rx,0,8,00,00,7D,03,00,6A,90,FE,
26242246,00000511,false,Rx,0,7,04,D2,13,92,44,05,56,00,
26244603,00000157,false,Rx,0,8,D5,27,09,C4,FF,E0,00,80,
26245460,000001C7,false,Rx,0,4,AA,A0,FF,C0,00,00,00,00,
26247129,000001A1,false,Rx,0,8,00,43,92,14,06,0C,80,20,
26252240,0000019F,false,Rx,0,8,00,00,7D,08,00,6A,90,FE,
26254577,00000157,false,Rx,0,8,D5,77,09,C4,FF,E0,00,80,
26255551,000001C7,false,Rx,0,4,AA,A0,FF,C0,00,00,00,00,
26257127,000001A1,false,Rx,0,8,00,43,92,14,06,0C,80,20,
26262177,0000019F,false,Rx,0,8,00,00,7D,0D,00,6A,90,FE,
26264590,00000157,false,Rx,0,8,D5,C7,09,C4,FF,E0,00,80,
26265560,000004F7,false,Rx,0,8,00,19,0C,00,90,20,06,F0,
26265692,000001C7,false,Rx,0,4,AA,A0,FF,C0,00,00,00,00,
26266124,00000428,false,Rx,0,8,00,00,00,7F,00,00,80,00,
26266151,0000042F,false,Rx,0,2,00,20,00,00,00,00,00,00,
26267232,000001A1,false,Rx,0,8,00,43,92,14,06,0C,80,20,
26270410,00000423,false,Rx,0,8,07,1E,00,01,B2,80,5D,C8,
26272290,0000019F,false,Rx,0,8,00,00,7D,02,00,6A,90,FE,
26273286,00000155,false,Rx,0,8,FF,8F,FF,94,FF,F8,03,FF,
26273293,00000424,false,Rx,0,8,FF,FF,FF,FF,7F,7F,AA,7F,
26273514,00000425,false,Rx,0,8,1D,FF,4C,FF,FF,FF,FD,FF,
26273802,000004AE,false,Rx,0,8,D2,B2,3C,A0,92,5A,88,FE,
26273891,00000659,false,Rx,0,4,FF,FF,FF,FF,00,00,00,00,
26274109,000004AF,false,Rx,0,5,FF,FF,FF,BA,40,00,00,00,
26274644,00000157,false,Rx,0,8,D5,17,09,C4,FF,E0,00,80,
26274651,00000426,false,Rx,0,8,00,08,02,00,59,5C,00,40,
26275664,000001C7,false,Rx,0,4,AA,A0,FF,C0,00,00,00,00,
26277236,000001A1,false,Rx,0,8,00,43,92,14,06,0C,80,20,
26277307,00000445,false,Rx,0,7,80,DF,55,65,04,82,00,00,
26282286,0000019F,false,Rx,0,8,00,00,7D,07,00,6A,90,FE,
26284407,00000155,false,Rx,0,8,FF,8F,FF,94,FF,F8,03,FF,
26284477,00000157,false,Rx,0,8,D5,67,09,C4,FF,E0,00,80,
26285692,000001C7,false,Rx,0,4,AA,A0,FF,C0,00,00,00,00,
26287135,000001A1,false,Rx,0,8,00,43,92,14,06,0C,80,20,
26290281,00000435,false,Rx,0,8,FF,FF,1E,A9,FF,FC,00,00,
26292071,0000019F,false,Rx,0,8,00,00,7D,0C,00,6A,90,FE,
26292292,00000419,false,Rx,0,6,FF,FF,FC,FF,FE,00,00,00,
26294092,00000155,false,Rx,0,8,FF,8F,FF,94,FF,F8,03,FF,
26294527,00000157,false,Rx,0,8,D5,B7,09,C4,FF,E0,00,80,
26294727,00000436,false,Rx,0,6,80,18,76,CB,FF,DC,00,00,
26295465,000001C7,false,Rx,0,4,AA,A0,FF,C0,00,00,00,00,
26297065,000001A1,false,Rx,0,8,00,43,92,14,06,0C,80,20,
26302064,0000019F,false,Rx,0,8,00,00,7D,01,00,6A,90,FE,
26304115,00000155,false,Rx,0,8,FF,8F,FF,94,FF,F8,03,FF,
26304467,00000157,false,Rx,0,8,D5,07,09,C4,FF,E0,00,80,
26305467,000001C7,false,Rx,0,4,AA,A0,FF,C0,00,00,00,00,
26307072,000001A1,false,Rx,0,8,00,43,A6,14,06,0C,80,20,
26312067,0000019F,false,Rx,0,8,00,00,7D,06,00,6A,90,FE,
26314243,00000155,false,Rx,0,8,FF,8F,FF,94,FF,F8,03,FF,
26314470,00000157,false,Rx,0,8,D5,57,09,C4,FF,E0,00,80,
26315467,000001C7,false,Rx,0,4,AA,A0,FF,C0,00,00,00,00,
26317067,000001A1,false,Rx,0,8,00,43,92,14,06,0C,80,20,
26322069,0000019F,false,Rx,0,8,00,00,7D,0B,00,6A,90,FE,
26324318,00000155,false,Rx,0,8,FF,8F,FF,94,FF,F8,03,FF,
26324545,00000157,false,Rx,0,8,D5,A7,09,C4,FF,E0,00,80,
26325493,000001C7,false,Rx,0,4,AA,A0,FF,C0,00,00,00,00,
26327067,000001A1,false,Rx,0,8,00,43,92,14,06,0C,80,20,
26332058,0000019F,false,Rx,0,8,00,00,7D,00,00,6A,90,FE,
26334507,00000157,false,Rx,0,8,D5,F7,09,C4,FF,E0,00,80,
26334729,00000155,false,Rx,0,8,FF,8F,FF,94,FF,F8,03,FF,
26335486,000001C7,false,Rx,0,4,AA,A0,FF,C0,00,00,00,00,
26336993,000001A1,false,Rx,0,8,00,43,92,14,06,0C,80,20,
26342051,0000019F,false,Rx,0,8,00,00,7D,05,00,6A,90,FE,
26342268,00000511,false,Rx,0,7,04,11,DC,4B,AF,12,39,00,
26344526,00000157,false,Rx,0,8,D5,47,09,C4,FF,E0,00,80,
26344774,00000155,false,Rx,0,8,FF,8F,FF,94,FF,F8,03,FF,
26345477,000001C7,false,Rx,0,4,AA,A0,FF,C0,00,00,00,00,
26347037,000001A1,false,Rx,0,8,00,43,92,14,06,0C,80,20,
26352040,0000019F,false,Rx,0,8,00,00,7D,0A,00,6A,90,FE,
26354585,00000157,false,Rx,0,8,D5,97,09,C4,FF,E0,00,80,
26354835,00000155,false,Rx,0,8,FF,8F,FF,94,FF,F8,03,FF,
26355458,000001C7,false,Rx,0,4,AA,A0,FF,C0,00,00,00,00,
26357024,000001A1,false,Rx,0,8,00,43,A6,14,06,0C,80,20,
26362033,0000019F,false,Rx,0,8,00,00,7D,0F,00,6A,90,FE,
26364458,00000157,false,Rx,0,8,D5,E7,09,C4,FF,E0,00,80,
26365058,00000155,false,Rx,0,8,FF,8F,FF,94,FF,F8,03,FF,
26365535,000004F7,false,Rx,0,8,00,19,0C,00,90,20,06,F0,
26365762,000001C7,false,Rx,0,4,AA,A0,FF,C0,00,00,00,00,
26366032,00000428,false,Rx,0,8,00,00,00,7F,00,00,80,00,
26366235,0000042F,false,Rx,0,2,00,20,00,00,00,00,00,00,
26367032,000001A1,false,Rx,0,8,00,43,A6,14,06,0C,80,20,
26370349,00000423,false,Rx,0,8,07,1E,00,01,B2,80,5D,C8,
26372027,0000019F,false,Rx,0,8,00,00,7D,04,00,6A,90,FE,
26373074,00000155,false,Rx,0,8,FF,8F,FF,94,FF,F8,03,FF,
26373322,00000424,false,Rx,0,8,FF,FF,FF,FF,7F,7F,AA,7F,
26373569,00000425,false,Rx,0,8,1D,FF,4C,FF,FF,FF,FD,FF,
26374423,00000157,false,Rx,0,8,D5,37,09,C4,FF,E0,00,80,
26374670,00000426,false,Rx,0,8,00,08,02,00,59,5C,00,40,
26375473,000001C7,false,Rx,0,4,AA,A0,FF,C0,00,00,00,00,
26377023,000001A1,false,Rx,0,8,00,43,A6,14,06,0C,80,20,
26377298,00000445,false,Rx,0,7,80,DF,55,65,04,82,00,00,
26382034,0000019F,false,Rx,0,8,00,00,7D,09,00,6A,90,FE,
26383107,00000155,false,Rx,0,8,FF,8F,FF,94,FF,F8,03,FF,
26384582,00000157,false,Rx,0,8,D5,87,09,C4,FF,E0,00,80,
26385480,000001C7,false,Rx,0,4,AA,A0,FF,C0,00,00,00,00,
26387033,000001A1,false,Rx,0,8,00,43,92,14,06,0C,80,20,
26390399,00000435,false,Rx,0,8,FF,FF,1E,A9,FF,FC,00,00,
26392019,0000019F,false,Rx,0,8,00,00,7D,0E,00,6A,90,FE,
26392265,00000419,false,Rx,0,6,FF,FF,FC,FF,FE,00,00,00,
26393093,00000155,false,Rx,0,8,FF,8F,FF,94,FF,F8,03,FF,
26394569,00000157,false,Rx,0,8,D5,D7,09,C4,FF,E0,00,80,
26394766,00000436,false,Rx,0,6,80,18,76,CB,FF,DC,00,00,
26395469,000001C7,false,Rx,0,4,AA,A0,FF,C0,00,00,00,00,
26397022,000001A1,false,Rx,0,8,00,43,A6,14,06,0C,80,20,
26402020,0000019F,false,Rx,0,8,00,00,7D,03,00,6A,90,FE,
26403092,00000155,false,Rx,0,8,FF,8F,FF,94,FF,F8,03,FF,
26404592,00000157,false,Rx,0,8,D5,27,09,C4,FF,E0,00,80,
26405467,000001C7,false,Rx,0,4,AA,A0,FF,C0,00,00,00,00,
26407017,000001A1,false,Rx,0,8,00,43,92,14,06,0C,80,20,
26412017,0000019F,false,Rx,0,8,00,00,7D,08,00,6A,90,FE,
26413142,00000155,false,Rx,0,8,FF,8F,FF,94,FF,F8,03,FF,
26414542,00000157,false,Rx,0,8,D5,77,09,C4,FF,E0,00,80,
26415511,000001C7,false,Rx,0,4,AA,A0,FF,C0,00,00,00,00,
26417033,000001A1,false,Rx,0,8,00,43,A6,14,06,0C,80,20,
26422033,0000019F,false,Rx,0,8,00,00,7D,0D,00,6A,90,FE,
26423167,00000155,false,Rx,0,8,FF,8F,FF,94,FF,F8,03,FF,
26424508,00000157,false,Rx,0,8,D5,C7,09,C4,FF,E0,00,80,
26425511,000001C7,false,Rx,0,4,AA,A0,FF,C0,00,00,00,00,
26427033,000001A1,false,Rx,0,8,00,43,92,14,06,0C,80,20,
26432028,0000019F,false,Rx,0,8,00,00,7D,02,00,6A,90,FE,
26433158,00000155,false,Rx,0,8,FF,8F,FF,94,FF,F8,03,FF,
26434501,00000157,false,Rx,0,8,D5,17,09,C4,FF,E0,00,80,
26435499,000001C7,false,Rx,0,4,AA,A0,FF,C0,00,00,00,00,
26437023,000001A1,false,Rx,0,8,00,43,92,14,06,0C,80,20,
26442025,0000019F,false,Rx,0,8,00,00,7D,07,00,6A,90,FE,
26442271,00000511,false,Rx,0,7,04,50,A5,04,1A,1F,1C,00,
26443173,00000155,false,Rx,0,8,FF,8F,FF,94,FF,F8,03,FF,
26444498,00000157,false,Rx,0,8,D5,67,09,C4,FF,E0,00,80,
26445511,000001C7,false,Rx,0,4,AA,A0,FF,C0,00,00,00,00,
26447033,000001A1,false,Rx,0,8,00,43,92,14,06,0C,80,20,
26452022,0000019F,false,Rx,0,8,00,00,7D,0C,00,6A,90,FE,
26453118,00000155,false,Rx,0,8,FF,8F,FF,94,FF,F8,03,FF,
26454568,00000157,false,Rx,0,8,D5,B7,09,C4,FF,E0,00,80,
26455525,000001C7,false,Rx,0,4,AA,A0,FF,C0,00,00,00,00,
26457017,000001A1,false,Rx,0,8,00,43,A6,14,06,0C,80,20,
26462018,0000019F,false,Rx,0,8,00,00,7D,01,00,6A,90,FE,
26463068,00000155,false,Rx,0,8,FF,8F,FF,94,FF,F8,03,FF,
26464465,00000157,false,Rx,0,8,D5,07,09,C4,FF,E0,00,80,
26465591,000004F7,false,Rx,0,8,00,19,0C,00,90,20,06,F0,
26465813,000001C7,false,Rx,0,4,AA,A0,FF,C0,00,00,00,00,
26466091,00000428,false,Rx,0,8,00,00,00,7F,00,00,80,00,
26466289,0000042F,false,Rx,0,2,00,20,00,00,00,00,00,00,
26467016,000001A1,false,Rx,0,8,00,43,A6,14,06,0C,80,20,
26470491,00000423,false,Rx,0,8,07,1E,00,01,B2,80,5D,C7,
26472283,0000019F,false,Rx,0,8,00,00,7D,06,00,6A,90,FE,
26473326,00000155,false,Rx,0,8,FF,8F,FF,94,FF,F8,03,FF,
26473333,00000424,false,Rx,0,8,11,40,FF,FF,7F,5E,AA,7F,
26473651,00000425,false,Rx,0,8,1D,FF,44,FF,FF,FF,FD,FF,
26474647,00000157,false,Rx,0,8,D5,57,09,C4,FF,E0,00,80,
26474662,00000426,false,Rx,0,8,00,08,02,00,59,5C,00,40,
26475778,000001C7,false,Rx,0,4,AA,A0,FF,C0,00,00,00,00,
26477094,000001A1,false,Rx,0,8,00,43,A6,14,06,0C,80,20,
26477389,00000445,false,Rx,0,7,80,DF,55,65,04,82,00,00,
26482062,0000019F,false,Rx,0,8,00,00,7D,0B,00,6A,90,FE,
26483136,00000155,false,Rx,0,8,FF,8F,FF,94,FF,F8,03,FF,
26484519,00000157,false,Rx,0,8,D5,A7,09,C4,FF,E0,00,80,
26485670,000001C7,false,Rx,0,4,AA,A0,FF,C0,00,00,00,00,
26487278,000001A1,false,Rx,0,8,00,43,A6,14,06,0C,80,20,
26490389,00000435,false,Rx,0,8,FF,FF,1E,A9,FF,FC,00,00,
26492283,0000019F,false,Rx,0,8,00,00,7D,00,00,6A,90,FE,
26492295,00000419,false,Rx,0,6,FF,FF,FC,FF,FE,00,00,00,
26493355,00000155,false,Rx,0,8,FF,8F,FF,94,FF,F8,03,FF,
26494685,00000157,false,Rx,0,8,D5,F7,09,C4,FF,E0,00,80,
26494690,00000436,false,Rx,0,6,80,18,76,CB,FF,DC,00,00,
26495805,000001C7,false,Rx,0,4,AA,A0,FF,C0,00,00,00,00,
26497190,000001A1,false,Rx,0,8,00,43,92,14,06,0C,80,20,
26502281,0000019F,false,Rx,0,8,00,00,7D,05,00,6A,90,FE,
26503357,00000155,false,Rx,0,8,FF,8F,FF,94,FF,F8,03,FF,
26504716,00000157,false,Rx,0,8,D5,47,09,C4,FF,E0,00,80,
26505580,000001C7,false,Rx,0,4,AA,A0,FF,C0,00,00,00,00,
26507173,000001A1,false,Rx,0,8,00,43,A6,14,06,0C,80,20,
26512175,0000019F,false,Rx,0,8,00,00,7D,0A,00,6A,90,FE,
26513354,00000155,false,Rx,0,8,FF,8F,FF,94,FF,F8,03,FF,
26514656,00000157,false,Rx,0,8,D5,97,09,C4,FF,E0,00,80,
26515629,000001C7,false,Rx,0,4,AA,A0,FF,C0,00,00,00,00,
26517250,000001A1,false,Rx,0,8,00,43,A6,14,06,0C,80,20,
26522289,0000019F,false,Rx,0,8,00,00,7D,0F,00,6A,90,FE,
26523386,00000155,false,Rx,0,8,FF,8F,FF,94,FF,F8,03,FF,
26524568,00000157,false,Rx,0,8,D5,E7,09,C4,FF,E0,00,80,
26525556,000001C7,false,Rx,0,4,AA,A0,FF,C0,00,00,00,00,
26527109,000001A1,false,Rx,0,8,00,43,92,14,06,0C,80,20,
26532078,0000019F,false,Rx,0,8,00,00,7D,04,00,6A,90,FE,
26533386,00000155,false,Rx,0,8,FF,8F,FF,94,FF,F8,03,FF,
26534760,00000157,false,Rx,0,8,D5,37,09,C4,FF,E0,00,80,
26535812,000001C7,false,Rx,0,4,AA,A0,FF,C0,00,00,00,00,
26537211,000001A1,false,Rx,0,8,00,43,92,14,06,0C,80,20,
26542078,0000019F,false,Rx,0,8,00,00,7D,09,00,6A,90,FE,
26542343,00000511,false,Rx,0,7,04,8F,6E,BD,85,2C,FF,00,
26543215,00000155,false,Rx,0,8,FF,8F,FF,94,FF,F8,03,FF,
26544616,00000157,false,Rx,0,8,D5,87,09,C4,FF,E0,00,80,
26545592,000001C7,false,Rx,0,4,AA,A0,FF,C0,00,00,00,00,
26547073,000001A1,false,Rx,0,8,00,43,92,14,06,0C,80,20,
26552072,0000019F,false,Rx,0,8,00,00,7D,0E,00,6A,90,FE,
26553197,00000155,false,Rx,0,8,FF,8F,FF,94,FF,F8,03,FF,
26554497,00000157,false,Rx,0,8,D5,D7,09,C4,FF,E0,00,80,
26555621,000001C7,false,Rx,0,4,AA,A0,FF,C0,00,00,00,00,
26557069,000001A1,false,Rx,0,8,00,43,A6,14,06,0C,80,20,
26562071,0000019F,false,Rx,0,8,00,00,7D,03,00,6A,90,FE,
26563115,00000155,false,Rx,0,8,FF,8F,FF,94,FF,F8,03,FF,
26563575,0000069F,false,Rx,0,4,71,30,28,2F,00,00,00,00,
26564546,00000157,false,Rx,0,8,D5,27,09,C4,FF,E0,00,80,
26565724,000004F7,false,Rx,0,8,00,19,0C,00,90,20,06,F0,
26565924,000001C7,false,Rx,0,4,AA,A0,FF,C0,00,00,00,00,
26566197,00000428,false,Rx,0,8,00,00,00,7F,00,00,80,00,
26566401,0000042F,false,Rx,0,2,00,20,00,00,00,00,00,00,
26567071,000001A1,false,Rx,0,8,00,43,92,14,06,0C,80,20,
26570372,00000423,false,Rx,0,8,07,1E,00,01,5D,80,B2,C8,
26572073,0000019F,false,Rx,0,8,00,00,7D,08,00,6A,90,FE,
26573118,00000155,false,Rx,0,8,FF,8F,FF,94,FF,F8,03,FF,
26573347,00000424,false,Rx,0,8,11,40,FF,FF,7F,5E,55,7F,
26573601,00000425,false,Rx,0,8,1D,FF,44,FF,FF,FF,FD,FF,
26574598,00000157,false,Rx,0,8,D5,77,09,C4,FF,E0,00,80,
26574846,00000426,false,Rx,0,8,00,08,02,00,59,5C,00,40,
26575644,000001C7,false,Rx,0,4,AA,A0,FF,C0,00,00,00,00,
26577070,000001A1,false,Rx,0,8,00,43,A6,14,06,0C,80,20,
26577371,00000445,false,Rx,0,7,80,DF,AA,65,04,82,00,00,
26582049,0000019F,false,Rx,0,8,00,00,7D,0D,00,6A,90,FE,
26583070,00000155,false,Rx,0,8,FF,8F,FF,94,FF,F8,03,FF,
26584468,00000157,false,Rx,0,8,D5,C7,09,C4,FF,E0,00,80,
26585593,000001C7,false,Rx,0,4,AA,A0,FF,C0,00,00,00,00,
26587017,000001A1,false,Rx,0,8,00,43,92,14,06,0C,80,20,
26590193,00000435,false,Rx,0,8,FF,FF,1E,A9,FF,FC,00,00,
26592043,0000019F,false,Rx,0,8,00,00,7D,02,00,6A,90,FE,
26592290,00000419,false,Rx,0,6,FF,FF,FC,FF,FE,00,00,00,
26593093,00000155,false,Rx,0,8,FF,8F,FF,94,FF,F8,03,FF,
26594511,00000157,false,Rx,0,8,D5,17,09,C4,FF,E0,00,80,
26594710,00000436,false,Rx,0,6,80,18,76,CB,FF,DC,00,00,
26595619,000001C7,false,Rx,0,4,AA,A0,FF,C0,00,00,00,00,
26597035,000001A1,false,Rx,0,8,00,43,A6,14,06,0C,80,20,
26602070,0000019F,false,Rx,0,8,00,00,7D,07,00,6A,90,FE,
26603144,00000155,false,Rx,0,8,FF,8F,FF,94,FF,F8,03,FF,
26604579,00000157,false,Rx,0,8,D5,67,09,C4,FF,E0,00,80,
26605638,000001C7,false,Rx,0,4,AA,A0,FF,C0,00,00,00,00,
26607035,000001A1,false,Rx,0,8,00,43,A6,14,06,0C,80,20,
26612097,0000019F,false,Rx,0,8,00,00,7D,0C,00,6A,90,FE,
26613246,00000155,false,Rx,0,8,FF,8F,FF,94,FF,F8,03,FF,
26614446,00000157,false,Rx,0,8,D5,B7,09,C4,FF,E0,00,80,
26615658,000001C7,false,Rx,0,4,AA,A0,FF,C0,00,00,00,00,
26617057,000001A1,false,Rx,0,8,00,43,A6,14,06,0C,80,20,
26622084,0000019F,false,Rx,0,8,00,00,7D,01,00,6A,90,FE,
26623183,00000155,false,Rx,0,8,FF,8F,FF,94,FF,F8,03,FF,
26624607,00000157,false,Rx,0,8,D5,07,09,C4,FF,E0,00,80,
26625670,000001C7,false,Rx,0,4,AA,A0,FF,C0,00,00,00,00,
26627062,000001A1,false,Rx,0,8,00,43,A6,14,06,0C,80,20,
26632052,0000019F,false,Rx,0,8,00,00,7D,06,00,6A,90,FE,
26633150,00000155,false,Rx,0,8,FF,8F,FF,94,FF,F8,03,FF,
26634573,00000157,false,Rx,0,8,D5,57,09,C4,FF,E0,00,80,
26635648,000001C7,false,Rx,0,4,AA,A0,FF,C0,00,00,00,00,
26637023,000001A1,false,Rx,0,8,00,43,92,14,06,0C,80,20,
26642049,0000019F,false,Rx,0,8,00,00,7D,0B,00,6A,90,FE,
26642320,00000511,false,Rx,0,7,04,CE,37,76,F0,39,E2,00,
26643123,00000155,false,Rx,0,8,FF,8F,FF,94,FF,F8,03,FF,
26644423,00000157,false,Rx,0,8,D5,A7,09,C4,FF,E0,00,80,
26645647,000001C7,false,Rx,0,4,AA,A0,FF,C0,00,00,00,00,
26647048,000001A1,false,Rx,0,8,00,43,A6,14,06,0C,80,20,
26652078,0000019F,false,Rx,0,8,00,00,7D,00,00,6A,90,FE,
26653146,00000155,false,Rx,0,8,FF,8F,FF,94,FF,F8,03,FF,
26654595,00000157,false,Rx,0,8,D5,F7,09,C4,FF,E0,00,80,
26655687,000001C7,false,Rx,0,4,AA,A0,FF,C0,00,00,00,00,
26657070,000001A1,false,Rx,0,8,00,43,A6,14,06,0C,80,20,
26662313,0000019F,false,Rx,0,8,00,00,7D,05,00,6A,90,FE,
26663338,00000155,false,Rx,0,8,FF,8F,FF,94,FF,F8,03,FF,
26664571,00000157,false,Rx,0,8,D5,47,09,C4,FF,E0,00,80,
26665774,000004F7,false,Rx,0,8,00,19,0C,00,90,20,06,F0,
26665996,000001C7,false,Rx,0,4,AA,A0,FF,C0,00,00,00,00,
26666288,00000428,false,Rx,0,8,00,00,00,7F,00,00,80,00,
26666431,0000042F,false,Rx,0,2,00,20,00,00,00,00,00,00,
26667068,000001A1,false,Rx,0,8,00,43,A6,14,06,0C,80,20,
26670243,00000423,false,Rx,0,8,07,1E,00,01,5D,80,B2,C7,
26672218,0000019F,false,Rx,0,8,00,00,7D,0A,00,6A,90,FE,
26673338,00000155,false,Rx,0,8,FF,8F,FF,94,FF,F8,03,FF,
26673346,00000424,false,Rx,0,8,11,40,FF,FF,7F,5E,55,7F,
26673630,00000425,false,Rx,0,8,1D,FF,44,FF,FF,FF,FD,FF,
26674565,00000157,false,Rx,0,8,D5,97,09,C4,FF,E0,00,80,
26674849,00000426,false,Rx,0,8,00,08,02,00,59,5C,00,40,
26675831,000001C7,false,Rx,0,4,AA,A0,FF,C0,00,00,00,00,
26677205,000001A1,false,Rx,0,8,00,43,A6,14,06,0C,80,20,
26677238,00000445,false,Rx,0,7,80,DF,AA,65,04,82,00,00,
26682118,0000019F,false,Rx,0,8,00,00,7D,0F,00,6A,90,FE,
26683228,00000155,false,Rx,0,8,FF,8F,FF,94,FF,F8,03,FF,
26684637,00000157,false,Rx,0,8,D5,E7,09,C4,FF,E0,00,80,
26685677,000001C7,false,Rx,0,4,AA,A0,FF,C0,00,00,00,00,
26687203,000001A1,false,Rx,0,8,00,43,A6,14,06,0C,80,20,
26690353,00000435,false,Rx,0,8,FF,FF,1E,A9,FF,FC,00,00,
26692206,0000019F,false,Rx,0,8,00,00,7D,04,00,6A,90,FE,
26692318,00000419,false,Rx,0,6,FF,FF,FC,FF,FE,00,00,00,
26693251,00000155,false,Rx,0,8,FF,8F,FF,94,FF,F8,03,FF,
26694628,00000157,false,Rx,0,8,D5,37,09,C4,FF,E0,00,80,
26694695,00000436,false,Rx,0,6,80,18,76,CB,FF,DC,00,00,
26695829,000001C7,false,Rx,0,4,AA,A0,FF,C0,00,00,00,00,
26697220,000001A1,false,Rx,0,8,00,43,92,14,06,0C,80,20,
26702306,0000019F,false,Rx,0,8,00,00,7D,09,00,6A,90,FE,
26703336,00000155,false,Rx,0,8,FF,8F,FF,94,FF,F8,03,FF,
26704687,00000157,false,Rx,0,8,D5,87,09,C4,FF,E0,00,80,
26705750,000001C7,false,Rx,0,4,AA,A0,FF,C0,00,00,00,00,
26707313,000001A1,false,Rx,0,8,00,43,BA,14,06,0C,80,20,
26712316,0000019F,false,Rx,0,8,00,00,7D,0E,00,6A,90,FE,
26713337,00000155,false,Rx,0,8,FF,8F,FF,94,FF,F8,03,FF,
26714862,00000157,false,Rx,0,8,D5,D7,09,C4,FF,E0,00,80,
26715961,000001C7,false,Rx,0,4,AA,A0,FF,C0,00,00,00,00,
26717152,000001A1,false,Rx,0,8,00,43,A6,14,06,0C,80,20,
26722309,0000019F,false,Rx,0,8,00,00,7D,03,00,6A,90,FE,
26723388,00000155,false,Rx,0,8,FF,8F,FF,94,FF,F8,03,FF,
26724720,00000157,false,Rx,0,8,D5,27,09,C4,FF,E0,00,80,
26725781,000001C7,false,Rx,0,4,AA,A0,FF,C0,00,00,00,00,
26727311,000001A1,false,Rx,0,8,00,43,A6,14,06,0C,80,20,
26732218,0000019F,false,Rx,0,8,00,00,7D,08,00,6A,90,FE,
26733322,00000155,false,Rx,0,8,FF,8F,FF,94,FF,F8,03,FF,
26734736,00000157,false,Rx,0,8,D5,77,09,C4,FF,E0,00,80,
26735987,000001C7,false,Rx,0,4,AA,A0,FF,C0,00,00,00,00,
26737314,000001A1,false,Rx,0,8,00,43,A6,14,06,0C,80,20,
26742325,0000019F,false,Rx,0,8,00,00,7D,0D,00,6A,90,FE,
26742335,00000511,false,Rx,0,7,04,0D,00,2F,5B,46,C5,00,
26743414,00000155,false,Rx,0,8,FF,8F,FF,94,FF,F8,03,FF,
26744796,00000157,false,Rx,0,8,D5,C7,09,C4,FF,E0,00,80,
26745963,000001C7,false,Rx,0,4,AA,A0,FF,C0,00,00,00,00,
26747210,000001A1,false,Rx,0,8,00,43,A6,14,06,0C,80,20,
26752154,0000019F,false,Rx,0,8,00,00,7D,02,00,6A,90,FE,
26753362,00000155,false,Rx,0,8,FF,8F,FF,94,FF,F8,03,FF,
26754738,00000157,false,Rx,0,8,D5,17,09,C4,FF,E0,00,80,
26756000,000001C7,false,Rx,0,4,AA,A0,FF,C0,00,00,00,00,
26757315,000001A1,false,Rx,0,8,00,43,A6,14,06,0C,80,20,
26762346,0000019F,false,Rx,0,8,00,00,7D,07,00,6A,90,FE,
26763246,00000155,false,Rx,0,8,FF,8F,FF,94,FF,F8,03,FF,
26764811,00000157,false,Rx,0,8,D5,67,09,C4,FF,E0,00,80,
26765984,000004F7,false,Rx,0,8,00,19,0C,00,90,20,06,F0,
26766025,000001C7,false,Rx,0,4,AA,A0,FF,C0,00,00,00,00,
26766512,00000428,false,Rx,0,8,00,00,00,7F,00,00,80,00,
26766521,0000042F,false,Rx,0,2,00,20,00,00,00,00,00,00,
26767312,000001A1,false,Rx,0,8,00,43,A6,14,06,0C,80,20,
26770536,00000423,false,Rx,0,8,07,1E,00,01,5D,80,B2,C7,
26772214,0000019F,false,Rx,0,8,00,00,7D,0C,00,6A,90,FE,
26773339,00000155,false,Rx,0,8,FF,8F,FF,94,FF,F8,03,FF,
26773348,00000424,false,Rx,0,8,11,40,FF,FF,7F,5E,55,7F,
26773638,00000425,false,Rx,0,8,1D,FF,44,FF,FF,FF,FD,FF,
26774685,00000157,false,Rx,0,8,D5,B7,09,C4,FF,E0,00,80,
26774695,00000426,false,Rx,0,8,00,08,02,00,59,5C,00,40,
26775985,000001C7,false,Rx,0,4,AA,A0,FF,C0,00,00,00,00,
26777312,000001A1,false,Rx,0,8,00,43,A6,14,06,0C,80,20,
26777321,00000445,false,Rx,0,7,80,DF,AA,65,04,82,00,00,
26782337,0000019F,false,Rx,0,8,00,00,7D,01,00,6A,90,FE,
26783337,00000155,false,Rx,0,8,FF,8F,FF,94,FF,F8,03,FF,
26784700,00000157,false,Rx,0,8,D5,07,09,C4,FF,E0,00,80,
26785953,000001C7,false,Rx,0,4,AA,A0,FF,C0,00,00,00,00,
26787137,000001A1,false,Rx,0,8,00,43,A6,14,06,0C,80,20,
26790162,00000435,false,Rx,0,8,FF,FF,1E,A9,FF,FC,00,00,
26792077,0000019F,false,Rx,0,8,00,00,7D,06,00,6A,90,FE,
26792340,00000419,false,Rx,0,6,FF,FF,FC,FF,FE,00,00,00,
26793104,00000155,false,Rx,0,8,FF,8F,FF,94,FF,F8,03,FF,
26794428,00000157,false,Rx,0,8,D5,57,09,C4,FF,E0,00,80,
26794627,00000436,false,Rx,0,6,80,18,76,CB,FF,DC,00,00,
26795753,000001C7,false,Rx,0,4,AA,A0,FF,C0,00,00,00,00,
26797050,000001A1,false,Rx,0,8,00,43,A6,14,06,0C,80,20,
26802077,0000019F,false,Rx,0,8,00,00,7D,0B,00,6A,90,FE,
26803075,00000155,false,Rx,0,8,FF,8F,FF,94,FF,F8,03,FF,
26804501,00000157,false,Rx,0,8,D5,A7,09,C4,FF,E0,00,80,
26805751,000001C7,false,Rx,0,4,AA,A0,FF,C0,00,00,00,00,
26807051,000001A1,false,Rx,0,8,00,43,A6,14,06,0C,80,20,
26812084,0000019F,false,Rx,0,8,00,00,7D,00,00,6A,90,FE,
26813151,00000155,false,Rx,0,8,FF,8F,FF,94,FF,F8,03,FF,
26814601,00000157,false,Rx,0,8,D5,F7,09,C4,FF,E0,00,80,
26815750,000001C7,false,Rx,0,4,AA,A0,FF,C0,00,00,00,00,
26817050,000001A1,false,Rx,0,8,00,43,92,14,06,0C,80,20,
26822077,0000019F,false,Rx,0,8,00,00,7D,05,00,6A,90,FE,
26823150,00000155,false,Rx,0,8,FF,8F,FF,94,FF,F8,03,FF,
26824450,00000157,false,Rx,0,8,D5,47,09,C4,FF,E0,00,80,
26825776,000001C7,false,Rx,0,4,AA,A0,FF,C0,00,00,00,00,
26827050,000001A1,false,Rx,0,8,00,43,A6,14,06,0C,80,20,
26832079,0000019F,false,Rx,0,8,00,00,7D,0A,00,6A,90,FE,
26833119,00000155,false,Rx,0,8,FF,8F,FF,94,FF,F8,03,FF,
26834395,00000157,false,Rx,0,8,D5,97,09,C4,FF,E0,00,80,
26835769,000001C7,false,Rx,0,4,AA,A0,FF,C0,00,00,00,00,
26837085,000001A1,false,Rx,0,8,00,43,A6,14,06,0C,80,20,
26842112,0000019F,false,Rx,0,8,00,00,7D,0F,00,6A,90,FE,
26842380,00000511,false,Rx,0,7,04,4C,C9,E8,C6,53,A8,00,
26843185,00000155,false,Rx,0,8,FF,8F,FF,94,FF,F8,03,FF,
26844434,00000157,false,Rx,0,8,D5,E7,09,C4,FF,E0,00,80,
26845808,000001C7,false,Rx,0,4,AA,A0,FF,C0,00,00,00,00,
26847110,000001A1,false,Rx,0,8,00,43,A6,14,06,0C,80,20,
26852080,0000019F,false,Rx,0,8,00,00,7D,04,00,6A,90,FE,
26853097,00000155,false,Rx,0,8,FF,8F,FF,94,FF,F8,03,FF,
26854445,00000157,false,Rx,0,8,D5,37,09,C4,FF,E0,00,80,
26855772,000001C7,false,Rx,0,4,AA,A0,FF,C0,00,00,00,00,
26856977,000001A1,false,Rx,0,8,00,43,A6,14,06,0C,80,20,
26862072,0000019F,false,Rx,0,8,00,00,7D,09,00,6A,90,FE,
26863072,00000155,false,Rx,0,8,FF,8F,FF,94,FF,F8,03,FF,
26864545,00000157,false,Rx,0,8,D5,87,09,C4,FF,E0,00,80,
26865870,000004F7,false,Rx,0,8,00,19,0C,00,90,20,06,F0,
26866095,000001C7,false,Rx,0,4,AA,A0,FF,C0,00,00,00,00,
26866368,00000428,false,Rx,0,8,00,00,00,7F,00,00,80,00,
26866566,0000042F,false,Rx,0,2,00,20,00,00,00,00,00,00,
26867020,000001A1,false,Rx,0,8,00,43,A6,14,06,0C,80,20,
26870245,00000423,false,Rx,0,8,07,1E,00,01,5D,80,B2,C7,
26872021,0000019F,false,Rx,0,8,00,00,7D,0E,00,6A,90,FE,
26873071,00000155,false,Rx,0,8,FF,8F,FF,94,FF,F8,03,FF,
26873293,00000424,false,Rx,0,8,11,40,FF,FF,7F,5E,55,7F,
26873541,00000425,false,Rx,0,8,1D,FF,44,FF,FF,FF,FD,FF,
26874420,00000157,false,Rx,0,8,D5,D7,09,C4,FF,E0,00,80,
26874666,00000426,false,Rx,0,8,00,08,02,00,59,5C,00,40,
26875795,000001C7,false,Rx,0,4,AA,A0,FF,C0,00,00,00,00,
26877020,000001A1,false,Rx,0,8,00,43,A6,14,06,0C,80,20,
26877267,00000445,false,Rx,0,7,80,DF,AA,65,04,82,00,00,
26882021,0000019F,false,Rx,0,8,00,00,7D,03,00,6A,90,FE,
26883070,00000155,false,Rx,0,8,FF,8F,FF,94,FF,F8,03,FF,
26884446,00000157,false,Rx,0,8,D5,27,09,C4,FF,E0,00,80,
26885822,000001C7,false,Rx,0,4,AA,A0,FF,C0,00,00,00,00,
26887020,000001A1,false,Rx,0,8,00,43,A6,14,06,0C,80,20,
26890299,00000435,false,Rx,0,8,FF,FF,1E,A9,2A,FC,00,00,
26892028,0000019F,false,Rx,0,8,00,00,7D,08,00,6A,90,FE,
26892245,00000419,false,Rx,0,6,54,00,28,00,30,00,00,00,
26893074,00000155,false,Rx,0,8,FF,8F,FF,94,FF,F8,03,FF,
26894499,00000157,false,Rx,0,8,D5,77,09,C4,FF,E0,00,80,
26894693,00000436,false,Rx,0,6,80,18,76,CB,FF,DC,00,00,
26895824,000001C7,false,Rx,0,4,AA,A0,FF,C0,00,00,00,00,
26897024,000001A1,false,Rx,0,8,00,43,A6,14,06,0C,80,20,
26902024,0000019F,false,Rx,0,8,00,00,7D,0D,00,6A,90,FE,
26903074,00000155,false,Rx,0,8,FF,8F,FF,94,FF,F8,03,FF,
26904549,00000157,false,Rx,0,8,D5,C7,09,C4,FF,E0,00,80,
26905824,000001C7,false,Rx,0,4,AA,A0,FF,C0,00,00,00,00,
26907031,000001A1,false,Rx,0,8,00,43,A6,14,06,0C,80,20,
26912055,0000019F,false,Rx,0,8,00,00,7D,02,00,6A,90,FE,
26913202,00000155,false,Rx,0,8,FF,87,CF,94,FF,F8,03,FF,
26914484,00000157,false,Rx,0,8,D5,17,09,C4,FF,E0,00,80,
26915890,000001C7,false,Rx,0,4,AA,A0,FF,C0,00,00,00,00,
26917241,000001A1,false,Rx,0,8,00,43,A6,14,06,0C,80,20,
26922237,0000019F,false,Rx,0,8,00,00,7D,07,00,6A,90,FE,
26923341,00000155,false,Rx,0,8,FF,87,CF,94,FF,F8,02,B7,
26924793,00000157,false,Rx,0,8,D5,67,09,C4,FF,E0,00,80,
26926063,000001C7,false,Rx,0,4,AA,A0,FF,C0,00,00,00,00,
26927238,000001A1,false,Rx,0,8,00,43,A6,14,06,0C,80,20,
26932066,0000019F,false,Rx,0,8,00,00,7D,0C,00,6A,90,FE,
26933160,00000155,false,Rx,0,8,3E,87,D0,94,59,A8,02,B7,
26934470,00000157,false,Rx,0,8,D5,B7,09,C4,FF,E0,00,80,
26935887,000001C7,false,Rx,0,4,AA,A0,FF,C0,00,00,00,00,
26937058,000001A1,false,Rx,0,8,00,43,A6,14,06,0C,80,20,
26942178,0000019F,false,Rx,0,8,00,00,7D,01,00,6A,90,FE,
26942265,00000511,false,Rx,0,7,04,8B,92,A1,31,60,8B,00,
26943329,00000155,false,Rx,0,8,3E,87,D0,94,59,A8,02,B7,
26944630,00000157,false,Rx,0,8,D5,07,09,C4,FF,E0,00,80,
26946062,000001C7,false,Rx,0,4,AA,A0,FF,C0,00,00,00,00,
26947237,000001A1,false,Rx,0,8,00,43,A6,14,06,0C,80,20,
26952177,0000019F,false,Rx,0,8,00,00,7D,06,00,6A,90,FE,
26953302,00000155,false,Rx,0,8,3E,87,D0,94,59,A8,02,B7,
26954636,00000157,false,Rx,0,8,D5,57,09,C4,FF,E0,00,80,
26956028,000001C7,false,Rx,0,4,AA,A0,FF,C0,00,00,00,00,
26957176,000001A1,false,Rx,0,8,00,43,A6,14,06,0C,80,20,
26962239,0000019F,false,Rx,0,8,00,00,7D,0B,00,6A,90,FE,
26963286,00000155,false,Rx,0,8,3E,87,D0,94,59,A8,02,B7,
26964765,00000157,false,Rx,0,8,D5,A7,09,C4,FF,E0,00,80,
26966162,000004F7,false,Rx,0,8,00,19,0C,00,90,20,06,F0,
26966169,000001C7,false,Rx,0,4,AA,A0,FF,C0,00,00,00,00,
26966425,00000428,false,Rx,0,8,00,00,00,7F,00,00,80,00,
26966531,0000042F,false,Rx,0,2,00,20,00,00,00,00,00,00,
26967239,000001A1,false,Rx,0,8,00,43,A6,14,06,0C,80,20,
26970311,00000423,false,Rx,0,8,07,1E,00,01,5D,80,B2,C7,
26972093,0000019F,false,Rx,0,8,00,00,7D,00,00,6A,90,FE,
26973314,00000155,false,Rx,0,8,3E,87,D0,94,59,A8,02,B7,
26973321,00000424,false,Rx,0,8,11,40,56,C0,2D,5E,55,2E,
26973619,00000425,false,Rx,0,8,1C,69,44,FF,FE,0C,B1,05,
26974794,00000157,false,Rx,0,8,D5,F7,09,C4,FF,E0,00,80,
26974829,00000426,false,Rx,0,8,00,08,02,00,59,5C,00,40,
26976087,000001C7,false,Rx,0,4,AA,A0,FF,C0,00,00,00,00,
26977232,000001A1,false,Rx,0,8,00,43,A6,14,06,0C,80,20,
26977269,00000445,false,Rx,0,7,80,DF,AA,65,04,82,00,00,
26982237,0000019F,false,Rx,0,8,00,00,7D,05,00,6A,90,FE,
26983287,00000155,false,Rx,0,8,3E,87,D0,94,59,A8,02,B7,
26984612,00000157,false,Rx,0,8,D5,47,09,C4,FF,E0,00,80,
26986091,000001C7,false,Rx,0,4,AA,A0,FF,C0,00,00,00,00,
26987237,000001A1,false,Rx,0,8,00,43,A6,14,06,0C,80,20,
26990408,00000435,false,Rx,0,8,FF,FF,1E,A9,2A,FC,00,00,
26992241,0000019F,false,Rx,0,8,00,00,7D,0A,00,6A,90,FE,
26992249,00000419,false,Rx,0,6,54,00,28,00,30,00,00,00,
26993313,00000155,false,Rx,0,8,3E,87,D0,94,59,A8,02,B7,
26994729,00000157,false,Rx,0,8,D5,97,09,C4,FF,E0,00,80,
26994792,00000436,false,Rx,0,6,80,18,76,CB,FF,DC,00,00,
26996054,000001C7,false,Rx,0,4,AA,A0,FF,C0,00,00,00,00,
26997239,000001A1,false,Rx,0,8,00,43,A6,14,06,0C,80,20,
27002236,0000019F,false,Rx,0,8,00,00,7D,0F,00,6A,90,FE,
27003291,00000155,false,Rx,0,8,3E,87,D0,94,59,A8,02,B7,
27004688,00000157,false,Rx,0,8,D5,E7,09,C4,FF,E0,00,80,
27006060,000001C7,false,Rx,0,4,AA,A0,FF,C0,00,00,00,00,
27007238,000001A1,false,Rx,0,8,00,43,A6,14,06,0C,80,20,
27012237,0000019F,false,Rx,0,8,00,00,7D,04,00,6A,90,FE,
27013413,00000155,false,Rx,0,8,3E,87,D0,94,59,A8,02,B7,
27014719,00000157,false,Rx,0,8,D5,37,09,C4,FF,E0,00,80,
27016016,000001C7,false,Rx,0,4,AA,A0,FF,C0,00,00,00,00,
27017263,000001A1,false,Rx,0,8,00,43,A6,14,06,0C,80,20,
27022236,0000019F,false,Rx,0,8,00,00,7D,09,00,6A,90,FE,
27023362,00000155,false,Rx,0,8,3E,87,D0,94,59,A8,02,B7,
27024667,00000157,false,Rx,0,8,D5,87,09,C4,FF,E0,00,80,
27025862,000001C7,false,Rx,0,4,AA,A0,FF,C0,00,00,00,00,
27027238,000001A1,false,Rx,0,8,00,43,A6,14,06,0C,80,20,
27032236,0000019F,false,Rx,0,8,00,00,7D,0E,00,6A,90,FE,
27033365,00000155,false,Rx,0,8,3E,87,D0,94,59,A8,02,B7,
27034615,00000157,false,Rx,0,8,D5,D7,09,C4,FF,E0,00,80,
27036066,000001C7,false,Rx,0,4,AA,A0,FF,C0,00,00,00,00,
27037147,000001A1,false,Rx,0,8,00,43,BA,14,06,0C,80,20,
27042033,0000019F,false,Rx,0,8,00,00,7D,03,00,6A,90,FE,
27042269,00000511,false,Rx,0,7,04,CA,5B,5A,9C,6D,6E,00,
27043149,00000155,false,Rx,0,8,3E,87,D0,94,59,A8,02,B7,
27044498,00000157,false,Rx,0,8,D5,27,09,C4,FF,E0,00,80,
27045847,000001C7,false,Rx,0,4,AA,A0,FF,C0,00,00,00,00,
27047021,000001A1,false,Rx,0,8,00,43,BA,14,06,0C,80,20,
27052022,0000019F,false,Rx,0,8,00,00,7D,08,00,6A,90,FE,
27053096,00000155,false,Rx,0,8,3E,87,D0,94,59,A8,02,B7,
27054472,00000157,false,Rx,0,8,D5,77,09,C4,FF,E0,00,80,
27055872,000001C7,false,Rx,0,4,AA,A0,FF,C0,00,00,00,00,
27057021,000001A1,false,Rx,0,8,00,43,BA,14,06,0C,80,20,
27062022,0000019F,false,Rx,0,8,00,00,7D,0D,00,6A,90,FE,
27063072,00000155,false,Rx,0,8,3E,87,CF,94,59,A8,02,B7,
27064471,00000157,false,Rx,0,8,D5,C7,09,C4,FF,E0,00,80,
27065921,000004F7,false,Rx,0,8,00,19,0C,00,90,20,06,F0,
27066121,000001C7,false,Rx,0,4,AA,A0,FF,C0,00,00,00,00,
27066419,00000428,false,Rx,0,8,00,00,00,7F,00,00,80,00,
27066616,0000042F,false,Rx,0,2,00,20,00,00,00,00,00,00,
27067021,000001A1,false,Rx,0,8,00,43,BA,14,06,0C,80,20,
27070146,00000423,false,Rx,0,8,07,1E,00,01,B2,80,5D,C7,
27072021,0000019F,false,Rx,0,8,00,00,7D,02,00,6A,90,FE,
27073071,00000155,false,Rx,0,8,3E,87,D0,94,59,A8,02,B7,
27073293,00000424,false,Rx,0,8,11,40,56,C0,2D,5E,AA,2E,
27073540,00000425,false,Rx,0,8,1C,69,44,FF,FE,0C,B1,05,
27074546,00000157,false,Rx,0,8,D5,17,09,C4,FF,E0,00,80,
27074818,00000426,false,Rx,0,8,00,08,02,00,59,5C,00,40,
27075872,000001C7,false,Rx,0,4,AA,A0,FF,C0,00,00,00,00,
27077021,000001A1,false,Rx,0,8,00,43,A6,14,06,0C,80,20,
27077270,00000445,false,Rx,0,7,80,DF,55,65,04,82,00,00,
27082024,0000019F,false,Rx,0,8,00,00,7D,07,00,6A,90,FE,
27083074,00000155,false,Rx,0,8,3E,87,D0,94,59,A8,02,B7,
27084523,00000157,false,Rx,0,8,D5,67,09,C4,FF,E0,00,80,
27085872,000001C7,false,Rx,0,4,AA,A0,FF,C0,00,00,00,00,
27087020,000001A1,false,Rx,0,8,00,43,BA,14,06,0C,80,20,
27090303,00000435,false,Rx,0,8,FF,FF,1E,A9,2A,FC,00,00,
27092024,0000019F,false,Rx,0,8,00,00,7D,0C,00,6A,90,FE,
27092270,00000419,false,Rx,0,6,54,00,28,00,30,00,00,00,
27093077,00000155,false,Rx,0,8,3E,87,D0,94,59,A8,02,B7,
27094449,00000157,false,Rx,0,8,D5,B7,09,C4,FF,E0,00,80,
27094646,00000436,false,Rx,0,6,80,18,76,CB,FF,DC,00,00,
27095899,000001C7,false,Rx,0,4,AA,A0,FF,C0,00,00,00,00,
27097023,000001A1,false,Rx,0,8,00,43,A6,14,06,0C,80,20,
27102030,0000019F,false,Rx,0,8,00,00,7D,01,00,6A,90,FE,
27103071,00000155,false,Rx,0,8,3E,87,D0,94,59,A8,02,B7,
27104396,00000157,false,Rx,0,8,D5,07,09,C4,FF,E0,00,80,
27105899,000001C7,false,Rx,0,4,AA,A0,FF,C0,00,00,00,00,
27107022,000001A1,false,Rx,0,8,00,43,A6,14,06,0C,80,20,
27112025,0000019F,false,Rx,0,8,00,00,7D,06,00,6A,90,FE,
27113170,00000155,false,Rx,0,8,3E,87,D0,94,59,A8,02,B7,
27114397,00000157,false,Rx,0,8,D5,57,09,C4,FF,E0,00,80,
27115897,000001C7,false,Rx,0,4,AA,A0,FF,C0,00,00,00,00,
27117020,000001A1,false,Rx,0,8,00,43,A6,14,06,0C,80,20,
27122021,0000019F,false,Rx,0,8,00,00,7D,0B,00,6A,90,FE,
27123149,00000155,false,Rx,0,8,3E,87,D0,94,59,A8,02,B7,
27124547,00000157,false,Rx,0,8,D5,A7,09,C4,FF,E0,00,80,
27125896,000001C7,false,Rx,0,4,AA,A0,FF,C0,00,00,00,00,
27127020,000001A1,false,Rx,0,8,00,43,BA,14,06,0C,80,20,
27132029,0000019F,false,Rx,0,8,00,00,7D,00,00,6A,90,FE,
27133149,00000155,false,Rx,0,8,3E,87,D0,94,59,A8,02,B7,
27134477,00000157,false,Rx,0,8,D5,F7,09,C4,FF,E0,00,80,
27135923,000001C7,false,Rx,0,4,AA,A0,FF,C0,00,00,00,00,
27137023,000001A1,false,Rx,0,8,00,43,A6,14,06,0C,80,20,
27142026,0000019F,false,Rx,0,8,00,00,7D,05,00,6A,90,FE,
27142294,00000511,false,Rx,0,7,04,09,24,13,07,7A,51,00,
27143149,00000155,false,Rx,0,8,3E,87,D0,94,59,A8,02,B7,
27144550,00000157,false,Rx,0,8,D5,47,09,C4,FF,E0,00,80,
27145927,000001C7,false,Rx,0,4,AA,A0,FF,C0,00,00,00,00,
27147024,000001A1,false,Rx,0,8,00,43,BA,14,06,0C,80,20,
27152024,0000019F,false,Rx,0,8,00,00,7D,0A,00,6A,90,FE,
27153125,00000155,false,Rx,0,8,3E,87,D0,94,59,A8,02,B7,
27154424,00000157,false,Rx,0,8,D5,97,09,C4,FF,E0,00,80,
27155965,000001C7,false,Rx,0,4,AA,A0,FF,C0,00,00,00,00,
27157060,000001A1,false,Rx,0,8,00,43,BA,14,06,0C,80,20,
27162069,0000019F,false,Rx,0,8,00,00,7D,0F,00,6A,90,FE,
27163151,00000155,false,Rx,0,8,3E,87,D0,94,59,A8,02,B7,
27164637,00000157,false,Rx,0,8,D5,E7,09,C4,FF,E0,00,80,
27166114,000004F7,false,Rx,0,8,00,19,0C,00,90,20,06,F0,
27166185,000001C7,false,Rx,0,4,AA,A0,FF,C0,00,00,00,00,
27166586,00000428,false,Rx,0,8,00,00,00,7F,00,00,80,00,
27166689,0000042F,false,Rx,0,2,00,20,00,00,00,00,00,00,
27167094,000001A1,false,Rx,0,8,00,43,A6,14,06,0C,80,20,
27170351,00000423,false,Rx,0,8,07,1E,00,01,B2,80,5D,C7,
27172069,0000019F,false,Rx,0,8,00,00,7D,04,00,6A,90,FE,
27173120,00000155,false,Rx,0,8,3E,87,D0,94,59,A8,02,B7,
27173346,00000424,false,Rx,0,8,11,40,56,C0,2D,5E,AA,2E,
27173580,00000425,false,Rx,0,8,1C,69,44,FF,FE,0C,B1,05,
27174545,00000157,false,Rx,0,8,D5,37,09,C4,FF,E0,00,80,
27174798,00000426,false,Rx,0,8,00,08,02,00,59,5C,00,40,
27176113,000001C7,false,Rx,0,4,AA,A0,FF,C0,00,00,00,00,
27177187,000001A1,false,Rx,0,8,00,43,BA,14,06,0C,80,20,
27177238,00000445,false,Rx,0,7,80,DF,55,65,04,82,00,00,
27182181,0000019F,false,Rx,0,8,00,00,7D,09,00,6A,90,FE,
27183222,00000155,false,Rx,0,8,3E,87,D0,94,59,A8,02,B7,
27184556,00000157,false,Rx,0,8,D5,87,09,C4,FF,E0,00,80,
27186104,000001C7,false,Rx,0,4,AA,A0,FF,C0,00,00,00,00,
27187184,000001A1,false,Rx,0,8,00,43,BA,14,06,0C,80,20,
27190478,00000435,false,Rx,0,8,FF,FF,1E,A9,2A,00,00,00,
27192290,0000019F,false,Rx,0,8,00,00,7D,0E,00,6A,90,FE,
27192297,00000419,false,Rx,0,6,54,00,28,00,30,00,00,00,
27193230,00000155,false,Rx,0,8,3E,87,D0,94,59,A8,02,B7,
27194679,00000157,false,Rx,0,8,D5,D7,09,C4,FF,E0,00,80,
27194714,00000436,false,Rx,0,6,80,18,76,CB,FF,DC,00,00,
27196015,000001C7,false,Rx,0,4,AA,A0,FF,C0,00,00,00,00,
27197066,000001A1,false,Rx,0,8,00,43,BA,14,06,0C,80,20,
27202060,0000019F,false,Rx,0,8,00,00,7D,03,00,6A,90,FE,
27203335,00000155,false,Rx,0,8,3E,87,D0,94,59,A8,02,B7,
27204749,00000157,false,Rx,0,8,D5,27,09,C4,FF,E0,00,80,
27206211,000001C7,false,Rx,0,4,AA,A0,FF,C0,00,00,00,00,
27207287,000001A1,false,Rx,0,8,00,43,BA,14,06,0C,80,20,
27212294,0000019F,false,Rx,0,8,00,00,7D,08,00,6A,90,FE,
27213670,00000155,false,Rx,0,8,3E,87,D0,94,59,A8,02,B7,
27214839,00000157,false,Rx,0,8,D5,77,09,C4,FF,E0,00,80,
27216215,000001C7,false,Rx,0,4,AA,A0,FF,C0,00,00,00,00,
27217192,000001A1,false,Rx,0,8,00,43,BA,14,06,0C,80,20,
27222287,0000019F,false,Rx,0,8,00,00,7D,0D,00,6A,90,FE,
27223286,00000155,false,Rx,0,8,3E,87,D0,94,59,A8,02,B7,
27224417,00000157,false,Rx,0,8,D5,C7,09,C4,FF,E0,00,80,
27226238,000001C7,false,Rx,0,4,AA,A0,FF,C0,00,00,00,00,
27227290,000001A1,false,Rx,0,8,00,43,BA,14,06,0C,80,20,
27232222,0000019F,false,Rx,0,8,00,00,7D,02,00,6A,90,FE,
27233385,00000155,false,Rx,0,8,3E,87,D0,94,59,A8,02,B7,
27234421,00000157,false,Rx,0,8,D5,17,09,C4,FF,E0,00,80,
27235991,000001C7,false,Rx,0,4,AA,A0,FF,C0,00,00,00,00,
27237174,000001A1,false,Rx,0,8,00,43,BA,14,06,0C,80,20,
27242280,0000019F,false,Rx,0,8,00,00,7D,07,00,6A,90,FE,
27242288,00000511,false,Rx,0,7,04,48,ED,CC,72,87,34,00,
27243406,00000155,false,Rx,0,8,3E,87,D0,94,59,A8,02,B7,
27244662,00000157,false,Rx,0,8,D5,67,09,C4,FF,E0,00,80,
27246236,000001C7,false,Rx,0,4,AA,A0,FF,C0,00,00,00,00,
27247288,000001A1,false,Rx,0,8,00,43,A6,14,06,0C,80,20,
27252290,0000019F,false,Rx,0,8,00,00,7D,0C,00,6A,90,FE,
27253263,00000155,false,Rx,0,8,3E,87,D0,94,59,A8,02,B7,
27254664,00000157,false,Rx,0,8,D5,B7,09,C4,FF,E0,00,80,
27256193,000001C7,false,Rx,0,4,AA,A0,FF,C0,00,00,00,00,
27257299,000001A1,false,Rx,0,8,00,43,A6,14,06,0C,80,20,
27262308,0000019F,false,Rx,0,8,00,00,7D,01,00,6A,90,FE,
27263340,00000155,false,Rx,0,8,3E,87,D0,94,59,A8,02,B7,
27264787,00000157,false,Rx,0,8,D5,07,09,C4,FF,E0,00,80,
27266338,000004F7,false,Rx,0,8,00,19,0C,00,90,20,06,F0,
27266347,000001C7,false,Rx,0,4,AA,A0,FF,C0,00,00,00,00,
27266654,00000428,false,Rx,0,8,00,00,00,7F,00,00,80,00,
27266806,0000042F,false,Rx,0,2,00,20,00,00,00,00,00,00,
27267227,000001A1,false,Rx,0,8,00,43,BA,14,06,0C,80,20,
27270441,00000423,false,Rx,0,8,07,1E,00,01,B2,80,5D,C7,
27272317,0000019F,false,Rx,0,8,00,00,7D,06,00,6A,90,FE,
27273340,00000155,false,Rx,0,8,3E,87,D0,94,59,A8,02,B7,
27273349,00000424,false,Rx,0,8,11,40,56,C0,2D,5E,AA,2E,
27273571,00000425,false,Rx,0,8,1C,69,44,9C,42,0C,B1,05,
27274711,00000157,false,Rx,0,8,D5,57,09,C4,FF,E0,00,80,
27274720,00000426,false,Rx,0,8,00,08,02,00,59,5C,00,40,
27276103,000001C7,false,Rx,0,4,AA,A0,FF,C0,00,00,00,00,
27277287,000001A1,false,Rx,0,8,00,43,BA,14,06,0C,80,20,
27277296,00000445,false,Rx,0,7,80,DF,55,65,04,82,00,00,
27282310,0000019F,false,Rx,0,8,00,00,7D,0B,00,6A,90,FE,
27283337,00000155,false,Rx,0,8,3E,87,D0,94,59,A8,02,B7,
27284738,00000157,false,Rx,0,8,D5,A7,09,C4,FF,E0,00,80,
27286190,000001C7,false,Rx,0,4,AA,A0,FF,C0,00,00,00,00,
27287211,000001A1,false,Rx,0,8,00,43,BA,14,06,0C,80,20,
27290165,00000435,false,Rx,0,8,FF,FF,1E,A9,2A,00,00,00,
27292059,0000019F,false,Rx,0,8,00,00,7D,00,00,6A,90,FE,
27292304,00000419,false,Rx,0,6,54,00,28,00,30,00,00,00,
27293080,00000155,false,Rx,0,8,3E,87,D0,94,59,A8,02,B7,
27294403,00000157,false,Rx,0,8,D5,F7,09,C4,FF,E0,00,80,
27294604,00000436,false,Rx,0,6,80,18,76,CB,FF,DC,00,00,
27296027,000001C7,false,Rx,0,4,AA,A0,FF,C0,00,00,00,00,
27297052,000001A1,false,Rx,0,8,00,43,BA,14,06,0C,80,20,
27302053,0000019F,false,Rx,0,8,00,00,7D,05,00,6A,90,FE,
27303078,00000155,false,Rx,0,8,3E,87,D0,94,59,A8,02,B7,
27304552,00000157,false,Rx,0,8,D5,47,09,C4,FF,E0,00,80,
27306027,000001C7,false,Rx,0,4,AA,A0,FF,C0,00,00,00,00,
27307052,000001A1,false,Rx,0,8,00,43,BA,14,06,0C,80,20,
27312052,0000019F,false,Rx,0,8,00,00,7D,0A,00,6A,90,FE,
27313227,00000155,false,Rx,0,8,3E,87,D0,94,59,A8,02,B7,
27314577,00000157,false,Rx,0,8,D5,97,09,C4,FF,E0,00,80,
27316027,000001C7,false,Rx,0,4,AA,A0,FF,C0,00,00,00,00,
27317053,000001A1,false,Rx,0,8,00,43,BA,14,06,0C,80,20,
27322028,0000019F,false,Rx,0,8,00,00,7D,0F,00,6A,90,FE,
27323102,00000155,false,Rx,0,8,3E,87,D0,94,59,A8,02,B7,
27324527,00000157,false,Rx,0,8,D5,E7,09,C4,FF,E0,00,80,
27326027,000001C7,false,Rx,0,4,AA,A0,FF,C0,00,00,00,00,
27327052,000001A1,false,Rx,0,8,00,43,BA,14,06,0C,80,20,
27332051,0000019F,false,Rx,0,8,00,00,7D,04,00,6A,90,FE,
27333022,00000155,false,Rx,0,8,3E,87,D0,94,59,A8,02,B7,
27334472,00000157,false,Rx,0,8,D5,37,09,C4,FF,E0,00,80,
27336022,000001C7,false,Rx,0,4,AA,A0,FF,C0,00,00,00,00,
27337047,000001A1,false,Rx,0,8,00,43,BA,14,06,0C,80,20,
27342056,0000019F,false,Rx,0,8,00,00,7D,09,00,6A,90,FE,
27342321,00000511,false,Rx,0,7,04,87,B6,85,DD,94,17,00,
27344450,00000157,false,Rx,0,8,D5,87,09,C4,FF,E0,00,80,
27344796,00000155,false,Rx,0,8,3E,87,D0,54,59,A8,02,B7,
27346050,000001C7,false,Rx,0,4,AA,A0,FF,C0,00,00,00,00,
27347025,000001A1,false,Rx,0,8,00,43,BA,14,06,0C,80,20,
27352063,0000019F,false,Rx,0,8,00,00,7D,0E,00,6A,90,FE,
27353052,00000155,false,Rx,0,8,3E,87,D0,54,59,A8,02,B7,
27354473,00000157,false,Rx,0,8,D5,D7,09,C4,FF,E0,00,80,
27356051,000001C7,false,Rx,0,4,AA,A0,FF,C0,00,00,00,00,
27357046,000001A1,false,Rx,0,8,00,43,BA,14,06,0C,80,20,
27362054,0000019F,false,Rx,0,8,00,00,7D,03,00,6A,90,FE,
27363028,00000155,false,Rx,0,8,3E,87,D0,54,59,A8,02,B7,
27364457,00000157,false,Rx,0,8,D5,27,09,C4,FF,E0,00,80,
27366127,000004F7,false,Rx,0,8,00,19,0C,00,90,20,06,F0,
27366328,000001C7,false,Rx,0,4,AA,A0,FF,C0,00,00,00,00,
27366631,00000428,false,Rx,0,8,00,00,00,7F,00,00,80,00,
27366833,0000042F,false,Rx,0,2,00,20,00,00,00,00,00,00,
27367071,000001A1,false,Rx,0,8,00,43,BA,14,06,0C,80,20,
27370347,00000423,false,Rx,0,8,07,1E,00,01,B2,80,5D,C7,
27372047,0000019F,false,Rx,0,8,00,00,7D,08,00,6A,90,FE,
27372967,00000155,false,Rx,0,8,3E,87,D0,54,59,A8,02,B7,
27373195,00000424,false,Rx,0,8,11,40,56,C0,2D,5E,AA,2E,
27373442,00000425,false,Rx,0,8,24,69,44,9C,42,0C,B1,05,
27374496,00000157,false,Rx,0,8,D5,77,09,C4,FF,E0,00,80,
27374742,00000426,false,Rx,0,8,00,08,02,00,59,5C,00,40,
27376046,000001C7,false,Rx,0,4,AA,A0,FF,C0,00,00,00,00,
27377046,000001A1,false,Rx,0,8,00,43,BA,14,06,0C,80,20,
27377268,00000445,false,Rx,0,7,80,DF,55,65,04,82,00,00,
27382053,0000019F,false,Rx,0,8,00,00,7D,0D,00,6A,90,FE,
27383028,00000155,false,Rx,0,8,3E,87,D0,54,59,A8,02,B7,
27384523,00000157,false,Rx,0,8,D5,C7,09,C4,FF,E0,00,80,
27386114,000001C7,false,Rx,0,4,AA,A0,FF,C0,00,00,00,00,
27387079,000001A1,false,Rx,0,8,00,43,BA,14,06,0C,80,20,
27390090,00000435,false,Rx,0,8,FF,FF,1E,A9,2A,00,00,00,
27392079,0000019F,false,Rx,0,8,00,00,7D,02,00,6A,90,FE,
27392350,00000419,false,Rx,0,6,54,00,28,00,30,00,00,00,
27393053,00000155,false,Rx,0,8,3E,87,D0,54,59,A8,02,B7,
27394529,00000157,false,Rx,0,8,D5,17,09,C4,FF,E0,00,80,
27394726,00000436,false,Rx,0,6,80,18,76,CB,FF,DC,00,00,
27396104,000001C7,false,Rx,0,4,AA,A0,FF,C0,00,00,00,00,
27397078,000001A1,false,Rx,0,8,00,43,BA,14,06,0C,80,20,
27402063,0000019F,false,Rx,0,8,00,00,7D,07,00,6A,90,FE,
27403028,00000155,false,Rx,0,8,3E,87,D0,54,59,A8,02,B7,
27404525,00000157,false,Rx,0,8,D5,67,09,C4,FF,E0,00,80,
27406076,000001C7,false,Rx,0,4,AA,A0,FF,C0,00,00,00,00,
27407050,000001A1,false,Rx,0,8,00,43,BA,14,06,0C,80,20,
27412316,0000019F,false,Rx,0,8,00,00,7D,0C,00,6A,90,FE,
27413315,00000155,false,Rx,0,8,3E,87,D0,54,59,A8,02,B7,
27414636,00000157,false,Rx,0,8,D5,B7,09,C4,FF,E0,00,80,
27416081,000001C7,false,Rx,0,4,AA,A0,FF,C0,00,00,00,00,
27417063,000001A1,false,Rx,0,8,00,43,BA,14,06,0C,80,20,
27422052,0000019F,false,Rx,0,8,00,00,7D,01,00,6A,90,FE,
27423096,00000155,false,Rx,0,8,3E,87,D0,54,59,A8,02,B7,
27424816,00000157,false,Rx,0,8,D5,07,09,C4,FF,E0,00,80,
27426335,000001C7,false,Rx,0,4,AA,A0,FF,C0,00,00,00,00,
27427206,000001A1,false,Rx,0,8,00,43,BA,14,06,0C,80,20,
27432206,0000019F,false,Rx,0,8,00,00,7D,06,00,6A,90,FE,
27433205,00000155,false,Rx,0,8,3E,87,D0,54,59,A8,02,B7,
27434469,00000157,false,Rx,0,8,D5,57,09,C4,FF,E0,00,80,
27436257,000001C7,false,Rx,0,4,AA,A0,FF,C0,00,00,00,00,
27437200,000001A1,false,Rx,0,8,00,43,BA,14,06,0C,80,20,
27442212,0000019F,false,Rx,0,8,00,00,7D,0B,00,6A,90,FE,
27442322,00000511,false,Rx,0,7,04,C6,7F,3E,48,A1,FA,00,
27443232,00000155,false,Rx,0,8,3E,87,D0,54,59,A8,02,B7,
27444579,00000157,false,Rx,0,8,D5,A7,09,C4,FF,E0,00,80,
27446269,000001C7,false,Rx,0,4,AA,A0,FF,C0,00,00,00,00,
27447205,000001A1,false,Rx,0,8,00,43,BA,14,06,0C,80,20,
27452317,0000019F,false,Rx,0,8,00,00,7D,00,00,6A,90,FE,
27453289,00000155,false,Rx,0,8,3E,87,D0,54,59,A8,02,B7,
27454736,00000157,false,Rx,0,8,D5,F7,09,C4,FF,E0,00,80,
27456111,000001C7,false,Rx,0,4,AA,A0,FF,C0,00,00,00,00,
27457338,000001A1,false,Rx,0,8,00,43,BA,14,06,0C,80,20,
27462327,0000019F,false,Rx,0,8,00,00,7D,05,00,6A,90,FE,
27463236,00000155,false,Rx,0,8,3E,87,D0,54,59,A8,02,B7,
27464765,00000157,false,Rx,0,8,D5,47,09,C4,FF,E0,00,80,
27466251,000004F7,false,Rx,0,8,00,19,0C,00,90,20,06,F0,
27466389,000001C7,false,Rx,0,4,AA,A0,FF,C0,00,00,00,00,
27466818,00000428,false,Rx,0,8,00,00,00,7F,00,00,80,00,
27466827,0000042F,false,Rx,0,2,00,20,00,00,00,00,00,00,
27467094,000001A1,false,Rx,0,8,00,43,BA,14,06,0C,80,20,
27470338,00000423,false,Rx,0,8,07,1E,00,01,B2,80,5D,C7,
27472342,0000019F,false,Rx,0,8,00,00,7D,0A,00,6A,90,FE,
27473232,00000155,false,Rx,0,8,3E,87,D0,54,59,A8,02,B7,
27473241,00000424,false,Rx,0,8,11,40,56,C0,2D,5E,AA,2E,
27473527,00000425,false,Rx,0,8,24,69,44,9C,42,0C,B1,05,
27474658,00000157,false,Rx,0,8,D5,97,09,C4,FF,E0,00,80,
27474666,00000426,false,Rx,0,8,00,08,02,00,59,5C,00,40,
27476395,000001C7,false,Rx,0,4,AA,A0,FF,C0,00,00,00,00,
27477336,000001A1,false,Rx,0,8,00,43,BA,14,06,0C,80,20,
27477345,00000445,false,Rx,0,7,80,DF,55,65,04,82,00,00,
27482311,0000019F,false,Rx,0,8,00,00,7D,0F,00,6A,90,FE,
27483288,00000155,false,Rx,0,8,3E,87,D0,54,59,A8,02,B7,
27484714,00000157,false,Rx,0,8,D5,E7,09,C4,FF,E0,00,80,
27486386,000001C7,false,Rx,0,4,AA,A0,FF,C0,00,00,00,00,
27487315,000001A1,false,Rx,0,8,00,43,BA,14,06,0C,80,20,
27490398,00000435,false,Rx,0,8,FF,FF,1E,A9,2A,00,00,00,
27492340,0000019F,false,Rx,0,8,00,00,7D,04,00,6A,90,FE,
27492349,00000419,false,Rx,0,6,54,00,28,00,30,00,00,00,
27493288,00000155,false,Rx,0,8,3E,87,D0,54,59,A8,02,B7,
27494721,00000157,false,Rx,0,8,D5,37,09,C4,FF,E0,00,80,
27494730,00000436,false,Rx,0,6,80,18,76,CB,FF,DC,00,00,
27496392,000001C7,false,Rx,0,4,AA,A0,FF,C0,00,00,00,00,
27497311,000001A1,false,Rx,0,8,00,43,BA,14,06,0C,80,20,
27502319,0000019F,false,Rx,0,8,00,00,7D,09,00,6A,90,FE,
27503288,00000155,false,Rx,0,8,3E,87,D0,54,59,A8,02,B7,
27504658,00000157,false,Rx,0,8,D5,87,09,C4,FF,E0,00,80,
27506321,000001C7,false,Rx,0,4,AA,A0,FF,C0,00,00,00,00,
27507337,000001A1,false,Rx,0,8,00,43,BA,14,06,0C,80,20,
27512347,0000019F,false,Rx,0,8,00,00,7D,0E,00,6A,90,FE,
27513364,00000155,false,Rx,0,8,3E,87,D0,54,59,A8,02,B7,
27514755,00000157,false,Rx,0,8,D5,D7,09,C4,FF,E0,00,80,
27516376,000001C7,false,Rx,0,4,AA,A0,FF,C0,00,00,00,00,
27517340,000001A1,false,Rx,0,8,00,43,BA,14,06,0C,80,20,
27522343,0000019F,false,Rx,0,8,00,00,7D,03,00,6A,90,FE,
27523287,00000155,false,Rx,0,8,3E,87,D0,54,59,A8,02,B7,
27524654,00000157,false,Rx,0,8,D5,27,09,C4,FF,E0,00,80,
27526202,000001C7,false,Rx,0,4,AA,A0,FF,C0,00,00,00,00,
27527339,000001A1,false,Rx,0,8,00,43,BA,14,06,0C,80,20,
27532158,0000019F,false,Rx,0,8,00,00,7D,08,00,6A,90,FE,
27533309,00000155,false,Rx,0,8,3E,87,D0,54,59,A8,02,B7,
27534761,00000157,false,Rx,0,8,D5,77,09,C4,FF,E0,00,80,
27536439,000001C7,false,Rx,0,4,AA,A0,FF,C0,00,00,00,00,
27537314,000001A1,false,Rx,0,8,00,43,BA,14,06,0C,80,20,
27542134,0000019F,false,Rx,0,8,00,00,7D,0D,00,6A,90,FE,
27542339,00000511,false,Rx,0,7,04,05,48,F7,B3,AE,DD,00,
27543118,00000155,false,Rx,0,8,3E,87,D0,54,59,A8,02,B7,
27544543,00000157,false,Rx,0,8,D5,C7,09,C4,FF,E0,00,80,
27546219,000001C7,false,Rx,0,4,AA,A0,FF,C0,00,00,00,00,
27547118,000001A1,false,Rx,0,8,00,43,BA,14,06,0C,80,20,
27552118,0000019F,false,Rx,0,8,00,00,7D,02,00,6A,90,FE,
27553092,00000155,false,Rx,0,8,3E,87,D0,54,59,A8,02,B7,
27554577,00000157,false,Rx,0,8,D5,17,09,C4,FF,E0,00,80,
27556226,000001C7,false,Rx,0,4,AA,A0,FF,C0,00,00,00,00,
27557118,000001A1,false,Rx,0,8,00,43,BA,14,06,0C,80,20,
27562125,0000019F,false,Rx,0,8,00,00,7D,07,00,6A,90,FE,
27563074,00000155,false,Rx,0,8,3E,87,D0,54,59,A8,02,B7,
27564103,0000069F,false,Rx,0,4,71,30,28,2F,00,00,00,00,
27564452,00000157,false,Rx,0,8,D5,67,09,C4,FF,E0,00,80,
27566324,000004F7,false,Rx,0,8,00,19,0C,00,90,20,06,F0,
27566526,000001C7,false,Rx,0,4,AA,A0,FF,C0,00,00,00,00,
27566810,00000428,false,Rx,0,8,00,00,00,7F,00,00,80,00,
27567007,0000042F,false,Rx,0,2,00,20,00,00,00,00,00,00,
27567249,000001A1,false,Rx,0,8,00,43,BA,14,06,0C,80,20,
27570399,00000423,false,Rx,0,8,07,1E,00,01,5D,80,B2,C7,
27572123,0000019F,false,Rx,0,8,00,00,7D,0C,00,6A,90,FE,
27573068,00000155,false,Rx,0,8,3E,87,D0,54,59,A8,02,B7,
27573248,00000424,false,Rx,0,8,11,40,56,C0,2D,5E,55,2E,
27573437,00000425,false,Rx,0,8,24,69,44,9C,42,0C,B1,05,
27574593,00000157,false,Rx,0,8,D5,B7,09,C4,FF,E0,00,80,
27574820,00000426,false,Rx,0,8,00,08,02,00,59,5C,00,40,
27576249,000001C7,false,Rx,0,4,AA,A0,FF,C0,00,00,00,00,
27577125,000001A1,false,Rx,0,8,00,43,BA,14,06,0C,80,20,
27577326,00000445,false,Rx,0,7,80,DF,AA,65,04,82,00,00,
27582115,0000019F,false,Rx,0,8,00,00,7D,01,00,6A,90,FE,
27583012,00000155,false,Rx,0,8,3E,87,D0,54,59,A8,02,B7,
27584511,00000157,false,Rx,0,8,D5,07,09,C4,FF,E0,00,80,
27586241,000001C7,false,Rx,0,4,AA,A0,FF,C0,00,00,00,00,
27587121,000001A1,false,Rx,0,8,00,43,BA,14,06,0C,80,20,
27590174,00000435,false,Rx,0,8,FF,FF,1E,A9,2A,00,00,00,
27592091,0000019F,false,Rx,0,8,00,00,7D,06,00,6A,90,FE,
27592359,00000419,false,Rx,0,6,54,00,28,00,30,00,00,00,
27593036,00000155,false,Rx,0,8,3E,87,D0,54,59,A8,02,B7,
27594561,00000157,false,Rx,0,8,D5,57,09,C4,FF,E0,00,80,
27594758,00000436,false,Rx,0,6,80,18,76,CB,FF,DC,00,00,
27596205,000001C7,false,Rx,0,4,AA,A0,FF,C0,00,00,00,00,
27597089,000001A1,false,Rx,0,8,00,43,BA,14,06,0C,80,20,
27602084,0000019F,false,Rx,0,8,00,00,7D,0B,00,6A,90,FE,
27603028,00000155,false,Rx,0,8,3E,87,D0,54,59,A8,02,B7,
27604506,00000157,false,Rx,0,8,D5,A7,09,C4,FF,E0,00,80,
27606231,000001C7,false,Rx,0,4,AA,A0,FF,C0,00,00,00,00,
27607072,000001A1,false,Rx,0,8,00,43,BA,14,06,0C,80,20,
27612096,0000019F,false,Rx,0,8,00,00,7D,00,00,6A,90,FE,
27613062,00000155,false,Rx,0,8,3E,87,D0,54,59,A8,02,B7,
27614436,00000157,false,Rx,0,8,D5,F7,09,C4,FF,E0,00,80,
27616236,000001C7,false,Rx,0,4,AA,A0,FF,C0,00,00,00,00,
27617076,000001A1,false,Rx,0,8,00,43,BA,14,06,0C,80,20,
27622079,0000019F,false,Rx,0,8,00,00,7D,05,00,6A,90,FE,
27623053,00000155,false,Rx,0,8,3E,87,D0,54,59,A8,02,B7,
27624378,00000157,false,Rx,0,8,D5,47,09,C4,FF,E0,00,80,
27626228,000001C7,false,Rx,0,4,AA,A0,FF,C0,00,00,00,00,
27627087,000001A1,false,Rx,0,8,00,43,BA,14,06,0C,80,20,
27632112,0000019F,false,Rx,0,8,00,00,7D,0A,00,6A,90,FE,
27633052,00000155,false,Rx,0,8,3E,87,D0,54,59,A8,02,B7,
27634426,00000157,false,Rx,0,8,D5,97,09,C4,FF,E0,00,80,
27636228,000001C7,false,Rx,0,4,AA,A0,FF,C0,00,00,00,00,
27637077,000001A1,false,Rx,0,8,00,43,BA,14,06,0C,80,20,
27642076,0000019F,false,Rx,0,8,00,00,7D,0F,00,6A,90,FE,
27642369,00000511,false,Rx,0,7,04,44,11,B0,1E,BB,C0,00,
27643070,00000155,false,Rx,0,8,3E,87,D0,54,59,A8,02,B7,
27644395,00000157,false,Rx,0,8,D5,E7,09,C4,FF,E0,00,80,
27646247,000001C7,false,Rx,0,4,AA,A0,FF,C0,00,00,00,00,
27647071,000001A1,false,Rx,0,8,00,43,BA,14,06,0C,80,20,
27652096,0000019F,false,Rx,0,8,00,00,7D,04,00,6A,90,FE,
27652967,00000155,false,Rx,0,8,3E,87,D0,54,59,A8,02,B7,
27654396,00000157,false,Rx,0,8,D5,37,09,C4,FF,E0,00,80,
27656292,000001C7,false,Rx,0,4,AA,A0,FF,C0,00,00,00,00,
27657110,000001A1,false,Rx,0,8,00,43,BA,14,06,0C,80,20,
27662118,0000019F,false,Rx,0,8,00,00,7D,09,00,6A,90,FE,
27663135,00000155,false,Rx,0,8,3E,87,D0,54,59,A8,02,B7,
27664566,00000157,false,Rx,0,8,D5,87,09,C4,FF,E0,00,80,
27666372,000004F7,false,Rx,0,8,00,19,0C,00,90,20,06,F0,
27666594,000001C7,false,Rx,0,4,AA,A0,FF,C0,00,00,00,00,
27666866,00000428,false,Rx,0,8,00,00,00,7F,00,00,80,00,
27667121,000001A1,false,Rx,0,8,00,43,BA,14,06,0C,80,20,
27667249,0000042F,false,Rx,0,2,00,20,00,00,00,00,00,00,
27670121,00000423,false,Rx,0,8,07,1E,00,01,5D,80,B2,C7,
27672295,0000019F,false,Rx,0,8,00,00,7D,0E,00,6A,90,FE,
27673282,00000155,false,Rx,0,8,3E,87,D0,54,59,A8,02,B7,
27673291,00000424,false,Rx,0,8,11,40,56,C0,2D,5E,55,2E,
27673428,00000425,false,Rx,0,8,24,69,44,9C,42,0C,B1,05,
27674774,00000157,false,Rx,0,8,D5,D7,09,C4,FF,E0,00,80,
27674781,00000426,false,Rx,0,8,00,08,02,00,59,5C,00,40,
27676436,000001C7,false,Rx,0,4,AA,A0,FF,C0,00,00,00,00,
27677139,000001A1,false,Rx,0,8,00,43,BA,14,06,0C,80,20,
27677358,00000445,false,Rx,0,7,80,DF,AA,65,04,82,00,00,
27682229,0000019F,false,Rx,0,8,00,00,7D,03,00,6A,90,FE,
27683126,00000155,false,Rx,0,8,3E,87,D0,54,59,A8,02,B7,
27684679,00000157,false,Rx,0,8,D5,27,09,C4,FF,E0,00,80,
27686279,000001C7,false,Rx,0,4,AA,A0,FF,C0,00,00,00,00,
27687246,000001A1,false,Rx,0,8,00,43,BA,14,06,0C,80,20,
27690488,00000435,false,Rx,0,8,FF,FF,1E,A9,2A,00,00,00,
27692364,0000019F,false,Rx,0,8,00,00,7D,08,00,6A,90,FE,
27692372,00000419,false,Rx,0,6,54,00,28,00,30,00,00,00,
27693130,00000155,false,Rx,0,8,3E,87,D0,54,59,A8,02,B7,
27694663,00000157,false,Rx,0,8,D5,77,09,C4,FF,E0,00,80,
27694699,00000436,false,Rx,0,6,80,18,76,CB,FF,DC,00,00,
27696435,000001C7,false,Rx,0,4,AA,A0,FF,C0,00,00,00,00,
27697229,000001A1,false,Rx,0,8,00,43,BA,14,06,0C,80,20,
27702114,0000019F,false,Rx,0,8,00,00,7D,0D,00,6A,90,FE,
27703005,00000155,false,Rx,0,8,3E,87,D0,54,59,A8,02,B7,
27704602,00000157,false,Rx,0,8,D5,C7,09,C4,FF,E0,00,80,
27706566,000001C7,false,Rx,0,4,AA,A0,FF,C0,00,00,00,00,
27707339,000001A1,false,Rx,0,8,00,43,BA,14,06,0C,80,20,
27712343,0000019F,false,Rx,0,8,00,00,7D,02,00,6A,90,FE,
27713415,00000155,false,Rx,0,8,3E,87,D0,54,59,A8,02,B7,
27714766,00000157,false,Rx,0,8,D5,17,09,C4,FF,E0,00,80,
27716538,000001C7,false,Rx,0,4,AA,A0,FF,C0,00,00,00,00,
27717238,000001A1,false,Rx,0,8,00,43,BA,14,06,0C,80,20,
27722393,0000019F,false,Rx,0,8,00,00,7D,07,00,6A,90,FE,
27723292,00000155,false,Rx,0,8,3E,87,D0,54,59,A8,02,B7,
27724665,00000157,false,Rx,0,8,D5,67,09,C4,FF,E0,00,80,
27726565,000001C7,false,Rx,0,4,AA,A0,FF,C0,00,00,00,00,
27727363,000001A1,false,Rx,0,8,00,43,BA,14,06,0C,80,20,
27732370,0000019F,false,Rx,0,8,00,00,7D,0C,00,6A,90,FE,
27733289,00000155,false,Rx,0,8,3E,87,D0,54,59,A8,02,B7,
27734757,00000157,false,Rx,0,8,D5,B7,09,C4,FF,E0,00,80,
27736561,000001C7,false,Rx,0,4,AA,A0,FF,C0,00,00,00,00,
27737262,000001A1,false,Rx,0,8,00,43,BA,14,06,0C,80,20,
27742362,0000019F,false,Rx,0,8,00,00,7D,01,00,6A,90,FE,
27742371,00000511,false,Rx,0,7,04,83,DA,69,89,C8,A3,00,
27743339,00000155,false,Rx,0,8,3E,87,D0,54,59,A8,02,B7,
27744712,00000157,false,Rx,0,8,D5,07,09,C4,FF,E0,00,80,
27746586,000001C7,false,Rx,0,4,AA,A0,FF,C0,00,00,00,00,
27747363,000001A1,false,Rx,0,8,00,43,BA,14,06,0C,80,20,
27752189,0000019F,false,Rx,0,8,00,00,7D,06,00,6A,90,FE,
27753286,00000155,false,Rx,0,8,3E,87,D0,54,59,A8,02,B6,
27754658,00000157,false,Rx,0,8,D5,57,09,C4,FF,E0,00,80,
27756494,000001C7,false,Rx,0,4,AA,A0,FF,C0,00,00,00,00,
27757272,000001A1,false,Rx,0,8,00,43,BA,14,06,0C,80,20,
27762364,0000019F,false,Rx,0,8,00,00,7D,0B,00,6A,90,FE,
27763236,00000155,false,Rx,0,8,3E,87,D0,54,59,A8,02,B6,
27764776,00000157,false,Rx,0,8,D5,A7,09,C4,FF,E0,00,80,
27766663,000004F7,false,Rx,0,8,00,19,0C,00,90,20,06,F0,
27766672,000001C7,false,Rx,0,4,AA,A0,FF,C0,00,00,00,00,
27766983,00000428,false,Rx,0,8,00,00,00,7F,00,00,80,00,
27767230,000001A1,false,Rx,0,8,00,43,BA,14,06,0C,80,20,
27767334,0000042F,false,Rx,0,2,00,20,00,00,00,00,00,00,
27770568,00000423,false,Rx,0,8,07,1E,00,01,5D,80,B2,C7,
27772365,0000019F,false,Rx,0,8,00,00,7D,00,00,6A,90,FE,
27773110,00000155,false,Rx,0,8,3E,87,D0,54,59,A8,02,B6,
27773257,00000424,false,Rx,0,8,11,40,56,C0,2D,5E,55,2E,
27773462,00000425,false,Rx,0,8,24,69,44,9C,42,0C,B1,05,
27774766,00000157,false,Rx,0,8,D5,F7,09,C4,FF,E0,00,80,
27774775,00000426,false,Rx,0,8,00,08,02,00,59,5C,00,40,
27776590,000001C7,false,Rx,0,4,AA,A0,FF,C0,00,00,00,00,
27777365,000001A1,false,Rx,0,8,00,43,BA,14,06,0C,80,20,
27777374,00000445,false,Rx,0,7,80,DF,AA,65,04,82,00,00,
27782284,0000019F,false,Rx,0,8,00,00,7D,05,00,6A,90,FE,
27783289,00000155,false,Rx,0,8,3E,87,D0,54,59,A8,02,B6,
27784468,00000157,false,Rx,0,8,D5,47,09,C4,FF,E0,00,80,
27786615,000001C7,false,Rx,0,4,AA,A0,FF,C0,00,00,00,00,
27787365,000001A1,false,Rx,0,8,00,43,BA,14,06,0C,80,20,
27790171,00000435,false,Rx,0,8,FF,FF,1E,A9,2A,00,00,00,
27792125,0000019F,false,Rx,0,8,00,00,7D,0A,00,6A,90,FE,
27792393,00000419,false,Rx,0,6,54,00,28,00,30,00,00,00,
27793038,00000155,false,Rx,0,8,3E,87,D0,54,59,A8,02,B6,
27794363,00000157,false,Rx,0,8,D5,97,09,C4,FF,E0,00,80,
27794591,00000436,false,Rx,0,6,80,18,76,CB,FF,DC,00,00,
27796363,000001C7,false,Rx,0,4,AA,A0,FF,C0,00,00,00,00,
27797112,000001A1,false,Rx,0,8,00,43,BA,14,06,0C,80,20,
27802114,0000019F,false,Rx,0,8,00,00,7D,0F,00,6A,90,FE,
27803037,00000155,false,Rx,0,8,3E,87,CF,54,59,A8,02,B6,
27804388,00000157,false,Rx,0,8,D5,E7,09,C4,FF,E0,00,80,
27806363,000001C7,false,Rx,0,4,AA,A0,FF,C0,00,00,00,00,
27807114,000001A1,false,Rx,0,8,00,43,BA,14,06,0C,80,20,
27812113,0000019F,false,Rx,0,8,00,00,7D,04,00,6A,90,FE,
27813062,00000155,false,Rx,0,8,3E,87,D0,54,59,A8,02,B5,
27814438,00000157,false,Rx,0,8,D5,37,09,C4,FF,E0,00,80,
27816388,000001C7,false,Rx,0,4,AA,A0,FF,C0,00,00,00,00,
27817112,000001A1,false,Rx,0,8,00,43,BA,14,06,0C,80,20,
27822113,0000019F,false,Rx,0,8,00,00,7D,09,00,6A,90,FE,
27823037,00000155,false,Rx,0,8,3E,87,CF,54,59,A8,02,B6,
27824540,00000157,false,Rx,0,8,D5,87,09,C4,FF,E0,00,80,
27826388,000001C7,false,Rx,0,4,AA,A0,FF,C0,00,00,00,00,
27827112,000001A1,false,Rx,0,8,00,43,BA,14,06,0C,80,20,
27832102,0000019F,false,Rx,0,8,00,00,7D,0E,00,6A,90,FE,
27833024,00000155,false,Rx,0,8,3E,87,C7,54,59,A8,02,B5,
27834523,00000157,false,Rx,0,8,D5,D7,09,C4,FF,E0,00,80,
27836375,000001C7,false,Rx,0,4,AA,A0,FF,C0,00,00,00,00,
27837100,000001A1,false,Rx,0,8,12,C3,BA,14,06,0C,80,20,
27842099,0000019F,false,Rx,0,8,00,00,7D,03,00,6A,90,FE,
27842367,00000511,false,Rx,0,7,04,C2,A3,22,F4,D5,86,00,
27843071,00000155,false,Rx,0,8,3E,87,C1,54,59,A8,02,B5,
27844446,00000157,false,Rx,0,8,D5,27,09,C4,FF,E0,00,80,
27846396,000001C7,false,Rx,0,4,AA,A0,FF,C0,00,00,00,00,
27847123,000001A1,false,Rx,0,8,2A,03,BA,14,05,0C,80,20,
27852115,0000019F,false,Rx,0,8,00,00,7D,08,00,6A,90,FE,
27852965,00000155,false,Rx,0,8,3E,87,C2,54,59,A8,02,B5,
27854391,00000157,false,Rx,0,8,D5,77,09,C4,FF,E0,00,80,
27856365,000001C7,false,Rx,0,4,AA,A0,FF,C0,00,00,00,00,
27857115,000001A1,false,Rx,0,8,3D,C3,BA,14,05,0C,80,20,
27862113,0000019F,false,Rx,0,8,00,00,7D,0D,00,6A,90,FE,
27862963,00000155,false,Rx,0,8,3E,87,C4,54,59,A8,02,B5,
27864512,00000157,false,Rx,0,8,D5,C7,09,C4,FF,E0,00,80,
27866412,000004F7,false,Rx,0,8,00,19,0C,00,90,20,06,F0,
27866613,000001C7,false,Rx,0,4,AA,A0,FF,C0,00,00,00,00,
27866891,00000428,false,Rx,0,8,00,00,00,7F,00,00,80,00,
27867111,000001A1,false,Rx,0,8,4E,83,BA,14,05,0C,80,20,
27867262,0000042F,false,Rx,0,2,00,20,00,00,00,00,00,00,
27870277,00000423,false,Rx,0,8,07,1E,00,01,5D,80,B2,C7,
27872128,0000019F,false,Rx,0,8,00,00,7D,02,00,6A,90,FE,
27872974,00000155,false,Rx,0,8,3E,87,C5,54,59,A8,02,B5,
27873176,00000424,false,Rx,0,8,11,40,56,C0,2D,5E,55,2E,
27873424,00000425,false,Rx,0,8,24,69,44,9C,42,0C,B1,05,
27874503,00000157,false,Rx,0,8,D5,17,09,C4,FF,E0,00,80,
27874750,00000426,false,Rx,0,8,00,08,02,00,59,5C,00,40,
27876353,000001C7,false,Rx,0,4,AA,A0,FF,C0,00,00,00,00,
27877104,000001A1,false,Rx,0,8,5C,C3,BA,14,05,0C,80,20,
27877324,00000445,false,Rx,0,7,80,DF,AA,65,04,82,00,00,
27882129,0000019F,false,Rx,0,8,00,00,7D,07,00,6A,90,FE,
27882975,00000155,false,Rx,0,8,3E,87,C7,54,59,A8,02,B5,
27884452,00000157,false,Rx,0,8,D5,67,09,C4,FF,E0,00,80,
27886349,000001C7,false,Rx,0,4,AA,A0,FF,C0,00,00,00,00,
27887097,000001A1,false,Rx,0,8,68,C3,BA,14,05,0C,80,20,
27890124,00000435,false,Rx,0,8,FF,FF,1E,A9,2A,00,00,00,
27892122,0000019F,false,Rx,0,8,00,00,7D,0C,00,6A,90,FE,
27892371,00000419,false,Rx,0,6,54,00,28,00,30,00,00,00,
27892968,00000155,false,Rx,0,8,3E,87,C8,54,59,A8,02,B5,
27894422,00000157,false,Rx,0,8,D5,B7,09,C4,FF,E0,00,80,
27894618,00000436,false,Rx,0,6,80,18,76,CB,FF,DC,00,00,
27896346,000001C7,false,Rx,0,4,AA,A0,FF,C0,00,00,00,00,
27897096,000001A1,false,Rx,0,8,73,03,BA,14,05,0C,80,20,
27902176,0000019F,false,Rx,0,8,00,00,7D,01,00,6A,90,FE,
27903072,00000155,false,Rx,0,8,3E,87,C9,54,59,A8,02,B5,
27904572,00000157,false,Rx,0,8,D5,07,09,C4,FF,E0,00,80,
27906393,000001C7,false,Rx,0,4,AA,A0,FF,C0,00,00,00,00,
27907147,000001A1,false,Rx,0,8,7B,C3,BA,14,05,0C,80,20,
27912172,0000019F,false,Rx,0,8,00,00,7D,06,00,6A,90,FE,
27913123,00000155,false,Rx,0,8,3E,87,CA,54,59,A8,02,B5,
27914401,00000157,false,Rx,0,8,D5,57,09,C4,FF,E0,00,80,
27916422,000001C7,false,Rx,0,4,AA,A0,FF,C0,00,00,00,00,
27917149,000001A1,false,Rx,0,8,83,43,BA,14,05,0C,80,20,
27922174,0000019F,false,Rx,0,8,00,00,7D,0B,00,6A,90,FE,
27923074,00000155,false,Rx,0,8,3E,87,CB,54,59,A8,02,B5,
27924538,00000157,false,Rx,0,8,D5,A7,09,C4,FF,E0,00,80,
27926422,000001C7,false,Rx,0,4,AA,A0,FF,C0,00,00,00,00,
27927147,000001A1,false,Rx,0,8,89,43,BA,14,05,0C,80,20,
27932172,0000019F,false,Rx,0,8,00,00,7D,00,00,6A,90,FE,
27933074,00000155,false,Rx,0,8,3E,87,CB,54,59,A8,02,B5,
27934467,00000157,false,Rx,0,8,D5,F7,09,C4,FF,E0,00,80,
27936422,000001C7,false,Rx,0,4,AA,A0,FF,C0,00,00,00,00,
27937147,000001A1,false,Rx,0,8,8E,83,BA,14,05,0C,80,20,
27942126,0000019F,false,Rx,0,8,00,00,7D,05,00,6A,90,FE,
27942394,00000511,false,Rx,0,7,04,01,6C,DB,5F,E2,69,00,
27943047,00000155,false,Rx,0,8,3E,87,CC,54,59,A8,02,B5,
27944422,00000157,false,Rx,0,8,D5,47,09,C4,FF,E0,00,80,
27946397,000001C7,false,Rx,0,4,AA,A0,FF,C0,00,00,00,00,
27947096,000001A1,false,Rx,0,8,93,43,BA,14,05,0C,80,20,
27952122,0000019F,false,Rx,0,8,00,00,7D,0A,00,6A,90,FE,
27953022,00000155,false,Rx,0,8,3E,87,CC,54,59,A8,02,B5,
27954447,00000157,false,Rx,0,8,D5,97,09,C4,FF,E0,00,80,
27956480,000001C7,false,Rx,0,4,AA,A0,FF,C0,00,00,00,00,
27957298,000001A1,false,Rx,0,8,97,03,BA,14,05,0C,80,20,
27962174,0000019F,false,Rx,0,8,00,00,7D,0F,00,6A,90,FE,
27962999,00000155,false,Rx,0,8,3E,87,CC,54,59,A8,02,B5,
27964447,00000157,false,Rx,0,8,D5,E7,09,C4,FF,E0,00,80,
27966741,000004F7,false,Rx,0,8,00,19,0C,00,90,20,06,F0,
27966751,000001C7,false,Rx,0,4,AA,A0,FF,C0,00,00,00,00,
27967034,00000428,false,Rx,0,8,00,00,00,7F,00,00,80,00,
27967256,000001A1,false,Rx,0,8,9A,43,BA,14,05,0C,80,20,
27967337,0000042F,false,Rx,0,2,00,20,00,00,00,00,00,00,
27970501,00000423,false,Rx,0,8,07,1E,00,01,5D,80,B2,C7,
27972409,0000019F,false,Rx,0,8,00,00,7D,04,00,6A,90,FE,
27973199,00000155,false,Rx,0,8,3E,87,CD,54,59,A8,02,B5,
27973208,00000424,false,Rx,0,8,11,40,56,C0,2D,5E,55,2E,
27973446,00000425,false,Rx,0,8,24,69,44,9C,42,0A,B1,05,
27974741,00000157,false,Rx,0,8,D5,37,09,C4,FF,E0,00,80,
27974749,00000426,false,Rx,0,8,00,08,03,00,59,5C,00,40,
27976559,000001C7,false,Rx,0,4,AA,A0,FF,C0,00,00,00,00,
27977188,000001A1,false,Rx,0,8,9D,43,BA,14,05,0C,80,20,
27977394,00000445,false,Rx,0,7,80,DF,AA,65,04,82,00,00,
27982282,0000019F,false,Rx,0,8,00,00,7D,09,00,6A,90,FE,
27983134,00000155,false,Rx,0,8,3E,87,CD,54,59,A8,02,B5,
27984585,00000157,false,Rx,0,8,D5,87,09,C4,FF,E0,00,80,
27986449,000001C7,false,Rx,0,4,AA,A0,FF,C0,00,00,00,00,
27987302,000001A1,false,Rx,0,8,9F,83,BA,14,05,0C,80,20,
27990365,00000435,false,Rx,0,8,FF,FF,1E,A9,2A,00,00,00,
27992393,0000019F,false,Rx,0,8,00,00,7D,0E,00,6A,90,FE,
27992400,00000419,false,Rx,0,6,54,00,28,00,30,00,00,00,
27993237,00000155,false,Rx,0,8,3E,87,CD,54,59,A8,02,B5,
27994763,00000157,false,Rx,0,8,D5,D7,09,C4,FF,E0,00,80,
27994771,00000436,false,Rx,0,6,80,18,76,CB,FF,DC,00,00,
27996689,000001C7,false,Rx,0,4,AA,A0,FF,C0,00,00,00,00,
27997389,000001A1,false,Rx,0,8,A1,83,BA,14,05,0C,80,20,
28002390,0000019F,false,Rx,0,8,00,00,7D,03,00,6A,90,FE,
28002983,00000155,false,Rx,0,8,3E,87,CE,54,59,A8,02,B5,
28004665,00000157,false,Rx,0,8,D5,27,09,C4,FF,E0,00,80,
28006711,000001C7,false,Rx,0,4,AA,A0,FF,C0,00,00,00,00,
28007389,000001A1,false,Rx,0,8,A3,43,BA,14,05,0C,80,20,
28012395,0000019F,false,Rx,0,8,00,00,7D,08,00,6A,90,FE,
28013289,00000155,false,Rx,0,8,3E,87,CE,54,59,A8,02,B5,
28014693,00000157,false,Rx,0,8,D5,77,09,C4,FF,E0,00,80,
28016694,000001C7,false,Rx,0,4,AA,A0,FF,C0,00,00,00,00,
28017288,000001A1,false,Rx,0,8,A4,C3,BA,14,05,0C,80,20,
28022402,0000019F,false,Rx,0,8,00,00,7D,0D,00,6A,90,FE,
28023290,00000155,false,Rx,0,8,3E,87,CE,54,59,A8,02,B5,
28024703,00000157,false,Rx,0,8,D5,C7,09,C4,FF,E0,00,80,
28026689,000001C7,false,Rx,0,4,AA,A0,FF,C0,00,00,00,00,
28027391,000001A1,false,Rx,0,8,A6,03,BA,14,05,0C,80,20,
28032376,0000019F,false,Rx,0,8,00,00,7D,02,00,6A,90,FE,
28033291,00000155,false,Rx,0,8,3E,87,CE,54,59,A8,02,B5,
28034655,00000157,false,Rx,0,8,D5,17,09,C4,FF,E0,00,80,
28036655,000001C7,false,Rx,0,4,AA,A0,FF,C0,00,00,00,00,
28037288,000001A1,false,Rx,0,8,A7,03,BA,14,05,0C,80,20,
28042203,0000019F,false,Rx,0,8,00,00,7D,07,00,6A,90,FE,
28042450,00000511,false,Rx,0,7,04,40,35,94,CA,EF,4C,00,
28043075,00000155,false,Rx,0,8,3E,87,CE,54,59,A8,02,B5,
28044475,00000157,false,Rx,0,8,D5,67,09,C4,FF,E0,00,80,
28046495,000001C7,false,Rx,0,4,AA,A0,FF,C0,00,00,00,00,
28047169,000001A1,false,Rx,0,8,A8,03,BA,14,05,0C,80,20,
28052194,0000019F,false,Rx,0,8,00,00,7D,0C,00,6A,90,FE,
28053073,00000155,false,Rx,0,8,3E,87,CF,54,59,A8,02,B5,
28054419,00000157,false,Rx,0,8,D5,B7,09,C4,FF,E0,00,80,
28056501,000001C7,false,Rx,0,4,AA,A0,FF,C0,00,00,00,00,
28057177,000001A1,false,Rx,0,8,A8,83,BA,14,05,0C,80,20,
28062200,0000019F,false,Rx,0,8,00,00,7D,01,00,6A,90,FE,
28063002,00000155,false,Rx,0,8,3E,87,D0,54,59,A8,02,B5,
28064494,00000157,false,Rx,0,8,D5,07,09,C4,FF,E0,00,80,
28066576,000004F7,false,Rx,0,8,00,19,0C,00,90,20,06,F0,
28066803,000001C7,false,Rx,0,4,AA,A0,FF,C0,00,00,00,00,
28067078,00000428,false,Rx,0,8,00,00,00,7F,00,00,80,00,
28067256,000001A1,false,Rx,0,8,A9,43,BA,14,05,0C,80,20,
28067429,0000042F,false,Rx,0,2,00,20,00,00,00,00,00,00,
28070145,00000423,false,Rx,0,8,07,1E,00,01,B2,80,5D,C7,
28072194,0000019F,false,Rx,0,8,00,00,7D,06,00,6A,90,FE,
28073003,00000155,false,Rx,0,8,3E,87,CF,54,59,A8,02,B5,
28073227,00000424,false,Rx,0,8,11,40,56,C0,2D,5E,AA,2E,
28073454,00000425,false,Rx,0,8,24,69,44,9C,42,0A,B1,05,
28074551,00000157,false,Rx,0,8,D5,57,09,C4,FF,E0,00,80,
28074778,00000426,false,Rx,0,8,00,68,03,00,59,5C,00,40,
28076527,000001C7,false,Rx,0,4,AA,A0,FF,C0,00,00,00,00,
28077175,000001A1,false,Rx,0,8,A9,C3,BA,14,05,0C,80,20,
28077394,00000445,false,Rx,0,7,80,DF,55,65,04,82,00,00,
28082154,0000019F,false,Rx,0,8,00,00,7D,0B,00,6A,90,FE,
28082972,00000155,false,Rx,0,8,3E,87,D0,54,59,A8,02,B5,
28084498,00000157,false,Rx,0,8,D5,A7,09,C4,FF,E0,00,80,
28086474,000001C7,false,Rx,0,4,AA,A0,FF,C0,00,00,00,00,
28087123,000001A1,false,Rx,0,8,AA,43,BA,14,05,0C,80,20,
28090149,00000435,false,Rx,0,8,FF,FF,1E,A9,2A,00,00,00,
28092148,0000019F,false,Rx,0,8,00,00,7D,00,00,6A,90,FE,
28092394,00000419,false,Rx,0,6,54,00,28,E6,30,00,00,00,
28092967,00000155,false,Rx,0,8,3E,87,CF,54,59,A8,02,B6,
28094496,00000157,false,Rx,0,8,D5,F7,09,C4,FF,E0,00,80,
28094692,00000436,false,Rx,0,6,80,18,76,CB,FF,DC,00,00,
28096526,000001C7,false,Rx,0,4,AA,A0,FF,C0,00,00,00,00,
28097201,000001A1,false,Rx,0,8,AA,C3,BA,14,05,0C,80,20,
28102196,0000019F,false,Rx,0,8,00,00,7D,05,00,6A,90,FE,
28103009,00000155,false,Rx,0,8,3E,87,CF,54,59,A8,02,B5,
28104424,00000157,false,Rx,0,8,D5,47,09,C4,FF,E0,00,80,
28106529,000001C7,false,Rx,0,4,AA,A0,FF,C0,00,00,00,00,
28107200,000001A1,false,Rx,0,8,AB,43,BA,14,05,0C,80,20,
28112201,0000019F,false,Rx,0,8,00,00,7D,0A,00,6A,90,FE,
28113126,00000155,false,Rx,0,8,3E,87,CF,54,59,A8,02,B5,
28114451,00000157,false,Rx,0,8,D5,97,09,C4,FF,E0,00,80,
28116515,000001C7,false,Rx,0,4,AA,A0,FF,C0,00,00,00,00,
28117189,000001A1,false,Rx,0,8,AB,43,BA,14,05,0C,80,20,
28122161,0000019F,false,Rx,0,8,00,00,7D,0F,00,6A,90,FE,
28123025,00000155,false,Rx,0,8,3E,87,D0,54,59,A8,02,B5,
28124508,00000157,false,Rx,0,8,D5,E7,09,C4,FF,E0,00,80,
28126555,000001C7,false,Rx,0,4,AA,A0,FF,C0,00,00,00,00,
28127179,000001A1,false,Rx,0,8,AB,C3,BA,14,05,0C,80,20,
28132220,0000019F,false,Rx,0,8,00,00,7D,04,00,6A,90,FE,
28133076,00000155,false,Rx,0,8,3E,87,CF,54,59,A8,02,B5,
28134551,00000157,false,Rx,0,8,D5,37,09,C4,FF,E0,00,80,
28136552,000001C7,false,Rx,0,4,AA,A0,FF,C0,00,00,00,00,
28137204,000001A1,false,Rx,0,8,AC,03,BA,14,05,0C,80,20,
28142153,0000019F,false,Rx,0,8,00,00,7D,09,00,6A,90,FE,
28142444,00000511,false,Rx,0,7,04,7F,FE,4D,35,FC,2F,00,
28143021,00000155,false,Rx,0,8,3E,87,CF,54,59,A8,02,B5,
28144423,00000157,false,Rx,0,8,D5,87,09,C4,FF,E0,00,80,
28146498,000001C7,false,Rx,0,4,AA,A0,FF,C0,00,00,00,00,
28147147,000001A1,false,Rx,0,8,AC,03,BA,14,05,0C,80,20,
28152149,0000019F,false,Rx,0,8,00,00,7D,0E,00,6A,90,FE,
28153023,00000155,false,Rx,0,8,3E,87,CF,54,59,A8,02,B5,
28154518,00000157,false,Rx,0,8,D5,D7,09,C4,FF,E0,00,80,
28156543,000001C7,false,Rx,0,4,AA,A0,FF,C0,00,00,00,00,
28157201,000001A1,false,Rx,0,8,AC,43,BA,14,05,0C,80,20,
28162190,0000019F,false,Rx,0,8,00,00,7D,03,00,6A,90,FE,
28162988,00000155,false,Rx,0,8,3E,87,D0,54,59,A8,02,B5,
28164520,00000157,false,Rx,0,8,D5,27,09,C4,FF,E0,00,80,
28166756,000004F7,false,Rx,0,8,00,19,0C,00,90,20,06,F0,
28166792,000001C7,false,Rx,0,4,AA,A0,FF,C0,00,00,00,00,
28167320,00000428,false,Rx,0,8,00,00,00,7F,00,00,80,00,
28167328,000001A1,false,Rx,0,8,AC,43,BA,14,05,0C,80,20,
28167495,0000042F,false,Rx,0,2,00,20,00,00,00,00,00,00,
28170352,00000423,false,Rx,0,8,07,1E,00,01,B2,80,5D,C6,
28172420,0000019F,false,Rx,0,8,00,00,7D,08,00,6A,90,FE,
28173213,00000155,false,Rx,0,8,3E,87,CF,54,59,A8,02,B5,
28173222,00000424,false,Rx,0,8,11,40,56,C0,2D,5E,AA,2E,
28173453,00000425,false,Rx,0,8,2A,69,44,9C,42,0A,B1,05,
28174666,00000157,false,Rx,0,8,D5,77,09,C4,FF,E0,00,80,
28174675,00000426,false,Rx,0,8,00,68,03,00,59,5C,00,40,
28176568,000001C7,false,Rx,0,4,AA,A0,FF,C0,00,00,00,00,
28177189,000001A1,false,Rx,0,8,AC,43,BA,14,05,0C,80,20,
28177378,00000445,false,Rx,0,7,80,DF,55,65,04,82,00,00,
28182187,0000019F,false,Rx,0,8,00,00,7D,0D,00,6A,90,FE,
28182981,00000155,false,Rx,0,8,3E,87,CF,54,59,A8,02,B5,
28184531,00000157,false,Rx,0,8,D5,C7,09,C4,FF,E0,00,80,
28186701,000001C7,false,Rx,0,4,AA,A0,FF,C0,00,00,00,00,
28187238,000001A1,false,Rx,0,8,AC,83,BA,14,05,0C,80,20,
28190387,00000435,false,Rx,0,8,FF,FF,1E,A9,2A,00,00,00,
28192337,0000019F,false,Rx,0,8,00,00,7D,02,00,6A,90,FE,
28192423,00000419,false,Rx,0,6,54,00,28,E6,30,00,00,00,
28193124,00000155,false,Rx,0,8,3E,87,CF,54,59,A8,02,B5,
28194583,00000157,false,Rx,0,8,D5,17,09,C4,FF,E0,00,80,
28194619,00000436,false,Rx,0,6,80,18,76,CB,FF,DC,00,00,
28196687,000001C7,false,Rx,0,4,AA,A0,FF,C0,00,00,00,00,
28197214,000001A1,false,Rx,0,8,AC,C3,BA,14,05,0C,80,20,
28202318,0000019F,false,Rx,0,8,00,00,7D,07,00,6A,90,FE,
28203136,00000155,false,Rx,0,8,3E,87,CF,54,59,A8,02,B5,
28204742,00000157,false,Rx,0,8,D5,67,09,C4,FF,E0,00,80,
28206817,000001C7,false,Rx,0,4,AA,A0,FF,C0,00,00,00,00,
28207328,000001A1,false,Rx,0,8,AC,83,BA,14,05,0C,80,20,
28212444,0000019F,false,Rx,0,8,00,00,7D,0C,00,6A,90,FE,
28213392,00000155,false,Rx,0,8,3E,87,CF,54,59,A8,02,B5,
28214674,00000157,false,Rx,0,8,D5,B7,09,C4,FF,E0,00,80,
28216821,000001C7,false,Rx,0,4,AA,A0,FF,C0,00,00,00,00,
28217321,000001A1,false,Rx,0,8,AC,C3,BA,14,05,0C,80,20,
28222441,0000019F,false,Rx,0,8,00,00,7D,01,00,6A,90,FE,
28223289,00000155,false,Rx,0,8,3E,87,CF,54,59,A8,02,B5,
28224663,00000157,false,Rx,0,8,D5,07,09,C4,FF,E0,00,80,
28226817,000001C7,false,Rx,0,4,AA,A0,FF,C0,00,00,00,00,
28227322,000001A1,false,Rx,0,8,AC,C3,BA,14,05,0C,80,20,
28232447,0000019F,false,Rx,0,8,00,00,7D,06,00,6A,90,FE,
28233288,00000155,false,Rx,0,8,3E,87,D0,54,59,A8,02,B5,
28234666,00000157,false,Rx,0,8,D5,57,09,C4,FF,E0,00,80,
28236843,000001C7,false,Rx,0,4,AA,A0,FF,C0,00,00,00,00,
28237314,000001A1,false,Rx,0,8,AC,C3,BA,14,05,0C,80,20,
28242442,0000019F,false,Rx,0,8,00,00,7D,0B,00,6A,90,FE,
28242449,00000511,false,Rx,0,7,04,BE,C7,06,A0,09,12,00,
28243278,00000155,false,Rx,0,8,3E,87,CF,54,59,A8,02,B5,
28244613,00000157,false,Rx,0,8,D5,A7,09,C4,FF,E0,00,80,
28246805,000001C7,false,Rx,0,4,AA,A0,FF,C0,00,00,00,00,
28247322,000001A1,false,Rx,0,8,AD,03,BA,14,05,0C,80,20,
28252430,0000019F,false,Rx,0,8,00,00,7D,00,00,6A,90,FE,
28253292,00000155,false,Rx,0,8,3E,87,D0,54,59,A8,02,B5,
28254638,00000157,false,Rx,0,8,D5,F7,09,C4,FF,E0,00,80,
28256842,000001C7,false,Rx,0,4,AA,A0,FF,C0,00,00,00,00,
28257314,000001A1,false,Rx,0,8,AD,03,BA,14,05,0C,80,20,
28262450,0000019F,false,Rx,0,8,00,00,7D,05,00,6A,90,FE,
28263185,00000155,false,Rx,0,8,3E,87,CF,54,59,A8,02,B5,
28264568,00000157,false,Rx,0,8,D5,47,09,C4,FF,E0,00,80,
28266832,000004F7,false,Rx,0,8,00,19,0C,00,90,20,06,F0,
28266878,000001C7,false,Rx,0,4,AA,A0,FF,C0,00,00,00,00,
28267348,00000428,false,Rx,0,8,00,00,00,7F,00,00,80,00,
28267416,000001A1,false,Rx,0,8,AC,C3,BA,14,05,0C,80,20,
28267546,0000042F,false,Rx,0,2,00,20,00,00,00,00,00,00,
28270387,00000423,false,Rx,0,8,07,1E,00,01,B2,80,5D,C6,
28272443,0000019F,false,Rx,0,8,00,00,7D,0A,00,6A,90,FE,
28273212,00000155,false,Rx,0,8,3E,87,CF,54,59,A8,02,B5,
28273222,00000424,false,Rx,0,8,11,40,56,C0,2D,5E,AA,2E,
28273433,00000425,false,Rx,0,8,2A,69,44,9C,42,0C,B1,05,
28274629,00000157,false,Rx,0,8,D5,97,09,C4,FF,E0,00,80,
28274637,00000426,false,Rx,0,8,00,68,03,00,59,5C,00,40,
28276869,000001C7,false,Rx,0,4,AA,A0,FF,C0,00,00,00,00,
28277317,000001A1,false,Rx,0,8,AD,03,BA,14,05,0C,80,20,
28277403,00000445,false,Rx,0,7,80,DF,55,65,04,82,00,00,
28282439,0000019F,false,Rx,0,8,00,00,7D,0F,00,6A,90,FE,
28283110,00000155,false,Rx,0,8,3E,87,CF,54,59,A8,02,B5,
28284540,00000157,false,Rx,0,8,D5,E7,09,C4,FF,E0,00,80,
28286847,000001C7,false,Rx,0,4,AA,A0,FF,C0,00,00,00,00,
28287342,000001A1,false,Rx,0,8,AD,03,BA,14,05,0C,80,20,
28290177,00000435,false,Rx,0,8,FF,FF,1E,A9,2A,00,00,00,
28292226,0000019F,false,Rx,0,8,00,00,7D,04,00,6A,90,FE,
28292498,00000419,false,Rx,0,6,54,00,28,E6,30,00,00,00,
28293003,00000155,false,Rx,0,8,3E,87,CF,54,59,A8,02,B5,
28294396,00000157,false,Rx,0,8,D5,37,09,C4,FF,E0,00,80,
28294597,00000436,false,Rx,0,6,80,18,76,CB,FF,DC,00,00,
28296645,000001C7,false,Rx,0,4,AA,A0,FF,C0,00,00,00,00,
28297220,000001A1,false,Rx,0,8,AD,03,BA,14,05,0C,80,20,
28302220,0000019F,false,Rx,0,8,00,00,7D,09,00,6A,90,FE,
28302997,00000155,false,Rx,0,8,3E,87,D0,54,59,A8,02,B5,
28304420,00000157,false,Rx,0,8,D5,87,09,C4,FF,E0,00,80,
28306651,000001C7,false,Rx,0,4,AA,A0,FF,C0,00,00,00,00,
28307203,000001A1,false,Rx,0,8,AD,03,CE,14,05,0C,80,20,
28312220,0000019F,false,Rx,0,8,00,00,7D,0E,00,6A,90,FE,
28313094,00000155,false,Rx,0,8,3E,87,CE,54,59,A8,02,B5,
28314420,00000157,false,Rx,0,8,D5,D7,09,C4,FF,E0,00,80,
28316671,000001C7,false,Rx,0,4,AA,A0,FF,C0,00,00,00,00,
28317198,000001A1,false,Rx,0,8,AD,03,BA,14,05,0C,80,20,
28322220,0000019F,false,Rx,0,8,00,00,7D,03,00,6A,90,FE,
28323070,00000155,false,Rx,0,8,3E,87,D0,54,59,A8,02,B5,
28324470,00000157,false,Rx,0,8,D5,27,09,C4,FF,E0,00,80,
28326670,000001C7,false,Rx,0,4,AA,A0,FF,C0,00,00,00,00,
28327220,000001A1,false,Rx,0,8,AC,C3,CE,14,05,0C,80,20,
28332185,0000019F,false,Rx,0,8,00,00,7D,08,00,6A,90,FE,
28333024,00000155,false,Rx,0,8,3E,87,CF,54,59,A8,02,B5,
28334449,00000157,false,Rx,0,8,D5,77,09,C4,FF,E0,00,80,
28336629,000001C7,false,Rx,0,4,AA,A0,FF,C0,00,00,00,00,
28337173,000001A1,false,Rx,0,8,AD,03,BA,14,05,0C,80,20,
28342175,0000019F,false,Rx,0,8,00,00,7D,0D,00,6A,90,FE,
28342471,00000511,false,Rx,0,7,04,FD,90,BF,0B,16,F5,00,
28343023,00000155,false,Rx,0,8,3E,87,D0,54,59,A8,02,B5,
28344498,00000157,false,Rx,0,8,D5,C7,09,C4,FF,E0,00,80,
28346673,000001C7,false,Rx,0,4,AA,A0,FF,C0,00,00,00,00,
28347185,000001A1,false,Rx,0,8,AD,03,BA,14,05,0C,80,20,
28352218,0000019F,false,Rx,0,8,00,00,7D,02,00,6A,90,FE,
28353043,00000155,false,Rx,0,8,3E,87,D0,54,59,A8,02,B6,
28354435,00000157,false,Rx,0,8,D5,17,09,C4,FF,E0,00,80,
28356662,000001C7,false,Rx,0,4,AA,A0,FF,C0,00,00,00,00,
28357187,000001A1,false,Rx,0,8,AD,03,BA,14,05,0C,80,20,
28362228,0000019F,false,Rx,0,8,00,00,7D,07,00,6A,90,FE,
28363004,00000155,false,Rx,0,8,3E,87,D0,54,59,A8,02,B5,
28364477,00000157,false,Rx,0,8,D5,67,09,C4,FF,E0,00,80,
28366776,000004F7,false,Rx,0,8,00,19,0C,00,90,20,06,F0,
28367004,000001C7,false,Rx,0,4,AA,A0,FF,C0,00,00,00,00,
28367227,000001A1,false,Rx,0,8,AD,43,BA,14,05,0C,80,20,
28367479,00000428,false,Rx,0,8,00,00,00,7F,00,00,80,00,
28367681,0000042F,false,Rx,0,2,00,20,00,00,00,00,00,00,
28370141,00000423,false,Rx,0,8,07,1E,00,01,B2,80,5D,C6,
28372218,0000019F,false,Rx,0,8,00,00,7D,0C,00,6A,90,FE,
28372963,00000155,false,Rx,0,8,3E,87,CF,54,59,A8,02,B5,
28373197,00000424,false,Rx,0,8,11,40,56,C0,2D,5E,AA,2E,
28373427,00000425,false,Rx,0,8,2A,69,44,9C,42,0C,B1,05,
28374443,00000157,false,Rx,0,8,D5,B7,09,C4,FF,E0,00,80,
28374689,00000426,false,Rx,0,8,00,68,03,00,59,5C,00,40,
28376692,000001C7,false,Rx,0,4,AA,A0,FF,C0,00,00,00,00,
28377116,00000445,false,Rx,0,7,80,DF,55,65,04,82,00,00,
28377363,000001A1,false,Rx,0,8,AD,03,CE,14,05,0C,80,20,
28382246,0000019F,false,Rx,0,8,00,00,7D,01,00,6A,90,FE,
28382989,00000155,false,Rx,0,8,3E,87,D0,54,59,A8,02,B5,
28384541,00000157,false,Rx,0,8,D5,07,09,C4,FF,E0,00,80,
28386710,000001C7,false,Rx,0,4,AA,A0,FF,C0,00,00,00,00,
28387210,000001A1,false,Rx,0,8,AD,03,CE,14,05,0C,80,20,
28390313,00000435,false,Rx,0,8,FF,FF,1E,A9,2A,00,00,00,
28392200,0000019F,false,Rx,0,8,00,00,7D,06,00,6A,90,FE,
28392469,00000419,false,Rx,0,6,54,00,28,E6,30,00,00,00,
28392943,00000155,false,Rx,0,8,3E,87,CF,54,59,A8,02,B5,
28394473,00000157,false,Rx,0,8,D5,57,09,C4,FF,E0,00,80,
28394669,00000436,false,Rx,0,6,80,18,76,CB,FF,DC,00,00,
28396676,000001C7,false,Rx,0,4,AA,A0,FF,C0,00,00,00,00,
28397177,000001A1,false,Rx,0,8,AD,43,CE,14,05,0C,80,20,
28402200,0000019F,false,Rx,0,8,00,00,7D,0B,00,6A,90,FE,
28402945,00000155,false,Rx,0,8,3E,87,CF,54,59,A8,02,B5,
28404493,00000157,false,Rx,0,8,D5,A7,09,C4,FF,E0,00,80,
28406690,000001C7,false,Rx,0,4,AA,A0,FF,C0,00,00,00,00,
28407185,000001A1,false,Rx,0,8,AD,03,BA,14,05,0C,80,20,
28412464,0000019F,false,Rx,0,8,00,00,7D,00,00,6A,90,FE,
28413283,00000155,false,Rx,0,8,3E,87,D0,54,59,A8,02,B5,
28414417,00000157,false,Rx,0,8,D5,F7,09,C4,FF,E0,00,80,
28416698,000001C7,false,Rx,0,4,AA,A0,FF,C0,00,00,00,00,
28417185,000001A1,false,Rx,0,8,AD,03,BA,14,05,0C,80,20,
28422467,0000019F,false,Rx,0,8,00,00,7D,05,00,6A,90,FE,
28423289,00000155,false,Rx,0,8,3E,87,D0,54,59,A8,02,B5,
28424633,00000157,false,Rx,0,8,D5,47,09,C4,FF,E0,00,80,
28426859,000001C7,false,Rx,0,4,AA,A0,FF,C0,00,00,00,00,
28427242,000001A1,false,Rx,0,8,AD,03,CE,14,05,0C,80,20,
28432363,0000019F,false,Rx,0,8,00,00,7D,0A,00,6A,90,FE,
28433205,00000155,false,Rx,0,8,3E,87,D0,54,59,A8,02,B6,
28434440,00000157,false,Rx,0,8,D5,97,09,C4,FF,E0,00,80,
28436955,000001C7,false,Rx,0,4,AA,A0,FF,C0,00,00,00,00,
28437272,000001A1,false,Rx,0,8,AD,03,BA,14,05,0C,80,20,
28442358,0000019F,false,Rx,0,8,00,00,7D,0F,00,6A,90,FE,
28442514,00000511,false,Rx,0,7,04,3C,59,78,76,23,D8,00,
28443180,00000155,false,Rx,0,8,3E,87,D0,54,59,A8,02,B5,
28444661,00000157,false,Rx,0,8,D5,E7,09,C4,FF,E0,00,80,
28446858,000001C7,false,Rx,0,4,AA,A0,FF,C0,00,00,00,00,
28447242,000001A1,false,Rx,0,8,AC,C3,BA,14,05,0C,80,20,
28452312,0000019F,false,Rx,0,8,00,00,7D,04,00,6A,90,FE,
28453200,00000155,false,Rx,0,8,3E,87,CF,54,59,A8,02,B5,
28454621,00000157,false,Rx,0,8,D5,37,09,C4,FF,E0,00,80,
28456713,000001C7,false,Rx,0,4,AA,A0,FF,C0,00,00,00,00,
28457372,000001A1,false,Rx,0,8,AD,03,BA,14,05,0C,80,20,
28462466,0000019F,false,Rx,0,8,00,00,7D,09,00,6A,90,FE,
28463189,00000155,false,Rx,0,8,3E,87,D0,54,59,A8,02,B5,
28464627,00000157,false,Rx,0,8,D5,87,09,C4,FF,E0,00,80,
28467067,000004F7,false,Rx,0,8,00,19,0C,00,90,20,06,F0,
28467076,000001C7,false,Rx,0,4,AA,A0,FF,C0,00,00,00,00,
28467300,000001A1,false,Rx,0,8,AD,03,CE,14,05,0C,80,20,
28467577,00000428,false,Rx,0,8,00,00,00,7F,00,00,80,00,
28467728,0000042F,false,Rx,0,2,00,20,00,00,00,00,00,00,
28470316,00000423,false,Rx,0,8,07,1E,00,01,B2,80,5D,C6,
28472472,0000019F,false,Rx,0,8,00,00,7D,0E,00,6A,90,FE,
28473117,00000155,false,Rx,0,8,3E,87,D0,54,59,A8,02,B5,
28473220,00000424,false,Rx,0,8,11,40,56,C0,2D,5E,AA,2E,
28473475,00000425,false,Rx,0,8,2A,69,44,9C,42,0C,B1,05,
28474689,00000157,false,Rx,0,8,D5,D7,09,C4,FF,E0,00,80,
28474698,00000426,false,Rx,0,8,00,68,03,00,59,5C,00,40,
28476941,000001C7,false,Rx,0,4,AA,A0,FF,C0,00,00,00,00,
28477122,00000445,false,Rx,0,7,80,DF,55,65,04,82,00,00,
28477490,000001A1,false,Rx,0,8,AD,03,CE,14,05,0C,80,20,
28482467,0000019F,false,Rx,0,8,00,00,7D,03,00,6A,90,FE,
28483127,00000155,false,Rx,0,8,3E,87,CF,54,59,A8,02,B5,
28484540,00000157,false,Rx,0,8,D5,27,09,C4,FF,E0,00,80,
28486991,000001C7,false,Rx,0,4,AA,A0,FF,C0,00,00,00,00,
28487228,000001A1,false,Rx,0,8,AD,03,BA,14,05,0C,80,20,
28490372,00000435,false,Rx,0,8,FF,FF,1E,A9,2A,00,00,00,
28492466,0000019F,false,Rx,0,8,00,00,7D,08,00,6A,90,FE,
28492473,00000419,false,Rx,0,6,54,00,28,E6,30,00,00,00,
28493214,00000155,false,Rx,0,8,3E,87,D0,54,59,A8,02,B5,
28494743,00000157,false,Rx,0,8,D5,77,09,C4,FF,E0,00,80,
28494752,00000436,false,Rx,0,6,80,18,76,CB,FF,DC,00,00,
28497019,000001C7,false,Rx,0,4,AA,A0,FF,C0,00,00,00,00,
28497248,000001A1,false,Rx,0,8,AD,43,CE,14,05,0C,80,20,
28502466,0000019F,false,Rx,0,8,00,00,7D,0D,00,6A,90,FE,
28503216,00000155,false,Rx,0,8,3E,87,D0,54,59,A8,02,B6,
28504701,00000157,false,Rx,0,8,D5,C7,09,C4,FF,E0,00,80,
28507022,000001C7,false,Rx,0,4,AA,A0,FF,C0,00,00,00,00,
28507248,000001A1,false,Rx,0,8,AD,03,CE,14,05,0C,80,20,
28512476,0000019F,false,Rx,0,8,00,00,7D,02,00,6A,90,FE,
28513317,00000155,false,Rx,0,8,3E,87,D0,54,59,A8,02,B5,
28514614,00000157,false,Rx,0,8,D5,17,09,C4,FF,E0,00,80,
28517044,000001C7,false,Rx,0,4,AA,A0,FF,C0,00,00,00,00,
28517252,000001A1,false,Rx,0,8,AD,43,BA,14,05,0C,80,20,
28522464,0000019F,false,Rx,0,8,00,00,7D,07,00,6A,90,FE,
28523239,00000155,false,Rx,0,8,3E,87,D0,54,59,A8,02,B6,
28524648,00000157,false,Rx,0,8,D5,67,09,C4,FF,E0,00,80,
28526928,000001C7,false,Rx,0,4,AA,A0,FF,C0,00,00,00,00,
28527275,000001A1,false,Rx,0,8,AD,43,BA,14,05,0C,80,20,
28532475,0000019F,false,Rx,0,8,00,00,7D,0C,00,6A,90,FE,
28533137,00000155,false,Rx,0,8,3E,87,D0,54,59,A8,02,B6,
28534691,00000157,false,Rx,0,8,D5,B7,09,C4,FF,E0,00,80,
28536998,000001C7,false,Rx,0,4,AA,A0,FF,C0,00,00,00,00,
28537288,000001A1,false,Rx,0,8,AD,03,BA,14,05,0C,80,20,
28542283,0000019F,false,Rx,0,8,00,00,7D,01,00,6A,90,FE,
28542531,00000511,false,Rx,0,7,04,7B,22,31,E1,30,BB,00,
28543076,00000155,false,Rx,0,8,3E,87,D0,54,59,A8,02,B6,
28544551,00000157,false,Rx,0,8,D5,07,09,C4,FF,E0,00,80,
28546821,000001C7,false,Rx,0,4,AA,A0,FF,C0,00,00,00,00,
28547245,000001A1,false,Rx,0,8,AD,03,CE,14,05,0C,80,20,
28552271,0000019F,false,Rx,0,8,00,00,7D,06,00,6A,90,FE,
28553071,00000155,false,Rx,0,8,3E,87,D0,54,59,A8,02,B5,
28554421,00000157,false,Rx,0,8,D5,57,09,C4,FF,E0,00,80,
28556846,000001C7,false,Rx,0,4,AA,A0,FF,C0,00,00,00,00,
28557245,000001A1,false,Rx,0,8,AD,03,CE,14,05,0C,80,20,
28562273,0000019F,false,Rx,0,8,00,00,7D,0B,00,6A,90,FE,
28562976,00000155,false,Rx,0,8,3E,87,D0,54,59,A8,02,B6,
28564502,00000157,false,Rx,0,8,D5,A7,09,C4,FF,E0,00,80,
28564825,0000069F,false,Rx,0,4,71,30,28,2F,00,00,00,00,
28566927,000004F7,false,Rx,0,8,00,19,0C,00,90,20,06,F0,
28567129,000001C7,false,Rx,0,4,AA,A0,FF,C0,00,00,00,00,
28567380,000001A1,false,Rx,0,8,AD,03,BA,14,05,0C,80,20,
28567632,00000428,false,Rx,0,8,00,00,00,7F,00,00,80,00,
28567771,0000042F,false,Rx,0,2,00,20,00,00,00,00,00,00,
28570248,00000423,false,Rx,0,8,07,1E,00,01,5D,80,B2,C6,
28572246,0000019F,false,Rx,0,8,00,00,7D,00,00,6A,90,FE,
28572983,00000155,false,Rx,0,8,3E,87,CF,54,59,A8,02,B5,
28573202,00000424,false,Rx,0,8,11,40,56,C0,2D,5E,55,2E,
28573410,00000425,false,Rx,0,8,2A,69,44,9C,42,0C,B1,05,
28574477,00000157,false,Rx,0,8,D5,F7,09,C4,FF,E0,00,80,
28574704,00000426,false,Rx,0,8,00,68,03,00,59,5C,00,40,
28576846,000001C7,false,Rx,0,4,AA,A0,FF,C0,00,00,00,00,
28577171,00000445,false,Rx,0,7,80,DF,AA,65,04,82,00,00,
28577423,000001A1,false,Rx,0,8,AD,03,BA,14,05,0C,80,20,
28582231,0000019F,false,Rx,0,8,00,00,7D,05,00,6A,90,FE,
28582948,00000155,false,Rx,0,8,3E,87,D0,54,59,A8,02,B6,
28584375,00000157,false,Rx,0,8,D5,47,09,C4,FF,E0,00,80,
28586800,000001C7,false,Rx,0,4,AA,A0,FF,C0,00,00,00,00,
28587199,000001A1,false,Rx,0,8,AD,03,BA,14,05,0C,80,20,
28590200,00000435,false,Rx,0,8,FF,FF,1E,A9,2A,00,00,00,
28592228,0000019F,false,Rx,0,8,00,00,7D,0A,00,6A,90,FE,
28592473,00000419,false,Rx,0,6,54,00,28,E6,30,00,00,00,
28592945,00000155,false,Rx,0,8,3E,87,D0,54,59,A8,02,B5,
28594416,00000157,false,Rx,0,8,D5,97,09,C4,FF,E0,00,80,
28594618,00000436,false,Rx,0,6,80,18,76,CB,FF,DC,00,00,
28596826,000001C7,false,Rx,0,4,AA,A0,FF,C0,00,00,00,00,
28597212,000001A1,false,Rx,0,8,AD,03,CE,14,05,0C,80,20,
28602246,0000019F,false,Rx,0,8,00,00,7D,0F,00,6A,90,FE,
28602944,00000155,false,Rx,0,8,3E,87,D0,54,59,A8,02,B5,
28604388,00000157,false,Rx,0,8,D5,E7,09,C4,FF,E0,00,80,
28606839,000001C7,false,Rx,0,4,AA,A0,FF,C0,00,00,00,00,
28607212,000001A1,false,Rx,0,8,AD,03,BA,14,05,0C,80,20,
28612239,0000019F,false,Rx,0,8,00,00,7D,04,00,6A,90,FE,
28613036,00000155,false,Rx,0,8,3E,87,CF,54,59,A8,02,B6,
28614386,00000157,false,Rx,0,8,D5,37,09,C4,FF,E0,00,80,
28616836,000001C7,false,Rx,0,4,AA,A0,FF,C0,00,00,00,00,
28617225,000001A1,false,Rx,0,8,AD,43,CE,14,05,0C,80,20,
28622267,0000019F,false,Rx,0,8,00,00,7D,09,00,6A,90,FE,
28623068,00000155,false,Rx,0,8,3E,87,D0,54,59,A8,02,B5,
28624416,00000157,false,Rx,0,8,D5,87,09,C4,FF,E0,00,80,
28626853,000001C7,false,Rx,0,4,AA,A0,FF,C0,00,00,00,00,
28627277,000001A1,false,Rx,0,8,AD,03,CE,14,05,0C,80,20,
28632267,0000019F,false,Rx,0,8,00,00,7D,0E,00,6A,90,FE,
28633066,00000155,false,Rx,0,8,3E,87,D0,54,59,A8,02,B5,
28634517,00000157,false,Rx,0,8,D5,D7,09,C4,FF,E0,00,80,
28636855,000001C7,false,Rx,0,4,AA,A0,FF,C0,00,00,00,00,
28637199,000001A1,false,Rx,0,8,AD,43,CE,14,05,0C,80,20,
28642225,0000019F,false,Rx,0,8,00,00,7D,03,00,6A,90,FE,
28642495,00000511,false,Rx,0,7,04,BA,EB,EA,4C,3D,9E,00,
28643023,00000155,false,Rx,0,8,3E,87,D0,54,59,A8,02,B6,
28644424,00000157,false,Rx,0,8,D5,27,09,C4,FF,E0,00,80,
28646850,000001C7,false,Rx,0,4,AA,A0,FF,C0,00,00,00,00,
28647198,000001A1,false,Rx,0,8,AD,43,BA,14,05,0C,80,20,
28652234,0000019F,false,Rx,0,8,00,00,7D,08,00,6A,90,FE,
28652936,00000155,false,Rx,0,8,3E,87,CF,54,59,A8,02,B6,
28654362,00000157,false,Rx,0,8,D5,77,09,C4,FF,E0,00,80,
28656861,000001C7,false,Rx,0,4,AA,A0,FF,C0,00,00,00,00,
28657231,000001A1,false,Rx,0,8,AD,03,BA,14,05,0C,80,20,
28662302,0000019F,false,Rx,0,8,00,00,7D,0D,00,6A,90,FE,
28662914,00000155,false,Rx,0,8,3E,87,CF,54,59,A8,02,B5,
28664418,00000157,false,Rx,0,8,D5,C7,09,C4,FF,E0,00,80,
28666936,000004F7,false,Rx,0,8,00,19,0C,00,90,20,06,F0,
28667155,000001C7,false,Rx,0,4,AA,A0,FF,C0,00,00,00,00,
28667408,000001A1,false,Rx,0,8,AD,03,CE,14,05,0C,80,20,
28667635,00000428,false,Rx,0,8,00,00,00,7F,00,00,80,00,
28667837,0000042F,false,Rx,0,2,00,20,00,00,00,00,00,00,
28670496,00000423,false,Rx,0,8,07,1E,00,01,5D,80,B2,C6,
28672393,0000019F,false,Rx,0,8,00,00,7D,02,00,6A,90,FE,
28672983,00000155,false,Rx,0,8,3E,87,D0,54,59,A8,02,B5,
28673233,00000424,false,Rx,0,8,11,40,56,C0,2D,5E,55,2E,
28673409,00000425,false,Rx,0,8,2A,69,44,9C,42,0A,B1,05,
28674492,00000157,false,Rx,0,8,D5,17,09,C4,FF,E0,00,80,
28674750,00000426,false,Rx,0,8,00,68,03,00,59,5C,00,40,
28676947,000001C7,false,Rx,0,4,AA,A0,FF,C0,00,00,00,00,
28677119,00000445,false,Rx,0,7,80,DF,AA,65,04,82,00,00,
28677386,000001A1,false,Rx,0,8,AD,43,CE,14,05,0C,80,20,
28682382,0000019F,false,Rx,0,8,00,00,7D,07,00,6A,90,FE,
28683013,00000155,false,Rx,0,8,3E,87,CF,54,59,A8,02,B5,
28684515,00000157,false,Rx,0,8,D5,67,09,C4,FF,E0,00,80,
28686955,000001C7,false,Rx,0,4,AA,A0,FF,C0,00,00,00,00,
28687312,000001A1,false,Rx,0,8,AC,C3,BA,14,05,0C,80,20,
28690409,00000435,false,Rx,0,8,FF,FF,1E,A9,2A,00,00,00,
28692411,0000019F,false,Rx,0,8,00,00,7D,0C,00,6A,90,FE,
28692542,00000419,false,Rx,0,6,54,00,28,E6,30,00,00,00,
28693104,00000155,false,Rx,0,8,3E,87,D0,54,59,A8,02,B5,
28694466,00000157,false,Rx,0,8,D5,B7,09,C4,FF,E0,00,80,
28694660,00000436,false,Rx,0,6,80,18,76,CB,FF,DC,00,00,
28697060,000001C7,false,Rx,0,4,AA,A0,FF,C0,00,00,00,00,
28697263,000001A1,false,Rx,0,8,AD,03,BA,14,05,0C,80,20,
28702404,0000019F,false,Rx,0,8,00,00,7D,01,00,6A,90,FE,
28703119,00000155,false,Rx,0,8,3E,87,D0,54,59,A8,02,B5,
28704749,00000157,false,Rx,0,8,D5,07,09,C4,FF,E0,00,80,
28707146,000001C7,false,Rx,0,4,AA,A0,FF,C0,00,00,00,00,
28707296,000001A1,false,Rx,0,8,AD,03,CE,14,05,0C,80,20,
28712499,0000019F,false,Rx,0,8,00,00,7D,06,00,6A,90,FE,
28713077,00000155,false,Rx,0,8,3E,87,CF,54,59,A8,02,B6,
28714381,00000157,false,Rx,0,8,D5,57,09,C4,FF,E0,00,80,
28716879,000001C7,false,Rx,0,4,AA,A0,FF,C0,00,00,00,00,
28717395,000001A1,false,Rx,0,8,AD,03,BA,14,05,0C,80,20,
28722492,0000019F,false,Rx,0,8,00,00,7D,0B,00,6A,90,FE,
28723213,00000155,false,Rx,0,8,3E,87,D0,54,59,A8,02,B5,
28724595,00000157,false,Rx,0,8,D5,A7,09,C4,FF,E0,00,80,
28727119,000001C7,false,Rx,0,4,AA,A0,FF,C0,00,00,00,00,
28727239,000001A1,false,Rx,0,8,AD,03,CE,14,05,0C,80,20,
28732547,0000019F,false,Rx,0,8,00,00,7D,00,00,6A,90,FE,
28733113,00000155,false,Rx,0,8,3E,87,D0,54,59,A8,02,B5,
28734616,00000157,false,Rx,0,8,D5,F7,09,C4,FF,E0,00,80,
28737022,000001C7,false,Rx,0,4,AA,A0,FF,C0,00,00,00,00,
28737319,000001A1,false,Rx,0,8,AD,03,CE,14,05,0C,80,20,
28742490,0000019F,false,Rx,0,8,00,00,7D,05,00,6A,90,FE,
28742535,00000511,false,Rx,0,7,04,F9,B4,A3,B7,4A,81,00,
28743291,00000155,false,Rx,0,8,3E,87,D0,54,59,A8,02,B5,
28744717,00000157,false,Rx,0,8,D5,47,09,C4,FF,E0,00,80,
28747116,000001C7,false,Rx,0,4,AA,A0,FF,C0,00,00,00,00,
28747239,000001A1,false,Rx,0,8,AD,03,CE,14,05,0C,80,20,
28752531,0000019F,false,Rx,0,8,00,00,7D,0A,00,6A,90,FE,
28753241,00000155,false,Rx,0,8,3E,87,CF,54,59,A8,02,B6,
28754646,00000157,false,Rx,0,8,D5,97,09,C4,FF,E0,00,80,
28757084,000001C7,false,Rx,0,4,AA,A0,FF,C0,00,00,00,00,
28757239,000001A1,false,Rx,0,8,AD,43,CE,14,05,0C,80,20,
28762527,0000019F,false,Rx,0,8,00,00,7D,0F,00,6A,90,FE,
28763129,00000155,false,Rx,0,8,3E,87,CF,54,59,A8,02,B6,
28764740,00000157,false,Rx,0,8,D5,E7,09,C4,FF,E0,00,80,
28767061,000004F7,false,Rx,0,8,00,19,0C,00,90,20,06,F0,
28767141,000001C7,false,Rx,0,4,AA,A0,FF,C0,00,00,00,00,
28767453,000001A1,false,Rx,0,8,AD,43,CE,14,05,0C,80,20,
28767653,00000428,false,Rx,0,8,00,00,00,7F,00,00,80,00,
28767885,0000042F,false,Rx,0,2,00,20,00,00,00,00,00,00,
28770492,00000423,false,Rx,0,8,07,1E,00,01,5D,80,B2,C6,
28772519,0000019F,false,Rx,0,8,00,00,7D,04,00,6A,90,FE,
28773087,00000155,false,Rx,0,8,3E,87,D0,54,59,A8,02,B6,
28773191,00000424,false,Rx,0,8,11,40,56,C0,2D,5E,55,2E,
28773556,00000425,false,Rx,0,8,2A,69,44,9C,42,0C,B1,05,
28774615,00000157,false,Rx,0,8,D5,37,09,C4,FF,E0,00,80,
28774769,00000426,false,Rx,0,8,00,68,03,00,59,5C,00,40,
28776970,000001C7,false,Rx,0,4,AA,A0,FF,C0,00,00,00,00,
28777130,00000445,false,Rx,0,7,80,DF,AA,65,04,82,00,00,
28777500,000001A1,false,Rx,0,8,AD,03,BA,14,05,0C,80,20,
28782517,0000019F,false,Rx,0,8,00,00,7D,09,00,6A,90,FE,
28783092,00000155,false,Rx,0,8,3E,87,D0,54,59,A8,02,B6,
28784720,00000157,false,Rx,0,8,D5,87,09,C4,FF,E0,00,80,
28787040,000001C7,false,Rx,0,4,AA,A0,FF,C0,00,00,00,00,
28787308,000001A1,false,Rx,0,8,AD,03,CE,14,05,0C,80,20,
28790217,00000435,false,Rx,0,8,FF,FF,1E,A9,2A,00,00,00,
28792300,0000019F,false,Rx,0,8,00,00,7D,0E,00,6A,90,FE,
28792574,00000419,false,Rx,0,6,54,00,28,E6,30,00,00,00,
28792975,00000155,false,Rx,0,8,3E,87,D0,54,59,A8,02,B6,
28794452,00000157,false,Rx,0,8,D5,D7,09,C4,FF,E0,00,80,
28794673,00000436,false,Rx,0,6,80,18,76,CB,FF,DC,00,00,
28796922,000001C7,false,Rx,0,4,AA,A0,FF,C0,00,00,00,00,
28797296,000001A1,false,Rx,0,8,AD,03,CE,14,05,0C,80,20,
28802297,0000019F,false,Rx,0,8,00,00,7D,03,00,6A,90,FE,
28802980,00000155,false,Rx,0,8,3E,87,CF,54,59,A8,02,B6,
