Time Stamp,ID,Extended,Dir,Bus,LEN,D1,D2,D3,D4,D5,D6,D7,D8
16370034,00000423,false,Rx,0,8,30,7F,FF,FF,FF,E0,FF,FF,
16421062,00000423,false,Rx,0,8,33,7F,FF,FF,FF,E0,FF,FF,
16432538,00000423,false,Rx,0,8,07,1E,00,01,B2,80,B2,C9,
16437586,00000426,false,Rx,0,8,00,00,02,00,53,18,00,40,
16439000,000001A1,false,Rx,0,8,FF,FF,FF,FF,FE,FC,00,20,
16440549,00000445,false,Rx,0,7,80,DF,AA,65,04,82,00,00,
16444022,0000019F,false,Rx,0,8,FF,FF,FF,FF,00,06,00,FE,
16447605,00000157,false,Rx,0,8,D5,57,09,C4,FF,E0,00,80,
16449000,000001A1,false,Rx,0,8,FF,FF,FF,FF,FE,FC,00,20,
16452578,00000435,false,Rx,0,8,FF,FF,1E,EB,FF,FC,00,00,
16453996,0000019F,false,Rx,0,8,FF,FF,FF,F4,00,06,00,FE,
16454189,00000419,false,Rx,0,6,00,00,00,00,00,00,00,00,
16457502,00000157,false,Rx,0,8,D5,A7,09,C4,FF,E0,00,80,
16457702,00000436,false,Rx,0,6,80,16,64,39,FF,DC,00,00,
16458996,000001A1,false,Rx,0,8,FF,FF,FF,FF,FE,FC,00,20,
16461145,000004F7,false,Rx,0,8,00,7F,00,00,09,FC,06,F0,
16461317,000001C7,false,Rx,0,4,00,80,FF,C0,00,00,00,00,
16461569,00000428,false,Rx,0,8,00,00,00,7F,00,00,00,00,
16461748,0000042F,false,Rx,0,2,00,00,00,00,00,00,00,00,
16463995,0000019F,false,Rx,0,8,FF,FF,FF,F9,00,06,00,FE,
16467647,00000157,false,Rx,0,8,D5,F7,09,C4,FF,E0,00,80,
16468995,000001A1,false,Rx,0,8,FF,FF,FF,FF,FE,FC,00,20,
16471081,000001C7,false,Rx,0,4,AA,A0,FF,C0,00,00,00,00,
16474027,0000019F,false,Rx,0,8,FF,FF,FF,FE,00,06,00,FE,
16477564,00000157,false,Rx,0,8,D5,47,09,C4,FF,E0,00,80,
16479002,000001A1,false,Rx,0,8,FF,FF,FF,FF,FE,FC,00,20,
16481071,000001C7,false,Rx,0,4,AA,A0,FF,C0,00,00,00,00,
16483996,0000019F,false,Rx,0,8,FF,FF,FF,F3,00,06,00,FE,
16487647,00000157,false,Rx,0,8,D5,97,09,C4,FF,E0,00,80,
16489007,000001A1,false,Rx,0,8,FF,FF,FF,FF,FE,FC,00,20,
16491078,000001C7,false,Rx,0,4,AA,A0,FF,C0,00,00,00,00,
16493996,0000019F,false,Rx,0,8,FF,FF,FF,F8,00,06,00,FE,
16497617,00000157,false,Rx,0,8,D5,E7,09,C4,FF,E0,00,80,
16499006,000001A1,false,Rx,0,8,FF,FF,FF,FF,FE,FC,00,20,
16501109,000001C7,false,Rx,0,4,AA,A0,FF,C0,00,00,00,00,
16504013,0000019F,false,Rx,0,8,FF,FF,FF,FD,00,06,00,FE,
16507657,00000157,false,Rx,0,8,D5,37,09,C4,FF,E0,00,80,
16508996,000001A1,false,Rx,0,8,FF,FF,FF,FF,FE,FC,00,20,
16511093,000001C7,false,Rx,0,4,AA,A0,FF,C0,00,00,00,00,
16513999,0000019F,false,Rx,0,8,FF,FF,FF,F2,00,06,00,FE,
16517642,00000157,false,Rx,0,8,D5,87,09,C4,FF,E0,00,80,
16518992,000001A1,false,Rx,0,8,FF,FF,FF,FF,FE,FC,00,20,
16521094,000001C7,false,Rx,0,4,AA,A0,FF,C0,00,00,00,00,
16523990,0000019F,false,Rx,0,8,FF,FF,FF,F7,00,06,00,FE,
16527668,00000157,false,Rx,0,8,D5,D7,09,C4,FF,E0,00,80,
16528993,000001A1,false,Rx,0,8,FF,FF,FF,FF,FE,FC,00,20,
16531122,000001C7,false,Rx,0,4,AA,A0,FF,C0,00,00,00,00,
16532494,00000423,false,Rx,0,8,07,1E,00,01,B2,80,5D,C9,
16533995,0000019F,false,Rx,0,8,FF,FF,FF,FC,00,06,00,FE,
16537624,00000157,false,Rx,0,8,D5,27,09,C4,FF,E0,00,80,
16537871,00000426,false,Rx,0,8,00,00,02,00,53,18,00,40,
16538996,000001A1,false,Rx,0,8,FF,FF,FF,FF,FE,FC,00,20,
16540544,00000445,false,Rx,0,7,80,DF,55,65,04,82,00,00,
16541174,000001C7,false,Rx,0,4,AA,A0,FF,C0,00,00,00,00,
16543997,0000019F,false,Rx,0,8,FF,FF,FF,F1,00,06,00,FE,
16547525,00000157,false,Rx,0,8,D5,77,09,C4,FF,E0,00,80,
16548997,000001A1,false,Rx,0,8,FF,FF,FF,FF,FE,FC,00,20,
16551119,000001C7,false,Rx,0,4,AA,A0,FF,C0,00,00,00,00,
16552640,00000435,false,Rx,0,8,FF,FF,1E,EB,FF,FC,00,00,
16553988,0000019F,false,Rx,0,8,FF,FF,FF,F6,00,06,00,FE,
16554186,00000419,false,Rx,0,6,00,00,00,00,00,00,00,00,
16557668,00000157,false,Rx,0,8,D5,C7,09,C4,FF,E0,00,80,
16557888,00000436,false,Rx,0,6,80,16,64,39,FF,DC,00,00,
16558988,000001A1,false,Rx,0,8,FF,FF,FF,FF,FE,FC,00,20,
16561187,000004F7,false,Rx,0,8,00,1A,08,00,10,30,06,F0,
16561406,000001C7,false,Rx,0,4,AA,A0,FF,C0,00,00,00,00,
16561602,00000428,false,Rx,0,8,00,00,00,7F,00,00,00,00,
16561802,0000042F,false,Rx,0,2,00,20,00,00,00,00,00,00,
16563998,0000019F,false,Rx,0,8,FF,FF,FF,FB,00,06,00,FE,
16567518,00000157,false,Rx,0,8,D5,17,09,C4,FF,E0,00,80,
16568992,000001A1,false,Rx,0,8,FF,FF,FF,FF,FE,FC,00,20,
16571143,000001C7,false,Rx,0,4,AA,A0,FF,C0,00,00,00,00,
16573995,0000019F,false,Rx,0,8,FF,FF,FF,F0,00,06,00,FE,
16577628,00000157,false,Rx,0,8,D5,67,09,C4,FF,E0,00,80,
16578996,000001A1,false,Rx,0,8,FF,FF,FF,FF,FE,FC,00,20,
16581148,000001C7,false,Rx,0,4,AA,A0,FF,C0,00,00,00,00,
16583997,0000019F,false,Rx,0,8,FF,FF,FF,F5,00,06,00,FE,
16587622,00000157,false,Rx,0,8,D5,B7,09,C4,FF,E0,00,80,
16589008,000001A1,false,Rx,0,8,FF,FF,FF,FF,FE,FC,00,20,
16591148,000001C7,false,Rx,0,4,AA,A0,FF,C0,00,00,00,00,
16593997,0000019F,false,Rx,0,8,FF,FF,FF,FA,00,06,00,FE,
16597497,00000157,false,Rx,0,8,D5,07,09,C4,FF,E0,00,80,
16599021,000001A1,false,Rx,0,8,78,04,72,C0,B5,0C,80,20,
16601146,000001C7,false,Rx,0,4,AA,A0,FF,C0,00,00,00,00,
16604047,0000019F,false,Rx,0,8,00,00,B7,3F,00,DB,90,FE,
16604297,00000511,false,Rx,0,7,04,FA,47,37,3E,B0,A7,00,
16607547,00000157,false,Rx,0,8,D5,57,09,C4,FF,E0,00,80,
16609022,000001A1,false,Rx,0,8,00,45,D4,2D,85,0C,80,20,
16611146,000001C7,false,Rx,0,4,AA,A0,FF,C0,00,00,00,00,
16614048,0000019F,false,Rx,0,8,00,00,97,94,00,2F,90,FE,
16617500,00000157,false,Rx,0,8,D5,A7,09,C4,FF,E0,00,80,
16619022,000001A1,false,Rx,0,8,00,44,F8,14,26,0C,80,20,
16621152,000001C7,false,Rx,0,4,AA,A0,FF,C0,00,00,00,00,
16624023,0000019F,false,Rx,0,8,00,00,89,29,00,96,90,FE,
16627697,00000157,false,Rx,0,8,D5,F7,09,C4,FF,E0,00,80,
16629021,000001A1,false,Rx,0,8,00,44,F8,14,06,0C,80,20,
16631146,000001C7,false,Rx,0,4,AA,A0,FF,C0,00,00,00,00,
16632595,00000423,false,Rx,0,8,07,1E,00,01,B2,80,5D,C9,
16634021,0000019F,false,Rx,0,8,00,00,82,9E,00,8E,90,FE,
16637646,00000157,false,Rx,0,8,D5,47,09,C4,FF,E0,00,80,
16637898,00000426,false,Rx,0,8,00,08,02,00,53,18,00,40,
16639226,000001A1,false,Rx,0,8,00,44,F8,14,06,0C,80,20,
16640830,00000445,false,Rx,0,7,80,DF,55,65,04,82,00,00,
16641309,000001C7,false,Rx,0,4,AA,A0,FF,C0,00,00,00,00,
16644328,0000019F,false,Rx,0,8,00,00,7F,83,00,4E,90,FE,
16647833,00000157,false,Rx,0,8,D5,97,09,C4,FF,E0,00,80,
16649308,000001A1,false,Rx,0,8,00,44,F8,14,06,0C,80,20,
16651409,000001C7,false,Rx,0,4,AA,A0,FF,C0,00,00,00,00,
16652771,00000435,false,Rx,0,8,FF,FF,1E,EB,FF,FC,00,00,
16654259,0000019F,false,Rx,0,8,00,00,7E,28,00,E9,90,FE,
16654311,00000419,false,Rx,0,6,A0,FF,C8,FF,28,00,00,00,
16657674,00000157,false,Rx,0,8,D5,E7,09,C4,FF,E0,00,80,
16657868,00000436,false,Rx,0,6,80,16,64,39,FF,DC,00,00,
16659023,000001A1,false,Rx,0,8,00,44,F8,14,06,0C,80,20,
16661434,000004F7,false,Rx,0,8,00,1A,08,00,90,30,06,F0,
16661440,000001C7,false,Rx,0,4,AA,A0,FF,C0,00,00,00,00,
16661746,00000428,false,Rx,0,8,00,00,00,7F,00,00,00,00,
16661893,0000042F,false,Rx,0,2,00,20,00,00,00,00,00,00,
16664304,0000019F,false,Rx,0,8,00,00,7D,8D,00,3D,90,FE,
16667515,00000157,false,Rx,0,8,D5,37,09,C4,FF,E0,00,80,
16669306,000001A1,false,Rx,0,8,00,44,F8,14,06,0C,80,20,
16671315,000001C7,false,Rx,0,4,AA,A0,FF,C0,00,00,00,00,
16674065,0000019F,false,Rx,0,8,00,00,7D,42,00,D6,90,FE,
16677616,00000157,false,Rx,0,8,D5,87,09,C4,FF,E0,00,80,
16679036,000001A1,false,Rx,0,8,00,44,F8,14,06,0C,80,20,
16681216,000001C7,false,Rx,0,4,AA,A0,FF,C0,00,00,00,00,
16684104,0000019F,false,Rx,0,8,00,00,7D,27,00,34,90,FE,
16687564,00000157,false,Rx,0,8,D5,D7,09,C4,FF,E0,00,80,
16689059,000001A1,false,Rx,0,8,00,44,F8,14,06,0C,80,20,
16691213,000001C7,false,Rx,0,4,AA,A0,FF,C0,00,00,00,00,
16694099,0000019F,false,Rx,0,8,00,00,7D,1C,00,45,90,FE,
16697527,00000157,false,Rx,0,8,D5,27,09,C4,FF,E0,00,80,
16699088,000001A1,false,Rx,0,8,00,44,F8,14,06,0C,80,20,
16701214,000001C7,false,Rx,0,4,AA,A0,FF,C0,00,00,00,00,
16704095,0000019F,false,Rx,0,8,00,00,7D,01,00,6A,90,FE,
16704348,00000511,false,Rx,0,7,04,39,10,F0,A9,BD,8A,00,
16707594,00000157,false,Rx,0,8,D5,77,09,C4,FF,E0,00,80,
16709095,000001A1,false,Rx,0,8,00,44,F8,14,06,0C,80,20,
16711220,000001C7,false,Rx,0,4,AA,A0,FF,C0,00,00,00,00,
16714095,0000019F,false,Rx,0,8,00,00,7D,06,00,6A,90,FE,
16717570,00000157,false,Rx,0,8,D5,C7,09,C4,FF,E0,00,80,
16719096,000001A1,false,Rx,0,8,00,44,F8,14,06,0C,80,20,
16721210,000001C7,false,Rx,0,4,AA,A0,FF,C0,00,00,00,00,
16724095,0000019F,false,Rx,0,8,00,00,7D,0B,00,6A,90,FE,
16727589,00000157,false,Rx,0,8,D5,17,09,C4,FF,E0,00,80,
16729094,000001A1,false,Rx,0,8,00,44,F8,14,06,0C,80,20,
16731258,000001C7,false,Rx,0,4,AA,A0,FF,C0,00,00,00,00,
16732496,00000423,false,Rx,0,8,07,1E,00,01,B2,80,5D,C9,
16734043,0000019F,false,Rx,0,8,00,00,7D,00,00,6A,90,FE,
16737494,00000157,false,Rx,0,8,D5,67,09,C4,FF,E0,00,80,
16737742,00000426,false,Rx,0,8,00,08,02,00,53,18,00,40,
16739041,000001A1,false,Rx,0,8,00,44,F8,14,06,0C,80,20,
16740544,00000445,false,Rx,0,7,80,DF,55,65,04,82,00,00,
16741192,000001C7,false,Rx,0,4,AA,A0,FF,C0,00,00,00,00,
16744043,0000019F,false,Rx,0,8,00,00,7D,05,00,6A,90,FE,
16747492,00000157,false,Rx,0,8,D5,B7,09,C4,FF,E0,00,80,
16749035,000001A1,false,Rx,0,8,00,44,F8,14,06,0C,80,20,
16751209,000001C7,false,Rx,0,4,AA,A0,FF,C0,00,00,00,00,
16752484,00000435,false,Rx,0,8,FF,FF,1E,0B,FF,FC,00,00,
16754060,0000019F,false,Rx,0,8,00,00,7D,0A,00,6A,90,FE,
16754311,00000419,false,Rx,0,6,FF,FF,FC,FF,FE,00,00,00,
16757563,00000157,false,Rx,0,8,D5,07,09,C4,FF,E0,00,80,
16757761,00000436,false,Rx,0,6,80,16,64,39,FF,DC,00,00,
16759059,000001A1,false,Rx,0,8,00,44,F8,14,06,0C,80,20,
16761284,000004F7,false,Rx,0,8,00,1A,08,00,90,30,06,F0,
16761482,000001C7,false,Rx,0,4,AA,A0,FF,C0,00,00,00,00,
16761760,00000428,false,Rx,0,8,00,00,00,7F,00,00,00,00,
16761937,0000042F,false,Rx,0,2,00,20,00,00,00,00,00,00,
16764058,0000019F,false,Rx,0,8,00,00,7D,0F,00,6A,90,FE,
16767685,00000157,false,Rx,0,8,D5,57,09,C4,FF,E0,00,80,
16769058,000001A1,false,Rx,0,8,00,44,F8,14,06,0C,80,20,
16771201,000001C7,false,Rx,0,4,AA,A0,FF,C0,00,00,00,00,
16774050,0000019F,false,Rx,0,8,00,00,7D,04,00,6A,90,FE,
16777575,00000157,false,Rx,0,8,D5,A7,09,C4,FF,E0,00,80,
16779049,000001A1,false,Rx,0,8,00,44,F8,14,06,0C,80,20,
16781234,000001C7,false,Rx,0,4,AA,A0,FF,C0,00,00,00,00,
16784064,0000019F,false,Rx,0,8,00,00,7D,09,00,6A,90,FE,
16787502,00000157,false,Rx,0,8,D5,F7,09,C4,FF,E0,00,80,
16789055,000001A1,false,Rx,0,8,00,44,F8,14,06,0C,80,20,
16791227,000001C7,false,Rx,0,4,AA,A0,FF,C0,00,00,00,00,
16794053,0000019F,false,Rx,0,8,00,00,7D,0E,00,6A,90,FE,
16797586,00000157,false,Rx,0,8,D5,47,09,C4,FF,E0,00,80,
16799061,000001A1,false,Rx,0,8,00,44,F8,14,06,0C,80,20,
16801234,000001C7,false,Rx,0,4,AA,A0,FF,C0,00,00,00,00,
16804060,0000019F,false,Rx,0,8,00,00,7D,03,00,6A,90,FE,
16804310,00000511,false,Rx,0,7,04,78,D9,A9,14,CA,6D,00,
16807636,00000157,false,Rx,0,8,D5,97,09,C4,FF,E0,00,80,
16809058,000001A1,false,Rx,0,8,00,44,F8,14,06,0C,80,20,
16811233,000001C7,false,Rx,0,4,AA,A0,FF,C0,00,00,00,00,
16814060,0000019F,false,Rx,0,8,00,00,7D,08,00,6A,90,FE,
16817530,00000157,false,Rx,0,8,D5,E7,09,C4,FF,E0,00,80,
16819079,000001A1,false,Rx,0,8,00,44,F8,14,06,0C,80,20,
16821282,000001C7,false,Rx,0,4,AA,A0,FF,C0,00,00,00,00,
16824080,0000019F,false,Rx,0,8,00,00,7D,0D,00,6A,90,FE,
16827607,00000157,false,Rx,0,8,D5,37,09,C4,FF,E0,00,80,
16829084,000001A1,false,Rx,0,8,00,44,F8,14,06,0C,80,20,
16831247,000001C7,false,Rx,0,4,AA,A0,FF,C0,00,00,00,00,
16832499,00000423,false,Rx,0,8,07,1E,00,01,B2,80,5D,BB,
16834063,0000019F,false,Rx,0,8,00,00,7D,02,00,6A,90,FE,
16837655,00000157,false,Rx,0,8,D5,87,09,C4,FF,E0,00,80,
16837868,00000155,false,Rx,0,8,FF,8F,FF,94,FF,F8,03,FF,
16838124,00000424,false,Rx,0,8,FF,FF,FF,FF,7F,7F,AA,7F,
16838352,00000425,false,Rx,0,8,1D,FF,4C,FF,FF,FF,FD,FF,
16838598,00000426,false,Rx,0,8,00,08,02,00,53,18,00,40,
16838827,000004AE,false,Rx,0,8,D2,B2,3C,A0,92,5A,88,FE,
16839079,000001A1,false,Rx,0,8,00,44,F8,14,06,0C,80,20,
16839258,000004AF,false,Rx,0,5,FF,FF,FF,BA,40,00,00,00,
16839448,00000659,false,Rx,0,4,FF,FF,FF,FF,00,00,00,00,
16840549,00000445,false,Rx,0,7,80,DF,55,65,04,82,00,00,
16841252,000001C7,false,Rx,0,4,AA,A0,FF,C0,00,00,00,00,
16844061,0000019F,false,Rx,0,8,00,00,7D,07,00,6A,90,FE,
16847611,00000157,false,Rx,0,8,D5,D7,09,C4,FF,E0,00,80,
16848836,00000155,false,Rx,0,8,FF,8F,FF,94,FF,F8,03,FF,
16849086,000001A1,false,Rx,0,8,00,45,0C,14,06,0C,80,20,
16851259,000001C7,false,Rx,0,4,AA,A0,FF,C0,00,00,00,00,
16852526,00000435,false,Rx,0,8,FF,FF,1E,0B,FF,FC,00,00,
16854050,0000019F,false,Rx,0,8,00,00,7D,0C,00,6A,90,FE,
16854299,00000419,false,Rx,0,6,FF,FF,FC,FF,FE,00,00,00,
16857624,00000157,false,Rx,0,8,D5,27,09,C4,FF,E0,00,80,
16857822,00000436,false,Rx,0,6,80,16,64,39,FF,DC,00,00,
16858798,00000155,false,Rx,0,8,FF,8F,FF,94,FF,F8,03,FF,
16859048,000001A1,false,Rx,0,8,00,44,F8,14,06,0C,80,20,
16861323,000004F7,false,Rx,0,8,00,1A,08,00,90,30,06,F0,
16861547,000001C7,false,Rx,0,4,AA,A0,FF,C0,00,00,00,00,
16861819,00000428,false,Rx,0,8,00,00,00,7F,00,00,00,00,
16862007,0000042F,false,Rx,0,2,00,20,00,00,00,00,00,00,
16864057,0000019F,false,Rx,0,8,00,00,7D,01,00,6A,90,FE,
16867633,00000157,false,Rx,0,8,D5,77,09,C4,FF,E0,00,80,
16868783,00000155,false,Rx,0,8,FF,8F,FF,94,FF,F8,03,FF,
16869059,000001A1,false,Rx,0,8,00,44,F8,14,06,0C,80,20,
16871258,000001C7,false,Rx,0,4,AA,A0,FF,C0,00,00,00,00,
16874058,0000019F,false,Rx,0,8,00,00,7D,06,00,6A,90,FE,
16877683,00000157,false,Rx,0,8,D5,C7,09,C4,FF,E0,00,80,
16878856,00000155,false,Rx,0,8,FF,8F,FF,94,FF,F8,03,FF,
16879081,000001A1,false,Rx,0,8,00,45,0C,14,06,0C,80,20,
16881284,000001C7,false,Rx,0,4,AA,A0,FF,C0,00,00,00,00,
16884082,0000019F,false,Rx,0,8,00,00,7D,0B,00,6A,90,FE,
16887610,00000157,false,Rx,0,8,D5,17,09,C4,FF,E0,00,80,
16889020,00000155,false,Rx,0,8,FF,8F,FF,94,FF,F8,03,FF,
16889289,000001A1,false,Rx,0,8,00,44,F8,14,06,0C,80,20,
16891311,000001C7,false,Rx,0,4,AA,A0,FF,C0,00,00,00,00,
16894082,0000019F,false,Rx,0,8,00,00,7D,00,00,6A,90,FE,
16897618,00000157,false,Rx,0,8,D5,67,09,C4,FF,E0,00,80,
16899097,000001A1,false,Rx,0,8,00,44,F8,14,06,0C,80,20,
16899323,00000155,false,Rx,0,8,FF,8F,FF,94,FF,F8,03,FF,
16901318,000001C7,false,Rx,0,4,AA,A0,FF,C0,00,00,00,00,
16904080,0000019F,false,Rx,0,8,00,00,7D,05,00,6A,90,FE,
16904346,00000511,false,Rx,0,7,04,B7,A2,62,7F,D7,50,00,
16907676,00000157,false,Rx,0,8,D5,B7,09,C4,FF,E0,00,80,
16909246,000001A1,false,Rx,0,8,00,44,F8,14,06,0C,80,20,
16909494,00000155,false,Rx,0,8,FF,8F,FF,94,FF,F8,03,FF,
16911352,000001C7,false,Rx,0,4,AA,A0,FF,C0,00,00,00,00,
16914099,0000019F,false,Rx,0,8,00,00,7D,0A,00,6A,90,FE,
16917571,00000157,false,Rx,0,8,D5,07,09,C4,FF,E0,00,80,
16919082,000001A1,false,Rx,0,8,00,44,F8,14,06,0C,80,20,
16919308,00000155,false,Rx,0,8,FF,8F,FF,94,FF,F8,03,FF,
16921335,000001C7,false,Rx,0,4,AA,A0,FF,C0,00,00,00,00,
16924083,0000019F,false,Rx,0,8,00,00,7D,0F,00,6A,90,FE,
16927725,00000157,false,Rx,0,8,D5,57,09,C4,FF,E0,00,80,
16929071,000001A1,false,Rx,0,8,00,44,F8,14,06,0C,80,20,
16929761,00000155,false,Rx,0,8,FF,8F,FF,94,FF,F8,03,FF,
16931310,000001C7,false,Rx,0,4,AA,A0,FF,C0,00,00,00,00,
16932611,00000423,false,Rx,0,8,07,1E,00,01,B2,80,5D,BA,
16934110,0000019F,false,Rx,0,8,00,00,7D,04,00,6A,90,FE,
16937551,00000157,false,Rx,0,8,D5,A7,09,C4,FF,E0,00,80,
16937798,00000155,false,Rx,0,8,FF,8F,FF,94,FF,F8,03,FF,
16938024,00000424,false,Rx,0,8,FF,FF,FF,FF,7F,7F,AA,7F,
16938273,00000425,false,Rx,0,8,1D,FF,4C,FF,FF,FF,FD,FF,
16938523,00000426,false,Rx,0,8,00,08,02,00,53,18,00,40,
16939048,000001A1,false,Rx,0,8,00,44,F8,14,06,0C,80,20,
16940547,00000445,false,Rx,0,7,80,DF,55,65,04,82,00,00,
16941300,000001C7,false,Rx,0,4,AA,A0,FF,C0,00,00,00,00,
16944050,0000019F,false,Rx,0,8,00,00,7D,09,00,6A,90,FE,
16947637,00000157,false,Rx,0,8,D5,F7,09,C4,FF,E0,00,80,
16947861,00000155,false,Rx,0,8,FF,8F,FF,94,FF,F8,03,FF,
16949058,000001A1,false,Rx,0,8,00,44,F8,14,06,0C,80,20,
16951309,000001C7,false,Rx,0,4,AA,A0,FF,C0,00,00,00,00,
16952634,00000435,false,Rx,0,8,FF,FF,1E,0B,FF,FC,00,00,
16954059,0000019F,false,Rx,0,8,00,00,7D,0E,00,6A,90,FE,
16954311,00000419,false,Rx,0,6,FF,FF,FC,FF,FE,00,00,00,
16957611,00000157,false,Rx,0,8,D5,47,09,C4,FF,E0,00,80,
16957838,00000155,false,Rx,0,8,FF,8F,FF,94,FF,F8,03,FF,
16958041,00000436,false,Rx,0,6,80,16,64,39,FF,DC,00,00,
16959059,000001A1,false,Rx,0,8,00,45,0C,14,06,0C,80,20,
16961428,000004F7,false,Rx,0,8,00,1A,08,00,90,30,06,F0,
16961606,000001C7,false,Rx,0,4,AA,A0,FF,C0,00,00,00,00,
16961884,00000428,false,Rx,0,8,00,00,00,7F,00,00,00,00,
16962087,0000042F,false,Rx,0,2,00,20,00,00,00,00,00,00,
16964059,0000019F,false,Rx,0,8,00,00,7D,03,00,6A,90,FE,
16967534,00000157,false,Rx,0,8,D5,97,09,C4,FF,E0,00,80,
16967786,00000155,false,Rx,0,8,FF,8F,FF,94,FF,F8,03,FF,
16969059,000001A1,false,Rx,0,8,00,44,F8,14,06,0C,80,20,
16971334,000001C7,false,Rx,0,4,AA,A0,FF,C0,00,00,00,00,
16974059,0000019F,false,Rx,0,8,00,00,7D,08,00,6A,90,FE,
16977627,00000157,false,Rx,0,8,D5,E7,09,C4,FF,E0,00,80,
16977874,00000155,false,Rx,0,8,FF,8F,FF,94,FF,F8,03,FF,
16979048,000001A1,false,Rx,0,8,00,45,0C,14,06,0C,80,20,
16981362,000001C7,false,Rx,0,4,AA,A0,FF,C0,00,00,00,00,
16984088,0000019F,false,Rx,0,8,00,00,7D,0D,00,6A,90,FE,
16987559,00000157,false,Rx,0,8,D5,37,09,C4,FF,E0,00,80,
16987883,00000155,false,Rx,0,8,FF,8F,FF,94,FF,F8,03,FF,
16989085,000001A1,false,Rx,0,8,00,44,F8,14,06,0C,80,20,
16991358,000001C7,false,Rx,0,4,AA,A0,FF,C0,00,00,00,00,
16994079,0000019F,false,Rx,0,8,00,00,7D,02,00,6A,90,FE,
16997664,00000157,false,Rx,0,8,D5,87,09,C4,FF,E0,00,80,
16997886,00000155,false,Rx,0,8,FF,8F,FF,94,FF,F8,03,FF,
16999060,000001A1,false,Rx,0,8,00,45,0C,14,06,0C,80,20,
17001336,000001C7,false,Rx,0,4,AA,A0,FF,C0,00,00,00,00,
17004045,0000019F,false,Rx,0,8,00,00,7D,07,00,6A,90,FE,
17004334,00000511,false,Rx,0,7,04,F6,6B,1B,EA,E4,33,00,
17007659,00000157,false,Rx,0,8,D5,D7,09,C4,FF,E0,00,80,
17007888,00000155,false,Rx,0,8,FF,8F,FF,94,FF,F8,03,FF,
17009057,000001A1,false,Rx,0,8,00,45,0C,14,06,0C,80,20,
17011334,000001C7,false,Rx,0,4,AA,A0,FF,C0,00,00,00,00,
17014050,0000019F,false,Rx,0,8,00,00,7D,0C,00,6A,90,FE,
17017552,00000157,false,Rx,0,8,D5,27,09,C4,FF,E0,00,80,
17017773,00000155,false,Rx,0,8,FF,8F,FF,94,FF,F8,03,FF,
17019050,000001A1,false,Rx,0,8,00,45,0C,14,06,0C,80,20,
17020350,0000069F,false,Rx,0,4,71,30,28,2F,00,00,00,00,
17021349,000001C7,false,Rx,0,4,AA,A0,FF,C0,00,00,00,00,
17024059,0000019F,false,Rx,0,8,00,00,7D,01,00,6A,90,FE,
17027560,00000157,false,Rx,0,8,D5,77,09,C4,FF,E0,00,80,
17027787,00000155,false,Rx,0,8,FF,8F,FF,94,FF,F8,03,FF,
17029059,000001A1,false,Rx,0,8,00,45,0C,14,06,0C,80,20,
17031360,000001C7,false,Rx,0,4,AA,A0,FF,C0,00,00,00,00,
17032459,00000423,false,Rx,0,8,07,1E,00,01,5D,80,B2,C6,
17034061,0000019F,false,Rx,0,8,00,00,7D,06,00,6A,90,FE,
17037685,00000157,false,Rx,0,8,D5,C7,09,C4,FF,E0,00,80,
17037912,00000155,false,Rx,0,8,FF,8F,FF,94,FF,F8,03,FF,
17038165,00000424,false,Rx,0,8,11,40,FF,FF,7F,5E,55,7F,
17038427,00000425,false,Rx,0,8,1D,FF,44,FF,FF,FF,FD,FF,
17038632,00000426,false,Rx,0,8,00,08,02,00,53,18,00,40,
17039061,000001A1,false,Rx,0,8,00,45,0C,14,06,0C,80,20,
17040610,00000445,false,Rx,0,7,80,DF,AA,65,04,82,00,00,
17041350,000001C7,false,Rx,0,4,AA,A0,FF,C0,00,00,00,00,
17044045,0000019F,false,Rx,0,8,00,00,7D,0B,00,6A,90,FE,
17047643,00000157,false,Rx,0,8,D5,17,09,C4,FF,E0,00,80,
17047894,00000155,false,Rx,0,8,FF,8F,FF,94,FF,F8,03,FF,
17049044,000001A1,false,Rx,0,8,00,44,F8,14,06,0C,80,20,
17051344,000001C7,false,Rx,0,4,AA,A0,FF,C0,00,00,00,00,
17052619,00000435,false,Rx,0,8,FF,FF,1E,0B,FF,FC,00,00,
17054044,0000019F,false,Rx,0,8,00,00,7D,00,00,6A,90,FE,
17054318,00000419,false,Rx,0,6,FF,FF,FC,FF,FE,00,00,00,
17057577,00000157,false,Rx,0,8,D5,67,09,C4,FF,E0,00,80,
17057822,00000155,false,Rx,0,8,FF,8F,FF,94,FF,F8,03,FF,
17058021,00000436,false,Rx,0,6,80,16,64,39,FF,DC,00,00,
17059068,000001A1,false,Rx,0,8,00,45,0C,14,06,0C,80,20,
17061426,000004F7,false,Rx,0,8,00,1A,08,00,90,30,06,F0,
17061601,000001C7,false,Rx,0,4,AA,A0,FF,C0,00,00,00,00,
17061853,00000428,false,Rx,0,8,00,00,00,7F,00,00,00,00,
17062031,0000042F,false,Rx,0,2,00,20,00,00,00,00,00,00,
17064049,0000019F,false,Rx,0,8,00,00,7D,05,00,6A,90,FE,
17067710,00000157,false,Rx,0,8,D5,B7,09,C4,FF,E0,00,80,
17067955,00000155,false,Rx,0,8,FF,8F,FF,94,FF,F8,03,FF,
17069155,000001A1,false,Rx,0,8,00,45,0C,14,06,0C,80,20,
17071433,000001C7,false,Rx,0,4,AA,A0,FF,C0,00,00,00,00,
17074060,0000019F,false,Rx,0,8,00,00,7D,0A,00,6A,90,FE,
17077624,00000157,false,Rx,0,8,D5,07,09,C4,FF,E0,00,80,
17077876,00000155,false,Rx,0,8,FF,8F,FF,94,FF,F8,03,FF,
17079043,000001A1,false,Rx,0,8,00,45,0C,14,06,0C,80,20,
17081411,000001C7,false,Rx,0,4,AA,A0,FF,C0,00,00,00,00,
17084083,0000019F,false,Rx,0,8,00,00,7D,0F,00,6A,90,FE,
17087570,00000157,false,Rx,0,8,D5,57,09,C4,FF,E0,00,80,
17087996,00000155,false,Rx,0,8,FF,8F,FF,94,FF,F8,03,FF,
17089218,000001A1,false,Rx,0,8,00,45,0C,14,06,0C,80,20,
17091494,000001C7,false,Rx,0,4,AA,A0,FF,C0,00,00,00,00,
17094225,0000019F,false,Rx,0,8,00,00,7D,04,00,6A,90,FE,
17097747,00000157,false,Rx,0,8,D5,A7,09,C4,FF,E0,00,80,
17097822,00000155,false,Rx,0,8,FF,8F,FF,94,FF,F8,03,FF,
17099203,000001A1,false,Rx,0,8,00,45,0C,14,06,0C,80,20,
17101472,000001C7,false,Rx,0,4,AA,A0,FF,C0,00,00,00,00,
17104209,0000019F,false,Rx,0,8,00,00,7D,09,00,6A,90,FE,
17104335,00000511,false,Rx,0,7,04,35,34,D4,55,F1,16,00,
17107927,00000157,false,Rx,0,8,D5,F7,09,C4,FF,E0,00,80,
17107934,00000155,false,Rx,0,8,FF,8F,FF,94,FF,F8,03,FF,
17109305,000001A1,false,Rx,0,8,00,45,0C,14,06,0C,80,20,
17111581,000001C7,false,Rx,0,4,AA,A0,FF,C0,00,00,00,00,
17114144,0000019F,false,Rx,0,8,00,00,7D,0E,00,6A,90,FE,
17117739,00000157,false,Rx,0,8,D5,47,09,C4,FF,E0,00,80,
17117824,00000155,false,Rx,0,8,FF,8F,FF,94,FF,F8,03,FF,
17119305,000001A1,false,Rx,0,8,00,45,0C,14,06,0C,80,20,
17121588,000001C7,false,Rx,0,4,AA,A0,FF,C0,00,00,00,00,
17124327,0000019F,false,Rx,0,8,00,00,7D,03,00,6A,90,FE,
17127931,00000157,false,Rx,0,8,D5,97,09,C4,FF,E0,00,80,
17127939,00000155,false,Rx,0,8,FF,8F,FF,94,FF,F8,03,FF,
17129191,000001A1,false,Rx,0,8,00,45,0C,14,06,0C,80,20,
17131469,000001C7,false,Rx,0,4,AA,A0,FF,C0,00,00,00,00,
17132589,00000423,false,Rx,0,8,07,1E,00,01,5D,80,B2,C6,
17134329,0000019F,false,Rx,0,8,00,00,7D,08,00,6A,90,FE,
17137833,00000157,false,Rx,0,8,D5,E7,09,C4,FF,E0,00,80,
17137841,00000155,false,Rx,0,8,FF,8F,FF,94,FF,F8,03,FF,
17138123,00000424,false,Rx,0,8,11,40,FF,FF,7F,5E,55,7F,
17138375,00000425,false,Rx,0,8,1D,FF,44,FF,FF,FF,FD,FF,
17138578,00000426,false,Rx,0,8,00,08,02,00,53,18,00,40,
17139317,000001A1,false,Rx,0,8,00,45,0C,14,06,0C,80,20,
17140752,00000445,false,Rx,0,7,80,DF,AA,65,04,82,00,00,
17141591,000001C7,false,Rx,0,4,AA,A0,FF,C0,00,00,00,00,
17144329,0000019F,false,Rx,0,8,00,00,7D,0D,00,6A,90,FE,
17147882,00000157,false,Rx,0,8,D5,37,09,C4,FF,E0,00,80,
17147890,00000155,false,Rx,0,8,FF,8F,FF,94,FF,F8,03,FF,
17149135,000001A1,false,Rx,0,8,00,45,0C,14,06,0C,80,20,
17151592,000001C7,false,Rx,0,4,AA,A0,FF,C0,00,00,00,00,
17152810,00000435,false,Rx,0,8,FF,FF,1E,0B,FF,FC,00,00,
17154312,0000019F,false,Rx,0,8,00,00,7D,02,00,6A,90,FE,
17154320,00000419,false,Rx,0,6,FF,FF,FC,FF,FE,00,00,00,
17157686,00000157,false,Rx,0,8,D5,87,09,C4,FF,E0,00,80,
17157906,00000155,false,Rx,0,8,FF,8F,FF,94,FF,F8,03,FF,
17158138,00000436,false,Rx,0,6,80,16,64,39,FF,DC,00,00,
17159317,000001A1,false,Rx,0,8,00,45,0C,14,06,0C,80,20,
17161583,000004F7,false,Rx,0,8,00,1A,08,00,90,30,06,F0,
17161660,000001C7,false,Rx,0,4,AA,A0,FF,C0,00,00,00,00,
17161958,00000428,false,Rx,0,8,00,00,00,7F,00,00,00,00,
17162096,0000042F,false,Rx,0,2,00,20,00,00,00,00,00,00,
17164347,0000019F,false,Rx,0,8,00,00,7D,07,00,6A,90,FE,
17167789,00000157,false,Rx,0,8,D5,D7,09,C4,FF,E0,00,80,
17167798,00000155,false,Rx,0,8,FF,8F,FF,94,FF,F8,03,FF,
17169211,000001A1,false,Rx,0,8,00,45,0C,14,06,0C,80,20,
17171587,000001C7,false,Rx,0,4,AA,A0,FF,C0,00,00,00,00,
17174330,0000019F,false,Rx,0,8,00,00,7D,0C,00,6A,90,FE,
17177913,00000157,false,Rx,0,8,D5,27,09,C4,FF,E0,00,80,
17177922,00000155,false,Rx,0,8,FF,8F,FF,94,FF,F8,03,FF,
17179105,000001A1,false,Rx,0,8,00,45,0C,14,06,0C,80,20,
17181476,000001C7,false,Rx,0,4,AA,A0,FF,C0,00,00,00,00,
17184096,0000019F,false,Rx,0,8,00,00,7D,01,00,6A,90,FE,
17187541,00000157,false,Rx,0,8,D5,77,09,C4,FF,E0,00,80,
17187832,00000155,false,Rx,0,8,FF,8F,FF,94,FF,F8,03,FF,
17189060,000001A1,false,Rx,0,8,00,45,0C,14,06,0C,80,20,
17191453,000001C7,false,Rx,0,4,AA,A0,FF,C0,00,00,00,00,
17194079,0000019F,false,Rx,0,8,00,00,7D,06,00,6A,90,FE,
17197533,00000157,false,Rx,0,8,D5,C7,09,C4,FF,E0,00,80,
17197830,00000155,false,Rx,0,8,FF,8F,FF,94,FF,F8,03,FF,
17199052,000001A1,false,Rx,0,8,00,45,0C,14,06,0C,80,20,
17201452,000001C7,false,Rx,0,4,AA,A0,FF,C0,00,00,00,00,
17204053,0000019F,false,Rx,0,8,00,00,7D,0B,00,6A,90,FE,
17204330,00000511,false,Rx,0,7,04,74,FD,8D,C0,FE,F9,00,
17207654,00000157,false,Rx,0,8,D5,17,09,C4,FF,E0,00,80,
17207881,00000155,false,Rx,0,8,FF,8F,FF,94,FF,F8,03,FF,
17209053,000001A1,false,Rx,0,8,00,45,0C,14,06,0C,80,20,
17211454,000001C7,false,Rx,0,4,AA,A0,FF,C0,00,00,00,00,
17214053,0000019F,false,Rx,0,8,00,00,7D,00,00,6A,90,FE,
17217559,00000157,false,Rx,0,8,D5,67,09,C4,FF,E0,00,80,
17217779,00000155,false,Rx,0,8,FF,8F,FF,94,FF,F8,03,FF,
17219054,000001A1,false,Rx,0,8,00,45,0C,14,06,0C,80,20,
17221454,000001C7,false,Rx,0,4,AA,A0,FF,C0,00,00,00,00,
17224053,0000019F,false,Rx,0,8,00,00,7D,05,00,6A,90,FE,
17227579,00000157,false,Rx,0,8,D5,B7,09,C4,FF,E0,00,80,
17227806,00000155,false,Rx,0,8,FF,8F,FF,94,FF,F8,03,FF,
17229053,000001A1,false,Rx,0,8,00,45,0C,14,06,0C,80,20,
17231478,000001C7,false,Rx,0,4,AA,A0,FF,C0,00,00,00,00,
17232503,00000423,false,Rx,0,8,07,1E,00,01,5D,80,B2,C7,
17234077,0000019F,false,Rx,0,8,00,00,7D,0A,00,6A,90,FE,
17237554,00000157,false,Rx,0,8,D5,07,09,C4,FF,E0,00,80,
17237797,00000155,false,Rx,0,8,FF,8F,FF,94,FF,F8,03,FF,
17238030,00000424,false,Rx,0,8,11,40,FF,FF,7F,5E,55,7F,
17238272,00000425,false,Rx,0,8,1D,FF,44,FF,FF,FF,FD,FF,
17238519,00000426,false,Rx,0,8,00,08,02,00,53,18,00,40,
17239046,000001A1,false,Rx,0,8,00,45,0C,14,06,0C,80,20,
17240523,00000445,false,Rx,0,7,80,DF,AA,65,04,82,00,00,
17241474,000001C7,false,Rx,0,4,AA,A0,FF,C0,00,00,00,00,
17244089,0000019F,false,Rx,0,8,00,00,7D,0F,00,6A,90,FE,
17247664,00000157,false,Rx,0,8,D5,57,09,C4,FF,E0,00,80,
17247879,00000155,false,Rx,0,8,FF,8F,FF,94,FF,F8,03,FF,
17249082,000001A1,false,Rx,0,8,00,45,0C,14,06,0C,80,20,
17251508,000001C7,false,Rx,0,4,AA,A0,FF,C0,00,00,00,00,
17252569,00000435,false,Rx,0,8,FF,FF,1E,0B,FF,FC,00,00,
17254089,0000019F,false,Rx,0,8,00,00,7D,04,00,6A,90,FE,
17254332,00000419,false,Rx,0,6,FF,FF,FC,FF,FE,00,00,00,
17257530,00000157,false,Rx,0,8,D5,A7,09,C4,FF,E0,00,80,
17257772,00000155,false,Rx,0,8,FF,8F,FF,94,FF,F8,03,FF,
17257971,00000436,false,Rx,0,6,80,16,64,39,FF,DC,00,00,
17259049,000001A1,false,Rx,0,8,00,45,0C,14,06,0C,80,20,
17261558,000004F7,false,Rx,0,8,00,1A,08,00,90,30,06,F0,
17261723,000001C7,false,Rx,0,4,AA,A0,FF,C0,00,00,00,00,
17261972,00000428,false,Rx,0,8,00,00,00,7F,00,00,00,00,
17262147,0000042F,false,Rx,0,2,00,20,00,00,00,00,00,00,
17264049,0000019F,false,Rx,0,8,00,00,7D,09,00,6A,90,FE,
17267529,00000157,false,Rx,0,8,D5,F7,09,C4,FF,E0,00,80,
17267747,00000155,false,Rx,0,8,FF,8F,FF,94,FF,F8,03,FF,
17269049,000001A1,false,Rx,0,8,00,45,0C,14,06,0C,80,20,
17271506,000001C7,false,Rx,0,4,AA,A0,FF,C0,00,00,00,00,
17274078,0000019F,false,Rx,0,8,00,00,7D,0E,00,6A,90,FE,
17277656,00000157,false,Rx,0,8,D5,47,09,C4,FF,E0,00,80,
17277897,00000155,false,Rx,0,8,FF,8F,FF,94,FF,F8,03,FF,
17279050,000001A1,false,Rx,0,8,00,45,0C,14,06,0C,80,20,
17281505,000001C7,false,Rx,0,4,AA,A0,FF,C0,00,00,00,00,
17284057,0000019F,false,Rx,0,8,00,00,7D,03,00,6A,90,FE,
17287580,00000157,false,Rx,0,8,D5,97,09,C4,FF,E0,00,80,
17287824,00000155,false,Rx,0,8,FF,8F,FF,94,FF,F8,03,FF,
17289050,000001A1,false,Rx,0,8,00,45,0C,14,06,0C,80,20,
17291505,000001C7,false,Rx,0,4,AA,A0,FF,C0,00,00,00,00,
17294090,0000019F,false,Rx,0,8,00,00,7D,08,00,6A,90,FE,
17297635,00000157,false,Rx,0,8,D5,E7,09,C4,FF,E0,00,80,
17297849,00000155,false,Rx,0,8,FF,8F,FF,94,FF,F8,03,FF,
17299048,000001A1,false,Rx,0,8,00,45,0C,14,06,0C,80,20,
17301503,000001C7,false,Rx,0,4,AA,A0,FF,C0,00,00,00,00,
17304077,0000019F,false,Rx,0,8,00,00,7D,0D,00,6A,90,FE,
17304324,00000511,false,Rx,0,7,04,B3,C6,46,2B,0B,DC,00,
17307503,00000157,false,Rx,0,8,D5,37,09,C4,FF,E0,00,80,
17307823,00000155,false,Rx,0,8,FF,8F,FF,94,FF,F8,03,FF,
17309053,000001A1,false,Rx,0,8,00,45,0C,14,06,0C,80,20,
17311530,000001C7,false,Rx,0,4,AA,A0,FF,C0,00,00,00,00,
17314053,0000019F,false,Rx,0,8,00,00,7D,02,00,6A,90,FE,
17317655,00000157,false,Rx,0,8,D5,87,09,C4,FF,E0,00,80,
17317899,00000155,false,Rx,0,8,FF,8F,FF,94,FF,F8,03,FF,
17319057,000001A1,false,Rx,0,8,00,45,0C,14,06,0C,80,20,
17321526,000001C7,false,Rx,0,4,AA,A0,FF,C0,00,00,00,00,
17324075,0000019F,false,Rx,0,8,00,00,7D,07,00,6A,90,FE,
17327505,00000157,false,Rx,0,8,D5,D7,09,C4,FF,E0,00,80,
17327751,00000155,false,Rx,0,8,FF,8F,FF,94,FF,F8,03,FF,
17329051,000001A1,false,Rx,0,8,00,45,0C,14,06,0C,80,20,
17331527,000001C7,false,Rx,0,4,AA,A0,FF,C0,00,00,00,00,
17332477,00000423,false,Rx,0,8,07,1E,00,01,5D,80,B2,C7,
17334053,0000019F,false,Rx,0,8,00,00,7D,0C,00,6A,90,FE,
17337582,00000157,false,Rx,0,8,D5,27,09,C4,FF,E0,00,80,
17337824,00000155,false,Rx,0,8,FF,8F,FF,94,FF,F8,03,FF,
17338049,00000424,false,Rx,0,8,11,40,FF,FF,7F,5E,55,7F,
17338300,00000425,false,Rx,0,8,1D,FF,44,FF,FF,FF,FD,FF,
17338524,00000426,false,Rx,0,8,00,08,02,00,53,18,00,40,
17339051,000001A1,false,Rx,0,8,00,45,0C,14,06,0C,80,20,
17340555,00000445,false,Rx,0,7,80,DF,AA,65,04,82,00,00,
17341551,000001C7,false,Rx,0,4,AA,A0,FF,C0,00,00,00,00,
17344054,0000019F,false,Rx,0,8,00,00,7D,01,00,6A,90,FE,
17347673,00000157,false,Rx,0,8,D5,77,09,C4,FF,E0,00,80,
17347898,00000155,false,Rx,0,8,FF,8F,FF,94,FF,F8,03,FF,
17349054,000001A1,false,Rx,0,8,00,45,0C,14,06,0C,80,20,
17351557,000001C7,false,Rx,0,4,AA,A0,FF,C0,00,00,00,00,
17352549,00000435,false,Rx,0,8,FF,FF,1E,0B,2E,FC,00,00,
17354048,0000019F,false,Rx,0,8,00,00,7D,06,00,6A,90,FE,
17354322,00000419,false,Rx,0,6,FF,FF,FC,FF,FE,00,00,00,
17357549,00000157,false,Rx,0,8,D5,C7,09,C4,FF,E0,00,80,
17357772,00000155,false,Rx,0,8,FF,8F,FF,94,FF,F8,03,FF,
17357973,00000436,false,Rx,0,6,80,16,64,39,FF,DC,00,00,
17359052,000001A1,false,Rx,0,8,00,45,0C,14,06,0C,80,20,
17361631,000004F7,false,Rx,0,8,00,1A,08,00,90,30,06,F0,
17361797,000001C7,false,Rx,0,4,AA,A0,FF,C0,00,00,00,00,
17362046,00000428,false,Rx,0,8,00,00,00,7F,00,00,00,00,
17362221,0000042F,false,Rx,0,2,00,20,00,00,00,00,00,00,
17364049,0000019F,false,Rx,0,8,00,00,7D,0B,00,6A,90,FE,
17367678,00000157,false,Rx,0,8,D5,17,09,C4,FF,E0,00,80,
17367924,00000155,false,Rx,0,8,FF,8F,FF,94,FF,F8,03,FF,
17369050,000001A1,false,Rx,0,8,00,45,0C,14,06,0C,80,20,
17371553,000001C7,false,Rx,0,4,AA,A0,FF,C0,00,00,00,00,
17374079,0000019F,false,Rx,0,8,00,00,7D,00,00,6A,90,FE,
17377654,00000157,false,Rx,0,8,D5,67,09,C4,FF,E0,00,80,
17377875,00000155,false,Rx,0,8,FF,8F,FF,94,FF,F8,03,FF,
17379050,000001A1,false,Rx,0,8,00,45,0C,14,06,0C,80,20,
17381580,000001C7,false,Rx,0,4,AA,A0,FF,C0,00,00,00,00,
17384079,0000019F,false,Rx,0,8,00,00,7D,05,00,6A,90,FE,
17387531,00000157,false,Rx,0,8,D5,B7,09,C4,FF,E0,00,80,
17387839,00000155,false,Rx,0,8,FF,8F,FF,94,FF,F8,03,FF,
17389050,000001A1,false,Rx,0,8,00,45,0C,14,06,0C,80,20,
17391580,000001C7,false,Rx,0,4,AA,A0,FF,C0,00,00,00,00,
17394057,0000019F,false,Rx,0,8,00,00,7D,0A,00,6A,90,FE,
17397579,00000157,false,Rx,0,8,D5,07,09,C4,FF,E0,00,80,
17397823,00000155,false,Rx,0,8,FF,8F,FF,94,FF,F8,03,FF,
17399051,000001A1,false,Rx,0,8,00,45,0C,14,06,0C,80,20,
17401582,000001C7,false,Rx,0,4,AA,A0,FF,C0,00,00,00,00,
17404055,0000019F,false,Rx,0,8,00,00,7D,0F,00,6A,90,FE,
17404326,00000511,false,Rx,0,7,04,F2,8F,FF,96,18,BF,00,
17407531,00000157,false,Rx,0,8,D5,57,09,C4,FF,E0,00,80,
17407774,00000155,false,Rx,0,8,FF,8F,FF,94,FF,F8,03,FF,
17409054,000001A1,false,Rx,0,8,00,45,0C,14,06,0C,80,20,
17411579,000001C7,false,Rx,0,4,AA,A0,FF,C0,00,00,00,00,
17414077,0000019F,false,Rx,0,8,00,00,7D,04,00,6A,90,FE,
17417630,00000157,false,Rx,0,8,D5,A7,09,C4,FF,E0,00,80,
17417847,00000155,false,Rx,0,8,FF,8F,FF,94,FF,F8,03,FF,
17418977,000001A1,false,Rx,0,8,00,45,0C,14,06,0C,80,20,
17421609,000001C7,false,Rx,0,4,AA,A0,FF,C0,00,00,00,00,
17424057,0000019F,false,Rx,0,8,00,00,7D,09,00,6A,90,FE,
17427583,00000157,false,Rx,0,8,D5,F7,09,C4,FF,E0,00,80,
17427802,00000155,false,Rx,0,8,FF,8F,FF,94,FF,F8,03,FF,
17428975,000001A1,false,Rx,0,8,00,45,0C,14,06,0C,80,20,
17431603,000001C7,false,Rx,0,4,AA,A0,FF,C0,00,00,00,00,
17432601,00000423,false,Rx,0,8,07,1E,00,01,5D,80,B2,C7,
17433982,0000019F,false,Rx,0,8,00,00,7D,0E,00,6A,90,FE,
17437511,00000157,false,Rx,0,8,D5,47,09,C4,FF,E0,00,80,
17437728,00000155,false,Rx,0,8,FF,8F,FF,94,FF,F8,03,FF,
17437975,00000424,false,Rx,0,8,11,40,FF,FF,7F,5E,55,7F,
17438234,00000425,false,Rx,0,8,1D,FF,44,FF,FF,FF,FD,FF,
17438452,00000426,false,Rx,0,8,00,08,02,00,53,18,00,40,
17438975,000001A1,false,Rx,0,8,00,45,0C,14,06,0C,80,20,
17440555,00000445,false,Rx,0,7,80,DF,AA,65,04,82,00,00,
17441600,000001C7,false,Rx,0,4,AA,A0,FF,C0,00,00,00,00,
17443985,0000019F,false,Rx,0,8,00,00,7D,03,00,6A,90,FE,
17447557,00000157,false,Rx,0,8,D5,97,09,C4,FF,E0,00,80,
17447801,00000155,false,Rx,0,8,FF,8F,FF,94,FF,F8,03,FF,
17448979,000001A1,false,Rx,0,8,00,45,0C,14,06,0C,80,20,
17451604,000001C7,false,Rx,0,4,AA,A0,FF,C0,00,00,00,00,
17452629,00000435,false,Rx,0,8,FF,FF,1E,0B,2E,FC,00,00,
17453983,0000019F,false,Rx,0,8,00,00,7D,08,00,6A,90,FE,
17454223,00000419,false,Rx,0,6,53,00,28,00,3E,00,00,00,
17457605,00000157,false,Rx,0,8,D5,E7,09,C4,FF,E0,00,80,
17457850,00000155,false,Rx,0,8,FF,8F,FF,94,FF,F8,03,FF,
17458049,00000436,false,Rx,0,6,80,16,64,39,FF,DC,00,00,
17458974,000001A1,false,Rx,0,8,00,45,0C,14,06,0C,80,20,
17461677,000004F7,false,Rx,0,8,00,1A,08,00,90,30,06,F0,
17461846,000001C7,false,Rx,0,4,AA,A0,FF,C0,00,00,00,00,
17462098,00000428,false,Rx,0,8,00,00,00,7F,00,00,00,00,
17462271,0000042F,false,Rx,0,2,00,20,00,00,00,00,00,00,
17463974,0000019F,false,Rx,0,8,00,00,7D,0D,00,6A,90,FE,
17467503,00000157,false,Rx,0,8,D5,37,09,C4,FF,E0,00,80,
17467774,00000155,false,Rx,0,8,FF,8F,FF,94,FF,F8,03,FF,
17468973,000001A1,false,Rx,0,8,00,45,0C,14,06,0C,80,20,
17471627,000001C7,false,Rx,0,4,AA,A0,FF,C0,00,00,00,00,
17473977,0000019F,false,Rx,0,8,00,00,7D,02,00,6A,90,FE,
17477480,00000157,false,Rx,0,8,D5,87,09,C4,FF,E0,00,80,
17477873,00000155,false,Rx,0,8,FF,87,D0,94,FF,F8,03,FF,
17478974,000001A1,false,Rx,0,8,00,44,F8,14,06,0C,80,20,
17481625,000001C7,false,Rx,0,4,AA,A0,FF,C0,00,00,00,00,
17483976,0000019F,false,Rx,0,8,00,00,7D,07,00,6A,90,FE,
17487602,00000157,false,Rx,0,8,D5,D7,09,C4,FF,E0,00,80,
17487847,00000155,false,Rx,0,8,FF,87,D0,94,FF,F8,02,C5,
17488974,000001A1,false,Rx,0,8,00,45,0C,14,06,0C,80,20,
17491600,000001C7,false,Rx,0,4,AA,A0,FF,C0,00,00,00,00,
17493977,0000019F,false,Rx,0,8,00,00,7D,0C,00,6A,90,FE,
17497653,00000157,false,Rx,0,8,D5,27,09,C4,FF,E0,00,80,
17497871,00000155,false,Rx,0,8,33,87,D0,94,96,F0,02,C5,
17498976,000001A1,false,Rx,0,8,00,45,0C,14,06,0C,80,20,
17501603,000001C7,false,Rx,0,4,AA,A0,FF,C0,00,00,00,00,
17503978,0000019F,false,Rx,0,8,00,00,7D,01,00,6A,90,FE,
17504248,00000511,false,Rx,0,7,04,31,58,B8,01,25,A2,00,
17507650,00000157,false,Rx,0,8,D5,77,09,C4,FF,E0,00,80,
17507870,00000155,false,Rx,0,8,33,87,D0,94,96,F0,02,C5,
17508971,000001A1,false,Rx,0,8,00,45,0C,14,06,0C,80,20,
17511598,000001C7,false,Rx,0,4,AA,A0,FF,C0,00,00,00,00,
17513973,0000019F,false,Rx,0,8,00,00,7D,06,00,6A,90,FE,
17517523,00000157,false,Rx,0,8,D5,C7,09,C4,FF,E0,00,80,
17517820,00000155,false,Rx,0,8,33,87,D0,94,96,F0,02,C5,
17518977,000001A1,false,Rx,0,8,00,45,0C,14,06,0C,80,20,
17521607,000001C7,false,Rx,0,4,AA,A0,FF,C0,00,00,00,00,
17523977,0000019F,false,Rx,0,8,00,00,7D,0B,00,6A,90,FE,
17527575,00000157,false,Rx,0,8,D5,17,09,C4,FF,E0,00,80,
17527822,00000155,false,Rx,0,8,33,87,D0,94,96,F0,02,C5,
17528974,000001A1,false,Rx,0,8,00,45,0C,14,06,0C,80,20,
17531614,000001C7,false,Rx,0,4,AA,A0,FF,C0,00,00,00,00,
17532480,00000423,false,Rx,0,8,07,1E,00,01,B2,80,5D,C7,
17533980,0000019F,false,Rx,0,8,00,00,7D,00,00,6A,90,FE,
17537639,00000157,false,Rx,0,8,D5,67,09,C4,FF,E0,00,80,
17537857,00000155,false,Rx,0,8,33,87,D0,94,96,F0,02,C5,
17538083,00000424,false,Rx,0,8,11,40,56,C8,33,5E,AA,34,
17538312,00000425,false,Rx,0,8,1C,BB,44,FF,FE,1A,CD,0C,
17538551,00000426,false,Rx,0,8,00,08,02,00,53,18,00,40,
17538980,000001A1,false,Rx,0,8,00,45,0C,14,06,0C,80,20,
17540475,00000445,false,Rx,0,7,80,DF,55,65,04,82,00,00,
17541626,000001C7,false,Rx,0,4,AA,A0,FF,C0,00,00,00,00,
17543975,0000019F,false,Rx,0,8,00,00,7D,05,00,6A,90,FE,
17547553,00000157,false,Rx,0,8,D5,B7,09,C4,FF,E0,00,80,
17547774,00000155,false,Rx,0,8,33,87,D0,94,96,F0,02,C5,
17548974,000001A1,false,Rx,0,8,00,45,0C,14,06,0C,80,20,
17551623,000001C7,false,Rx,0,4,AA,A0,FF,C0,00,00,00,00,
17552447,00000435,false,Rx,0,8,FF,FF,1E,0B,2E,FC,00,00,
17553972,0000019F,false,Rx,0,8,00,00,7D,0A,00,6A,90,FE,
17554221,00000419,false,Rx,0,6,53,00,28,00,3E,00,00,00,
17557473,00000157,false,Rx,0,8,D5,07,09,C4,FF,E0,00,80,
17557677,00000436,false,Rx,0,6,80,16,64,39,FF,DC,00,00,
17557898,00000155,false,Rx,0,8,33,87,D0,94,96,F0,02,C5,
17558971,000001A1,false,Rx,0,8,00,45,0C,14,06,0C,80,20,
17561696,000004F7,false,Rx,0,8,00,1A,08,00,90,30,06,F0,
17561895,000001C7,false,Rx,0,4,AA,A0,FF,C0,00,00,00,00,
17562172,00000428,false,Rx,0,8,00,00,00,7F,00,00,00,00,
17562345,0000042F,false,Rx,0,2,00,20,00,00,00,00,00,00,
17563981,0000019F,false,Rx,0,8,00,00,7D,0F,00,6A,90,FE,
17567558,00000157,false,Rx,0,8,D5,57,09,C4,FF,E0,00,80,
17567780,00000155,false,Rx,0,8,33,87,D0,94,96,F0,02,C5,
17568976,000001A1,false,Rx,0,8,00,45,0C,14,06,0C,80,20,
17571631,000001C7,false,Rx,0,4,AA,A0,FF,C0,00,00,00,00,
17574005,0000019F,false,Rx,0,8,00,00,7D,04,00,6A,90,FE,
17577557,00000157,false,Rx,0,8,D5,A7,09,C4,FF,E0,00,80,
17577880,00000155,false,Rx,0,8,33,87,D0,94,96,F0,02,C5,
17578978,000001A1,false,Rx,0,8,00,45,0C,14,06,0C,80,20,
17581656,000001C7,false,Rx,0,4,AA,A0,FF,C0,00,00,00,00,
17584014,0000019F,false,Rx,0,8,00,00,7D,09,00,6A,90,FE,
17587501,00000157,false,Rx,0,8,D5,F7,09,C4,FF,E0,00,80,
17587822,00000155,false,Rx,0,8,33,87,D0,94,96,F0,02,C5,
17588990,000001A1,false,Rx,0,8,00,45,0C,14,06,0C,80,20,
17591677,000001C7,false,Rx,0,4,AA,A0,FF,C0,00,00,00,00,
17594003,0000019F,false,Rx,0,8,00,00,7D,0E,00,6A,90,FE,
17597689,00000157,false,Rx,0,8,D5,47,09,C4,FF,E0,00,80,
17597881,00000155,false,Rx,0,8,33,87,D0,94,96,F0,02,C5,
17598977,000001A1,false,Rx,0,8,00,45,0C,14,06,0C,80,20,
17601689,000001C7,false,Rx,0,4,AA,A0,FF,C0,00,00,00,00,
17604006,0000019F,false,Rx,0,8,00,00,7D,03,00,6A,90,FE,
17604264,00000511,false,Rx,0,7,04,70,21,71,6C,32,85,00,
17607505,00000157,false,Rx,0,8,D5,97,09,C4,FF,E0,00,80,
17607808,00000155,false,Rx,0,8,33,87,D0,94,96,F0,02,C5,
17609011,000001A1,false,Rx,0,8,00,45,0C,14,06,0C,80,20,
17611655,000001C7,false,Rx,0,4,AA,A0,FF,C0,00,00,00,00,
17614012,0000019F,false,Rx,0,8,00,00,7D,08,00,6A,90,FE,
17617564,00000157,false,Rx,0,8,D5,E7,09,C4,FF,E0,00,80,
17617816,00000155,false,Rx,0,8,33,87,D0,94,96,F0,02,C5,
17619013,000001A1,false,Rx,0,8,00,45,0C,14,06,0C,80,20,
17621657,000001C7,false,Rx,0,4,AA,A0,FF,C0,00,00,00,00,
17623981,0000019F,false,Rx,0,8,00,00,7D,0D,00,6A,90,FE,
17627655,00000157,false,Rx,0,8,D5,37,09,C4,FF,E0,00,80,
17627881,00000155,false,Rx,0,8,33,87,D0,94,96,F0,02,C5,
17628980,000001A1,false,Rx,0,8,00,45,0C,14,06,0C,80,20,
17631712,000001C7,false,Rx,0,4,AA,A0,FF,C0,00,00,00,00,
17632554,00000423,false,Rx,0,8,07,1E,00,01,B2,80,5D,C7,
17633980,0000019F,false,Rx,0,8,00,00,7D,02,00,6A,90,FE,
17637555,00000157,false,Rx,0,8,D5,87,09,C4,FF,E0,00,80,
17637781,00000155,false,Rx,0,8,33,87,D0,94,96,F0,02,C5,
17638008,00000424,false,Rx,0,8,11,40,56,C8,33,5E,AA,34,
17638237,00000425,false,Rx,0,8,1C,BB,44,FF,FE,1A,CD,0C,
17638476,00000426,false,Rx,0,8,00,08,02,00,53,18,00,40,
17638981,000001A1,false,Rx,0,8,00,45,0C,14,06,0C,80,20,
17640455,00000445,false,Rx,0,7,80,DF,55,65,04,82,00,00,
17641680,000001C7,false,Rx,0,4,AA,A0,FF,C0,00,00,00,00,
17643980,0000019F,false,Rx,0,8,00,00,7D,07,00,6A,90,FE,
17647542,00000157,false,Rx,0,8,D5,D7,09,C4,FF,E0,00,80,
17647755,00000155,false,Rx,0,8,33,87,D0,94,96,F0,02,C5,
17648978,000001A1,false,Rx,0,8,00,45,0C,14,06,0C,80,20,
17651712,000001C7,false,Rx,0,4,AA,A0,FF,C0,00,00,00,00,
17652493,00000435,false,Rx,0,8,FF,FF,1E,0B,2E,FC,00,00,
17653991,0000019F,false,Rx,0,8,00,00,7D,0C,00,6A,90,FE,
17654230,00000419,false,Rx,0,6,53,00,28,00,3E,00,00,00,
17657606,00000157,false,Rx,0,8,D5,27,09,C4,FF,E0,00,80,
17657833,00000155,false,Rx,0,8,33,87,D0,94,96,F0,02,C5,
17658036,00000436,false,Rx,0,6,80,16,64,39,FF,DC,00,00,
17659066,000001A1,false,Rx,0,8,00,45,0C,14,06,0C,80,20,
17661808,000004F7,false,Rx,0,8,00,1A,08,00,90,30,06,F0,
17661974,000001C7,false,Rx,0,4,AA,A0,FF,C0,00,00,00,00,
17662408,00000428,false,Rx,0,8,00,00,00,7F,00,00,00,00,
17662422,0000042F,false,Rx,0,2,00,20,00,00,00,00,00,00,
17664247,0000019F,false,Rx,0,8,00,00,7D,01,00,6A,90,FE,
17667913,00000157,false,Rx,0,8,D5,77,09,C4,FF,E0,00,80,
17667922,00000155,false,Rx,0,8,33,87,D0,94,96,F0,02,C5,
17669034,000001A1,false,Rx,0,8,00,45,0C,14,06,0C,80,20,
17671945,000001C7,false,Rx,0,4,AA,A0,FF,C0,00,00,00,00,
17674249,0000019F,false,Rx,0,8,00,00,7D,06,00,6A,90,FE,
17677770,00000157,false,Rx,0,8,D5,C7,09,C4,FF,E0,00,80,
17677852,00000155,false,Rx,0,8,33,87,D0,94,96,F0,02,C5,
17679046,000001A1,false,Rx,0,8,00,45,0C,14,06,0C,80,20,
17681719,000001C7,false,Rx,0,4,AA,A0,FF,C0,00,00,00,00,
17683991,0000019F,false,Rx,0,8,00,00,7D,0B,00,6A,90,FE,
17687583,00000157,false,Rx,0,8,D5,17,09,C4,FF,E0,00,80,
17687837,00000155,false,Rx,0,8,33,87,D0,94,96,F0,02,C5,
17688982,000001A1,false,Rx,0,8,00,45,0C,14,06,0C,80,20,
17691709,000001C7,false,Rx,0,4,AA,A0,FF,C0,00,00,00,00,
17693988,0000019F,false,Rx,0,8,00,00,7D,00,00,6A,90,FE,
17697663,00000157,false,Rx,0,8,D5,67,09,C4,FF,E0,00,80,
17697909,00000155,false,Rx,0,8,33,87,D0,94,96,F0,02,C5,
17698982,000001A1,false,Rx,0,8,00,45,0C,14,06,0C,80,20,
17701708,000001C7,false,Rx,0,4,AA,A0,FF,C0,00,00,00,00,
17703982,0000019F,false,Rx,0,8,00,00,7D,05,00,6A,90,FE,
17704259,00000511,false,Rx,0,7,04,AF,EA,2A,D7,3F,68,00,
17707658,00000157,false,Rx,0,8,D5,B7,09,C4,FF,E0,00,80,
17707884,00000155,false,Rx,0,8,33,87,D0,94,96,F0,02,C5,
17708988,000001A1,false,Rx,0,8,00,45,0C,14,06,0C,80,20,
17711707,000001C7,false,Rx,0,4,AA,A0,FF,C0,00,00,00,00,
17713989,0000019F,false,Rx,0,8,00,00,7D,0A,00,6A,90,FE,
17717587,00000157,false,Rx,0,8,D5,07,09,C4,FF,E0,00,80,
17717808,00000155,false,Rx,0,8,33,87,D0,94,96,F0,02,C5,
17718981,000001A1,false,Rx,0,8,00,45,0C,14,06,0C,80,20,
17721713,000001C7,false,Rx,0,4,AA,A0,FF,C0,00,00,00,00,
17723982,0000019F,false,Rx,0,8,00,00,7D,0F,00,6A,90,FE,
17727508,00000157,false,Rx,0,8,D5,57,09,C4,FF,E0,00,80,
17727756,00000155,false,Rx,0,8,33,87,D0,94,96,F0,02,C5,
17728978,000001A1,false,Rx,0,8,00,45,0C,14,06,0C,80,20,
17731733,000001C7,false,Rx,0,4,AA,A0,FF,C0,00,00,00,00,
17732600,00000423,false,Rx,0,8,07,1E,00,01,B2,80,5D,C7,
17733977,0000019F,false,Rx,0,8,00,00,7D,04,00,6A,90,FE,
17737593,00000157,false,Rx,0,8,D5,A7,09,C4,FF,E0,00,80,
17737775,00000155,false,Rx,0,8,33,87,D0,94,96,F0,02,C5,
17738021,00000424,false,Rx,0,8,11,40,56,C8,33,5E,AA,34,
17738271,00000425,false,Rx,0,8,1C,BB,44,FF,FE,1A,CD,0C,
17738481,00000426,false,Rx,0,8,00,08,02,00,53,18,00,40,
17738997,000001A1,false,Rx,0,8,00,45,0C,14,06,0C,80,20,
17740452,00000445,false,Rx,0,7,80,DF,55,65,04,82,00,00,
17741764,000001C7,false,Rx,0,4,AA,A0,FF,C0,00,00,00,00,
17744014,0000019F,false,Rx,0,8,00,00,7D,09,00,6A,90,FE,
17747518,00000157,false,Rx,0,8,D5,F7,09,C4,FF,E0,00,80,
17747786,00000155,false,Rx,0,8,33,87,D0,94,96,F0,02,C5,
17748982,000001A1,false,Rx,0,8,00,45,0C,14,06,0C,80,20,
17751734,000001C7,false,Rx,0,4,AA,A0,FF,C0,00,00,00,00,
17752536,00000435,false,Rx,0,8,FF,FF,1E,0B,2E,00,00,00,
17753984,0000019F,false,Rx,0,8,00,00,7D,0E,00,6A,90,FE,
17754236,00000419,false,Rx,0,6,53,00,28,00,3E,00,00,00,
17757483,00000157,false,Rx,0,8,D5,47,09,C4,FF,E0,00,80,
17757682,00000436,false,Rx,0,6,80,16,64,39,FF,DC,00,00,
17757904,00000155,false,Rx,0,8,33,87,CF,94,96,F0,02,C5,
17758982,000001A1,false,Rx,0,8,00,45,0C,14,06,0C,80,20,
17761808,000004F7,false,Rx,0,8,00,1A,08,00,90,30,06,F0,
17762029,000001C7,false,Rx,0,4,AA,A0,FF,C0,00,00,00,00,
17762303,00000428,false,Rx,0,8,00,00,00,7F,00,00,00,00,
17762480,0000042F,false,Rx,0,2,00,20,00,00,00,00,00,00,
17763989,0000019F,false,Rx,0,8,00,00,7D,03,00,6A,90,FE,
17767603,00000157,false,Rx,0,8,D5,97,09,C4,FF,E0,00,80,
17767829,00000155,false,Rx,0,8,33,87,D0,94,96,F0,02,C5,
17768977,000001A1,false,Rx,0,8,00,45,0C,14,06,0C,80,20,
17771753,000001C7,false,Rx,0,4,AA,A0,FF,C0,00,00,00,00,
17773978,0000019F,false,Rx,0,8,00,00,7D,08,00,6A,90,FE,
17777583,00000157,false,Rx,0,8,D5,E7,09,C4,FF,E0,00,80,
17778109,00000155,false,Rx,0,8,33,87,D0,94,96,F0,02,C5,
17778975,000001A1,false,Rx,0,8,00,45,0C,14,06,0C,80,20,
17781764,000001C7,false,Rx,0,4,AA,A0,FF,C0,00,00,00,00,
17783977,0000019F,false,Rx,0,8,00,00,7D,0D,00,6A,90,FE,
17787578,00000157,false,Rx,0,8,D5,37,09,C4,FF,E0,00,80,
17787825,00000155,false,Rx,0,8,33,87,D0,94,96,F0,02,C4,
17788977,000001A1,false,Rx,0,8,00,45,20,14,06,0C,80,20,
17791756,000001C7,false,Rx,0,4,AA,A0,FF,C0,00,00,00,00,
17793993,0000019F,false,Rx,0,8,00,00,7D,02,00,6A,90,FE,
17797562,00000157,false,Rx,0,8,D5,87,09,C4,FF,E0,00,80,
17797833,00000155,false,Rx,0,8,33,87,D0,94,96,F0,02,C5,
17798987,000001A1,false,Rx,0,8,00,45,0C,14,06,0C,80,20,
17801768,000001C7,false,Rx,0,4,AA,A0,FF,C0,00,00,00,00,
17803992,0000019F,false,Rx,0,8,00,00,7D,07,00,6A,90,FE,
17804263,00000511,false,Rx,0,7,04,EE,B3,E3,42,4C,4B,00,
17807666,00000157,false,Rx,0,8,D5,D7,09,C4,FF,E0,00,80,
17807872,00000155,false,Rx,0,8,33,87,D0,94,96,F0,02,C5,
17809018,000001A1,false,Rx,0,8,00,45,0C,14,06,0C,80,20,
17811791,000001C7,false,Rx,0,4,AA,A0,FF,C0,00,00,00,00,
17814016,0000019F,false,Rx,0,8,00,00,7D,0C,00,6A,90,FE,
17817553,00000157,false,Rx,0,8,D5,27,09,C4,FF,E0,00,80,
17817797,00000155,false,Rx,0,8,33,87,D0,94,96,F0,02,C4,
17818980,000001A1,false,Rx,0,8,00,45,0C,14,06,0C,80,20,
17821794,000001C7,false,Rx,0,4,AA,A0,FF,C0,00,00,00,00,
17823989,0000019F,false,Rx,0,8,00,00,7D,01,00,6A,90,FE,
17827613,00000157,false,Rx,0,8,D5,77,09,C4,FF,E0,00,80,
17827841,00000155,false,Rx,0,8,33,87,D0,94,96,F0,02,C5,
17829177,000001A1,false,Rx,0,8,00,45,0C,14,06,0C,80,20,
17831948,000001C7,false,Rx,0,4,AA,A0,FF,C0,00,00,00,00,
17832658,00000423,false,Rx,0,8,07,1E,00,01,B2,80,5D,C7,
17833997,0000019F,false,Rx,0,8,00,00,7D,06,00,6A,90,FE,
17837640,00000157,false,Rx,0,8,D5,C7,09,C4,FF,E0,00,80,
17837862,00000155,false,Rx,0,8,33,87,D0,94,96,F0,02,C4,
17838093,00000424,false,Rx,0,8,11,40,56,C8,33,5E,AA,34,
17838321,00000425,false,Rx,0,8,1C,BB,44,9C,42,1A,CD,0C,
17838560,00000426,false,Rx,0,8,00,08,02,00,53,18,00,40,
17838990,000001A1,false,Rx,0,8,00,45,0C,14,06,0C,80,20,
17840795,00000445,false,Rx,0,7,80,DF,55,65,04,82,00,00,
17842045,000001C7,false,Rx,0,4,AA,A0,FF,C0,00,00,00,00,
17844046,0000019F,false,Rx,0,8,00,00,7D,0B,00,6A,90,FE,
17847635,00000157,false,Rx,0,8,D5,17,09,C4,FF,E0,00,80,
17847750,00000155,false,Rx,0,8,33,87,D0,94,96,F0,02,C5,
17849147,000001A1,false,Rx,0,8,00,45,0C,14,06,0C,80,20,
17851938,000001C7,false,Rx,0,4,AA,A0,FF,C0,00,00,00,00,
17852584,00000435,false,Rx,0,8,FF,FF,1E,0B,2E,00,00,00,
17854151,0000019F,false,Rx,0,8,00,00,7D,00,00,6A,90,FE,
17854252,00000419,false,Rx,0,6,53,00,28,00,3E,00,00,00,
17857848,00000157,false,Rx,0,8,D5,67,09,C4,FF,E0,00,80,
17857857,00000155,false,Rx,0,8,33,87,D0,94,96,F0,02,C5,
17858053,00000436,false,Rx,0,6,80,16,64,39,FF,DC,00,00,
17859041,000001A1,false,Rx,0,8,00,45,0C,14,06,0C,80,20,
17862014,000004F7,false,Rx,0,8,00,1A,08,00,90,30,06,F0,
17862021,000001C7,false,Rx,0,4,AA,A0,FF,C0,00,00,00,00,
17862345,00000428,false,Rx,0,8,00,00,00,7F,00,00,00,00,
17862454,0000042F,false,Rx,0,2,00,20,00,00,00,00,00,00,
17864051,0000019F,false,Rx,0,8,00,00,7D,05,00,6A,90,FE,
17867810,00000157,false,Rx,0,8,D5,B7,09,C4,FF,E0,00,80,
17867878,00000155,false,Rx,0,8,33,87,D0,94,96,F0,02,C5,
17869148,000001A1,false,Rx,0,8,00,45,0C,14,06,0C,80,20,
17872044,000001C7,false,Rx,0,4,AA,A0,FF,C0,00,00,00,00,
17874244,0000019F,false,Rx,0,8,00,00,7D,0A,00,6A,90,FE,
17877792,00000157,false,Rx,0,8,D5,07,09,C4,FF,E0,00,80,
17877939,00000155,false,Rx,0,8,33,87,D0,94,96,F0,02,C5,
17879166,000001A1,false,Rx,0,8,00,45,0C,14,06,0C,80,20,
17882067,000001C7,false,Rx,0,4,AA,A0,FF,C0,00,00,00,00,
17884246,0000019F,false,Rx,0,8,00,00,7D,0F,00,6A,90,FE,
17887923,00000157,false,Rx,0,8,D5,57,09,C4,FF,E0,00,80,
17887932,00000155,false,Rx,0,8,33,87,D0,94,96,F0,02,C5,
17889245,000001A1,false,Rx,0,8,00,45,0C,14,06,0C,80,20,
17892069,000001C7,false,Rx,0,4,AA,A0,FF,C0,00,00,00,00,
17894253,0000019F,false,Rx,0,8,00,00,7D,04,00,6A,90,FE,
17897804,00000157,false,Rx,0,8,D5,A7,09,C4,FF,E0,00,80,
17897814,00000155,false,Rx,0,8,33,87,D0,94,96,F0,02,C5,
17899202,000001A1,false,Rx,0,8,00,45,0C,14,06,0C,80,20,
17901819,000001C7,false,Rx,0,4,AA,A0,FF,C0,00,00,00,00,
17904144,0000019F,false,Rx,0,8,00,00,7D,09,00,6A,90,FE,
17904255,00000511,false,Rx,0,7,04,2D,7C,9C,AD,59,2E,00,
17907567,00000157,false,Rx,0,8,D5,F7,09,C4,FF,E0,00,80,
17908990,000001A1,false,Rx,0,8,00,45,0C,14,06,0C,80,20,
17909482,00000155,false,Rx,0,8,33,87,D0,54,96,F0,02,C4,
17911837,000001C7,false,Rx,0,4,AA,A0,FF,C0,00,00,00,00,
17913984,0000019F,false,Rx,0,8,00,00,7D,0E,00,6A,90,FE,
17917676,00000157,false,Rx,0,8,D5,47,09,C4,FF,E0,00,80,
17917880,00000155,false,Rx,0,8,33,87,D0,54,96,F0,02,C5,
17918984,000001A1,false,Rx,0,8,00,45,0C,14,06,0C,80,20,
17921877,000001C7,false,Rx,0,4,AA,A0,FF,C0,00,00,00,00,
17923983,0000019F,false,Rx,0,8,00,00,7D,03,00,6A,90,FE,
17927623,00000157,false,Rx,0,8,D5,97,09,C4,FF,E0,00,80,
17927849,00000155,false,Rx,0,8,33,87,D0,54,96,F0,02,C5,
17928988,000001A1,false,Rx,0,8,00,45,0C,14,06,0C,80,20,
17931871,000001C7,false,Rx,0,4,AA,A0,FF,C0,00,00,00,00,
17932545,00000423,false,Rx,0,8,07,1E,00,01,B2,80,5D,C7,
17934019,0000019F,false,Rx,0,8,00,00,7D,08,00,6A,90,FE,
17937545,00000157,false,Rx,0,8,D5,E7,09,C4,FF,E0,00,80,
17937794,00000155,false,Rx,0,8,33,87,C7,54,96,F0,02,C4,
17938018,00000424,false,Rx,0,8,11,40,56,C8,33,5E,AA,34,
17938244,00000425,false,Rx,0,8,24,BB,44,9C,42,1A,CD,0C,
17938474,00000426,false,Rx,0,8,00,08,02,00,53,18,00,40,
17939019,000001A1,false,Rx,0,8,0C,C5,0C,14,06,0C,80,20,
17940459,00000445,false,Rx,0,7,80,DF,55,65,04,82,00,00,
17941832,000001C7,false,Rx,0,4,AA,A0,FF,C0,00,00,00,00,
17944019,0000019F,false,Rx,0,8,00,00,7D,0D,00,6A,90,FE,
17947647,00000157,false,Rx,0,8,D5,37,09,C4,FF,E0,00,80,
17947894,00000155,false,Rx,0,8,33,87,C1,54,96,F0,02,C4,
17949019,000001A1,false,Rx,0,8,25,85,0C,14,05,0C,80,20,
17951872,000001C7,false,Rx,0,4,AA,A0,FF,C0,00,00,00,00,
17952595,00000435,false,Rx,0,8,FF,FF,1E,0B,2E,00,00,00,
17954020,0000019F,false,Rx,0,8,00,00,7D,02,00,6A,90,FE,
17954295,00000419,false,Rx,0,6,53,00,28,00,3E,00,00,00,
17957620,00000157,false,Rx,0,8,D5,87,09,C4,FF,E0,00,80,
17957848,00000155,false,Rx,0,8,33,87,C2,54,96,F0,02,C4,
17958045,00000436,false,Rx,0,6,80,16,64,39,FF,DC,00,00,
17958995,000001A1,false,Rx,0,8,3A,85,20,14,05,0C,80,20,
17961970,000004F7,false,Rx,0,8,00,1A,08,00,90,30,06,F0,
17962084,000001C7,false,Rx,0,4,AA,A0,FF,C0,00,00,00,00,
17962371,00000428,false,Rx,0,8,00,00,00,7F,00,00,00,00,
17962505,0000042F,false,Rx,0,2,00,20,00,00,00,00,00,00,
17964023,0000019F,false,Rx,0,8,00,00,7D,07,00,6A,90,FE,
17967463,00000157,false,Rx,0,8,D5,D7,09,C4,FF,E0,00,80,
17967709,00000155,false,Rx,0,8,33,87,C4,54,96,F0,02,C4,
17968959,000001A1,false,Rx,0,8,4C,45,0C,14,05,0C,80,20,
17971861,000001C7,false,Rx,0,4,AA,A0,FF,C0,00,00,00,00,
17973986,0000019F,false,Rx,0,8,00,00,7D,0C,00,6A,90,FE,
17977538,00000157,false,Rx,0,8,D5,27,09,C4,FF,E0,00,80,
17977759,00000155,false,Rx,0,8,33,87,C6,54,96,F0,02,C4,
17978958,000001A1,false,Rx,0,8,5B,45,0C,14,05,0C,80,20,
17981864,000001C7,false,Rx,0,4,AA,A0,FF,C0,00,00,00,00,
17983988,0000019F,false,Rx,0,8,00,00,7D,01,00,6A,90,FE,
17987486,00000157,false,Rx,0,8,D5,77,09,C4,FF,E0,00,80,
17987758,00000155,false,Rx,0,8,33,87,C8,54,96,F0,02,C4,
17988984,000001A1,false,Rx,0,8,68,05,0C,14,05,0C,80,20,
17991860,000001C7,false,Rx,0,4,AA,A0,FF,C0,00,00,00,00,
17993987,0000019F,false,Rx,0,8,00,00,7D,06,00,6A,90,FE,
17997480,00000157,false,Rx,0,8,D5,C7,09,C4,FF,E0,00,80,
17997751,00000155,false,Rx,0,8,33,87,C9,54,96,F0,02,C4,
17998955,000001A1,false,Rx,0,8,73,05,0C,14,05,0C,80,20,
18001883,000001C7,false,Rx,0,4,AA,A0,FF,C0,00,00,00,00,
18003977,0000019F,false,Rx,0,8,00,00,7D,0B,00,6A,90,FE,
18004251,00000511,false,Rx,0,7,04,6C,45,55,18,66,11,00,
18007478,00000157,false,Rx,0,8,D5,17,09,C4,FF,E0,00,80,
18007751,00000155,false,Rx,0,8,33,87,CA,54,96,F0,02,C4,
18008977,000001A1,false,Rx,0,8,7C,45,0C,14,05,0C,80,20,
18011889,000001C7,false,Rx,0,4,AA,A0,FF,C0,00,00,00,00,
18013982,0000019F,false,Rx,0,8,00,00,7D,00,00,6A,90,FE,
18017531,00000157,false,Rx,0,8,D5,67,09,C4,FF,E0,00,80,
18017780,00000155,false,Rx,0,8,33,87,CB,54,96,F0,02,C5,
18018955,000001A1,false,Rx,0,8,84,05,0C,14,05,0C,80,20,
18020705,0000069F,false,Rx,0,4,71,30,28,2F,00,00,00,00,
18021883,000001C7,false,Rx,0,4,AA,A0,FF,C0,00,00,00,00,
18023980,0000019F,false,Rx,0,8,00,00,7D,05,00,6A,90,FE,
18027657,00000157,false,Rx,0,8,D5,B7,09,C4,FF,E0,00,80,
18027878,00000155,false,Rx,0,8,33,87,CB,54,96,F0,02,C4,
18028979,000001A1,false,Rx,0,8,8A,C5,0C,14,05,0C,80,20,
18031880,000001C7,false,Rx,0,4,AA,A0,FF,C0,00,00,00,00,
18032554,00000423,false,Rx,0,8,07,1E,00,01,5D,80,B2,C7,
18033980,0000019F,false,Rx,0,8,00,00,7D,0A,00,6A,90,FE,
18037532,00000157,false,Rx,0,8,D5,07,09,C4,FF,E0,00,80,
18037754,00000155,false,Rx,0,8,33,87,CC,54,96,F0,02,C5,
18038004,00000424,false,Rx,0,8,11,40,56,C8,33,5E,55,34,
18038229,00000425,false,Rx,0,8,24,BB,44,9C,42,1A,CD,0C,
18038454,00000426,false,Rx,0,8,00,08,03,00,53,18,00,40,
18038954,000001A1,false,Rx,0,8,90,85,0C,14,05,0C,80,20,
18040506,00000445,false,Rx,0,7,80,DF,AA,65,04,82,00,00,
18041906,000001C7,false,Rx,0,4,AA,A0,FF,C0,00,00,00,00,
18043980,0000019F,false,Rx,0,8,00,00,7D,0F,00,6A,90,FE,
18047563,00000157,false,Rx,0,8,D5,57,09,C4,FF,E0,00,80,
18047804,00000155,false,Rx,0,8,33,87,CC,54,96,F0,02,C4,
18048980,000001A1,false,Rx,0,8,95,05,0C,14,05,0C,80,20,
18051905,000001C7,false,Rx,0,4,AA,A0,FF,C0,00,00,00,00,
18052555,00000435,false,Rx,0,8,FF,FF,1E,0B,2E,00,00,00,
18053980,0000019F,false,Rx,0,8,00,00,7D,04,00,6A,90,FE,
18054254,00000419,false,Rx,0,6,53,00,28,00,3E,00,00,00,
18057605,00000157,false,Rx,0,8,D5,A7,09,C4,FF,E0,00,80,
18057829,00000155,false,Rx,0,8,33,87,CD,54,96,F0,02,C5,
18058029,00000436,false,Rx,0,6,80,16,64,39,FF,DC,00,00,
18058980,000001A1,false,Rx,0,8,99,05,0C,14,05,0C,80,20,
18061982,000004F7,false,Rx,0,8,00,1A,08,00,90,30,06,F0,
18062154,000001C7,false,Rx,0,4,AA,A0,FF,C0,00,00,00,00,
18062423,00000428,false,Rx,0,8,00,00,00,7F,00,00,00,00,
18062569,0000042F,false,Rx,0,2,00,20,00,00,00,00,00,00,
18063979,0000019F,false,Rx,0,8,00,00,7D,09,00,6A,90,FE,
18067642,00000157,false,Rx,0,8,D5,F7,09,C4,FF,E0,00,80,
18067864,00000155,false,Rx,0,8,33,87,CD,54,96,F0,02,C5,
18069018,000001A1,false,Rx,0,8,9C,C5,0C,14,05,0C,80,20,
18071942,000001C7,false,Rx,0,4,AA,A0,FF,C0,00,00,00,00,
18074023,0000019F,false,Rx,0,8,00,00,7D,0E,00,6A,90,FE,
18077519,00000157,false,Rx,0,8,D5,47,09,C4,FF,E0,00,80,
18077820,00000155,false,Rx,0,8,33,87,CE,54,96,F0,02,C5,
18078993,000001A1,false,Rx,0,8,9F,85,0C,14,05,0C,80,20,
18081970,000001C7,false,Rx,0,4,AA,A0,FF,C0,00,00,00,00,
18084017,0000019F,false,Rx,0,8,00,00,7D,03,00,6A,90,FE,
18087583,00000157,false,Rx,0,8,D5,97,09,C4,FF,E0,00,80,
18087835,00000155,false,Rx,0,8,33,87,CE,54,96,F0,02,C5,
18089201,000001A1,false,Rx,0,8,A2,05,0C,14,05,0C,80,20,
18091966,000001C7,false,Rx,0,4,AA,A0,FF,C0,00,00,00,00,
18094200,0000019F,false,Rx,0,8,00,00,7D,08,00,6A,90,FE,
18097541,00000157,false,Rx,0,8,D5,E7,09,C4,FF,E0,00,80,
18097788,00000155,false,Rx,0,8,33,87,CE,54,96,F0,02,C5,
18099017,000001A1,false,Rx,0,8,A4,45,0C,14,05,0C,80,20,
18101969,000001C7,false,Rx,0,4,AA,A0,FF,C0,00,00,00,00,
18104017,0000019F,false,Rx,0,8,00,00,7D,0D,00,6A,90,FE,
18104292,00000511,false,Rx,0,7,04,AB,0E,0E,83,73,F4,00,
18107576,00000157,false,Rx,0,8,D5,37,09,C4,FF,E0,00,80,
18107825,00000155,false,Rx,0,8,33,87,CF,54,96,F0,02,C5,
18108990,000001A1,false,Rx,0,8,A6,05,0C,14,05,0C,80,20,
18112062,000001C7,false,Rx,0,4,AA,A0,FF,C0,00,00,00,00,
18114201,0000019F,false,Rx,0,8,00,00,7D,02,00,6A,90,FE,
18117686,00000157,false,Rx,0,8,D5,87,09,C4,FF,E0,00,80,
18117757,00000155,false,Rx,0,8,33,87,CF,54,96,F0,02,C5,
18119131,000001A1,false,Rx,0,8,A7,85,20,14,05,0C,80,20,
18122100,000001C7,false,Rx,0,4,AA,A0,FF,C0,00,00,00,00,
18124141,0000019F,false,Rx,0,8,00,00,7D,07,00,6A,90,FE,
18127489,00000157,false,Rx,0,8,D5,D7,09,C4,FF,E0,00,80,
18127770,00000155,false,Rx,0,8,33,87,CF,54,96,F0,02,C5,
18129133,000001A1,false,Rx,0,8,A8,C5,20,14,05,0C,80,20,
18132174,000001C7,false,Rx,0,4,AA,A0,FF,C0,00,00,00,00,
18132754,00000423,false,Rx,0,8,07,1E,00,01,5D,80,B2,C7,
18134197,0000019F,false,Rx,0,8,00,00,7D,0C,00,6A,90,FE,
18137775,00000157,false,Rx,0,8,D5,27,09,C4,FF,E0,00,80,
18137783,00000155,false,Rx,0,8,33,87,CF,54,96,F0,02,C5,
18138089,00000424,false,Rx,0,8,11,40,56,C8,33,5E,55,34,
18138351,00000425,false,Rx,0,8,24,BB,44,9C,42,1A,CD,0C,
18138521,00000426,false,Rx,0,8,00,68,03,00,53,18,00,40,
18139078,000001A1,false,Rx,0,8,AA,05,0C,14,05,0C,80,20,
18140671,00000445,false,Rx,0,7,80,DF,AA,65,04,82,00,00,
18142151,000001C7,false,Rx,0,4,AA,A0,FF,C0,00,00,00,00,
18143994,0000019F,false,Rx,0,8,00,00,7D,01,00,6A,90,FE,
18147721,00000157,false,Rx,0,8,D5,77,09,C4,FF,E0,00,80,
18147734,00000155,false,Rx,0,8,33,87,CE,54,96,F0,02,C5,
18149198,000001A1,false,Rx,0,8,AB,05,0C,14,05,0C,80,20,
18152173,000001C7,false,Rx,0,4,AA,A0,FF,C0,00,00,00,00,
18152514,00000435,false,Rx,0,8,FF,FF,1E,0B,2E,00,00,00,
18154199,0000019F,false,Rx,0,8,00,00,7D,06,00,6A,90,FE,
18154352,00000419,false,Rx,0,6,53,00,28,00,3E,00,00,00,
18157671,00000157,false,Rx,0,8,D5,C7,09,C4,FF,E0,00,80,
18157684,00000155,false,Rx,0,8,33,87,CE,54,96,F0,02,C5,
18157972,00000436,false,Rx,0,6,80,16,64,39,FF,DC,00,00,
18159195,000001A1,false,Rx,0,8,AB,C5,0C,14,05,0C,80,20,
18162248,000004F7,false,Rx,0,8,00,1A,08,00,90,30,06,F0,
18162256,000001C7,false,Rx,0,4,AA,A0,FF,C0,00,00,00,00,
18162503,00000428,false,Rx,0,8,00,00,00,7F,00,00,00,00,
18162630,0000042F,false,Rx,0,2,00,20,00,00,00,00,00,00,
18164084,0000019F,false,Rx,0,8,00,00,7D,0B,00,6A,90,FE,
18167695,00000157,false,Rx,0,8,D5,17,09,C4,FF,E0,00,80,
18167708,00000155,false,Rx,0,8,33,87,CF,54,96,F0,02,C5,
18169172,000001A1,false,Rx,0,8,AC,45,0C,14,05,0C,80,20,
18172199,000001C7,false,Rx,0,4,AA,A0,FF,C0,00,00,00,00,
18174153,0000019F,false,Rx,0,8,00,00,7D,00,00,6A,90,FE,
18178929,00000157,false,Rx,0,8,D5,67,09,C4,FF,E0,00,80,
18178936,00000155,false,Rx,0,8,33,87,CF,54,96,F0,02,C5,
18178976,000001A1,false,Rx,0,8,AD,05,0C,14,05,0C,80,20,
18182046,000001C7,false,Rx,0,4,AA,A0,FF,C0,00,00,00,00,
18183989,0000019F,false,Rx,0,8,00,00,7D,05,00,6A,90,FE,
18187564,00000157,false,Rx,0,8,D5,B7,09,C4,FF,E0,00,80,
18187785,00000155,false,Rx,0,8,33,87,D0,54,96,F0,02,C5,
18188986,000001A1,false,Rx,0,8,AD,C5,0C,14,05,0C,80,20,
18191996,000001C7,false,Rx,0,4,AA,A0,FF,C0,00,00,00,00,
18193996,0000019F,false,Rx,0,8,00,00,7D,0A,00,6A,90,FE,
18197496,00000157,false,Rx,0,8,D5,07,09,C4,FF,E0,00,80,
18197748,00000155,false,Rx,0,8,33,87,D0,54,96,F0,02,C5,
18198995,000001A1,false,Rx,0,8,AE,05,0C,14,05,0C,80,20,
18202021,000001C7,false,Rx,0,4,AA,A0,FF,C0,00,00,00,00,
18203996,0000019F,false,Rx,0,8,00,00,7D,0F,00,6A,90,FE,
18204276,00000511,false,Rx,0,7,04,EA,D7,C7,EE,80,D7,00,
18207484,00000157,false,Rx,0,8,D5,57,09,C4,FF,E0,00,80,
18207699,00000155,false,Rx,0,8,33,87,D0,54,96,F0,02,C5,
18208970,000001A1,false,Rx,0,8,AE,45,0C,14,05,0C,80,20,
18212021,000001C7,false,Rx,0,4,AA,A0,FF,C0,00,00,00,00,
18213996,0000019F,false,Rx,0,8,00,00,7D,04,00,6A,90,FE,
18217522,00000157,false,Rx,0,8,D5,A7,09,C4,FF,E0,00,80,
18217774,00000155,false,Rx,0,8,33,87,D0,54,96,F0,02,C5,
18218996,000001A1,false,Rx,0,8,AE,85,0C,14,05,0C,80,20,
18222021,000001C7,false,Rx,0,4,AA,A0,FF,C0,00,00,00,00,
18223996,0000019F,false,Rx,0,8,00,00,7D,09,00,6A,90,FE,
18227644,00000157,false,Rx,0,8,D5,F7,09,C4,FF,E0,00,80,
18227870,00000155,false,Rx,0,8,33,87,D0,54,96,F0,02,C5,
18228992,000001A1,false,Rx,0,8,AE,C5,0C,14,05,0C,80,20,
18232036,000001C7,false,Rx,0,4,AA,A0,FF,C0,00,00,00,00,
18232480,00000423,false,Rx,0,8,07,1E,00,01,5D,80,B2,C7,
18233981,0000019F,false,Rx,0,8,00,00,7D,0E,00,6A,90,FE,
18237634,00000157,false,Rx,0,8,D5,47,09,C4,FF,E0,00,80,
18237853,00000155,false,Rx,0,8,33,87,D0,54,96,F0,02,C4,
18238077,00000424,false,Rx,0,8,11,40,56,C8,33,5E,55,34,
18238302,00000425,false,Rx,0,8,2A,BB,44,9C,42,1A,CD,0C,
18238552,00000426,false,Rx,0,8,00,68,03,00,53,18,00,40,
18238979,000001A1,false,Rx,0,8,AF,05,0C,14,05,0C,80,20,
18240453,00000445,false,Rx,0,7,80,DF,AA,65,04,82,00,00,
18242029,000001C7,false,Rx,0,4,AA,A0,FF,C0,00,00,00,00,
18243979,0000019F,false,Rx,0,8,00,00,7D,03,00,6A,90,FE,
18247495,00000157,false,Rx,0,8,D5,97,09,C4,FF,E0,00,80,
18247714,00000155,false,Rx,0,8,33,87,D0,54,96,F0,02,C5,
18248992,000001A1,false,Rx,0,8,AF,45,0C,14,05,0C,80,20,
18252042,000001C7,false,Rx,0,4,AA,A0,FF,C0,00,00,00,00,
18252561,00000435,false,Rx,0,8,FF,FF,1E,0B,2E,00,00,00,
18254033,0000019F,false,Rx,0,8,00,00,7D,08,00,6A,90,FE,
18254312,00000419,false,Rx,0,6,53,00,28,E6,3E,00,00,00,
18257542,00000157,false,Rx,0,8,D5,E7,09,C4,FF,E0,00,80,
18257740,00000155,false,Rx,0,8,33,87,D0,54,96,F0,02,C5,
18257942,00000436,false,Rx,0,6,80,16,64,39,FF,DC,00,00,
18258985,000001A1,false,Rx,0,8,AF,45,20,14,05,0C,80,20,
18262114,000004F7,false,Rx,0,8,00,1A,08,00,90,30,06,F0,
18262288,000001C7,false,Rx,0,4,AA,A0,FF,C0,00,00,00,00,
18262534,00000428,false,Rx,0,8,00,00,00,7F,00,00,00,00,
18262712,0000042F,false,Rx,0,2,00,20,00,00,00,00,00,00,
18263985,0000019F,false,Rx,0,8,00,00,7D,0D,00,6A,90,FE,
18267557,00000157,false,Rx,0,8,D5,37,09,C4,FF,E0,00,80,
18267779,00000155,false,Rx,0,8,33,87,D0,54,96,F0,02,C5,
18268980,000001A1,false,Rx,0,8,AF,85,20,14,05,0C,80,20,
18272036,000001C7,false,Rx,0,4,AA,A0,FF,C0,00,00,00,00,
18273986,0000019F,false,Rx,0,8,00,00,7D,02,00,6A,90,FE,
18277523,00000157,false,Rx,0,8,D5,87,09,C4,FF,E0,00,80,
18277858,00000155,false,Rx,0,8,33,87,D0,54,96,F0,02,C5,
18278986,000001A1,false,Rx,0,8,AF,C5,0C,14,05,0C,80,20,
18282064,000001C7,false,Rx,0,4,AA,A0,FF,C0,00,00,00,00,
18283983,0000019F,false,Rx,0,8,00,00,7D,07,00,6A,90,FE,
18287537,00000157,false,Rx,0,8,D5,D7,09,C4,FF,E0,00,80,
18287778,00000155,false,Rx,0,8,33,87,D0,54,96,F0,02,C5,
18288982,000001A1,false,Rx,0,8,AF,C5,20,14,05,0C,80,20,
18292059,000001C7,false,Rx,0,4,AA,A0,FF,C0,00,00,00,00,
18293989,0000019F,false,Rx,0,8,00,00,7D,0C,00,6A,90,FE,
18297539,00000157,false,Rx,0,8,D5,27,09,C4,FF,E0,00,80,
18297762,00000155,false,Rx,0,8,33,87,D0,54,96,F0,02,C4,
18298988,000001A1,false,Rx,0,8,B0,05,20,14,05,0C,80,20,
18302066,000001C7,false,Rx,0,4,AA,A0,FF,C0,00,00,00,00,
18303989,0000019F,false,Rx,0,8,00,00,7D,01,00,6A,90,FE,
18304257,00000511,false,Rx,0,7,04,29,A0,80,59,8D,BA,00,
18307527,00000157,false,Rx,0,8,D5,77,09,C4,FF,E0,00,80,
18307772,00000155,false,Rx,0,8,33,87,D0,54,96,F0,02,C4,
18308987,000001A1,false,Rx,0,8,B0,05,20,14,05,0C,80,20,
18312062,000001C7,false,Rx,0,4,AA,A0,FF,C0,00,00,00,00,
18313984,0000019F,false,Rx,0,8,00,00,7D,06,00,6A,90,FE,
18317588,00000157,false,Rx,0,8,D5,C7,09,C4,FF,E0,00,80,
18317808,00000155,false,Rx,0,8,33,87,D0,54,96,F0,02,C4,
18318985,000001A1,false,Rx,0,8,B0,05,20,14,05,0C,80,20,
18322087,000001C7,false,Rx,0,4,AA,A0,FF,C0,00,00,00,00,
18323991,0000019F,false,Rx,0,8,00,00,7D,0B,00,6A,90,FE,
18327538,00000157,false,Rx,0,8,D5,17,09,C4,FF,E0,00,80,
18327756,00000155,false,Rx,0,8,33,87,D0,54,96,F0,02,C3,
18328982,000001A1,false,Rx,0,8,B0,05,0C,14,05,0C,80,20,
18332105,000001C7,false,Rx,0,4,AA,A0,FF,C0,00,00,00,00,
18332484,00000423,false,Rx,0,8,07,1E,00,01,5D,80,B2,C6,
18333986,0000019F,false,Rx,0,8,00,00,7D,00,00,6A,90,FE,
18337613,00000157,false,Rx,0,8,D5,67,09,C4,FF,E0,00,80,
18337836,00000155,false,Rx,0,8,33,87,D0,54,96,F0,02,C3,
18338058,00000424,false,Rx,0,8,11,40,56,C8,33,5E,55,34,
18338287,00000425,false,Rx,0,8,2A,BB,44,9C,42,1A,CD,0C,
18338532,00000426,false,Rx,0,8,00,68,03,00,53,18,00,40,
18338983,000001A1,false,Rx,0,8,B0,45,20,14,05,0C,80,20,
18340429,00000445,false,Rx,0,7,80,DF,AA,65,04,82,00,00,
18342087,000001C7,false,Rx,0,4,AA,A0,FF,C0,00,00,00,00,
18343987,0000019F,false,Rx,0,8,00,00,7D,05,00,6A,90,FE,
18347592,00000157,false,Rx,0,8,D5,B7,09,C4,FF,E0,00,80,
18347807,00000155,false,Rx,0,8,33,87,D0,54,96,F0,02,C3,
18348985,000001A1,false,Rx,0,8,B0,45,20,14,05,0C,80,20,
18352064,000001C7,false,Rx,0,4,AA,A0,FF,C0,00,00,00,00,
18352509,00000435,false,Rx,0,8,FF,FF,1E,0B,2E,00,00,00,
18353984,0000019F,false,Rx,0,8,00,00,7D,0A,00,6A,90,FE,
18354264,00000419,false,Rx,0,6,53,00,28,E6,3E,00,00,00,
18357461,00000157,false,Rx,0,8,D5,07,09,C4,FF,E0,00,80,
18357705,00000155,false,Rx,0,8,33,87,D0,54,96,F0,02,C3,
18357909,00000436,false,Rx,0,6,80,16,64,39,FF,DC,00,00,
18358984,000001A1,false,Rx,0,8,B0,05,20,14,05,0C,80,20,
18362136,000004F7,false,Rx,0,8,00,1A,08,00,90,30,06,F0,
18362306,000001C7,false,Rx,0,4,AA,A0,FF,C0,00,00,00,00,
18362609,00000428,false,Rx,0,8,00,00,00,7F,00,00,00,00,
18362780,0000042F,false,Rx,0,2,00,20,00,00,00,00,00,00,
18363982,0000019F,false,Rx,0,8,00,00,7D,0F,00,6A,90,FE,
18367537,00000157,false,Rx,0,8,D5,57,09,C4,FF,E0,00,80,
18367760,00000155,false,Rx,0,8,33,87,D0,54,96,F0,02,C3,
18368984,000001A1,false,Rx,0,8,B0,45,20,14,05,0C,80,20,
18372066,000001C7,false,Rx,0,4,AA,A0,FF,C0,00,00,00,00,
18374012,0000019F,false,Rx,0,8,00,00,7D,04,00,6A,90,FE,
18377649,00000157,false,Rx,0,8,D5,A7,09,C4,FF,E0,00,80,
18377858,00000155,false,Rx,0,8,33,87,D0,54,96,F0,02,C3,
18378985,000001A1,false,Rx,0,8,B0,45,0C,14,05,0C,80,20,
18382062,000001C7,false,Rx,0,4,AA,A0,FF,C0,00,00,00,00,
18383990,0000019F,false,Rx,0,8,00,00,7D,09,00,6A,90,FE,
18387494,00000157,false,Rx,0,8,D5,F7,09,C4,FF,E0,00,80,
18387732,00000155,false,Rx,0,8,33,87,D0,54,96,F0,02,C3,
18388984,000001A1,false,Rx,0,8,B0,45,20,14,05,0C,80,20,
18392088,000001C7,false,Rx,0,4,AA,A0,FF,C0,00,00,00,00,
18394002,0000019F,false,Rx,0,8,00,00,7D,0E,00,6A,90,FE,
18397639,00000157,false,Rx,0,8,D5,47,09,C4,FF,E0,00,80,
18397858,00000155,false,Rx,0,8,33,87,D0,54,96,F0,02,C3,
18398986,000001A1,false,Rx,0,8,B0,45,20,14,05,0C,80,20,
18402089,000001C7,false,Rx,0,4,AA,A0,FF,C0,00,00,00,00,
18403988,0000019F,false,Rx,0,8,00,00,7D,03,00,6A,90,FE,
18404257,00000511,false,Rx,0,7,04,68,69,39,C4,9A,9D,00,
18407515,00000157,false,Rx,0,8,D5,97,09,C4,FF,E0,00,80,
18407732,00000155,false,Rx,0,8,33,87,D0,54,96,F0,02,C3,
18408986,000001A1,false,Rx,0,8,B0,45,20,14,05,0C,80,20,
18412091,000001C7,false,Rx,0,4,AA,A0,FF,C0,00,00,00,00,
18413986,0000019F,false,Rx,0,8,00,00,7D,08,00,6A,90,FE,
18417562,00000157,false,Rx,0,8,D5,E7,09,C4,FF,E0,00,80,
18417810,00000155,false,Rx,0,8,33,87,D0,54,96,F0,02,C3,
18418986,000001A1,false,Rx,0,8,B0,85,0C,14,05,0C,80,20,
18422090,000001C7,false,Rx,0,4,AA,A0,FF,C0,00,00,00,00,
18423991,0000019F,false,Rx,0,8,00,00,7D,0D,00,6A,90,FE,
18427619,00000157,false,Rx,0,8,D5,37,09,C4,FF,E0,00,80,
18427861,00000155,false,Rx,0,8,33,87,D0,54,96,F0,02,C3,
18428988,000001A1,false,Rx,0,8,B0,45,0C,14,05,0C,80,20,
18432092,000001C7,false,Rx,0,4,AA,A0,FF,C0,00,00,00,00,
18432427,00000423,false,Rx,0,8,07,1E,00,01,5D,80,B2,C6,
18433995,0000019F,false,Rx,0,8,00,00,7D,02,00,6A,90,FE,
18437467,00000157,false,Rx,0,8,D5,87,09,C4,FF,E0,00,80,
18437710,00000155,false,Rx,0,8,33,87,D0,54,96,F0,02,C3,
18437935,00000424,false,Rx,0,8,11,40,56,C8,33,5E,55,34,
18438161,00000425,false,Rx,0,8,2A,BB,44,9C,42,1A,CD,0C,
18438429,00000426,false,Rx,0,8,00,68,03,00,53,18,00,40,
18438975,000001A1,false,Rx,0,8,B0,45,0C,14,05,0C,80,20,
18440428,00000445,false,Rx,0,7,80,DF,AA,65,04,82,00,00,
18442112,000001C7,false,Rx,0,4,AA,A0,FF,C0,00,00,00,00,
18443988,0000019F,false,Rx,0,8,00,00,7D,07,00,6A,90,FE,
18447464,00000157,false,Rx,0,8,D5,D7,09,C4,FF,E0,00,80,
18447699,00000155,false,Rx,0,8,33,87,D0,54,96,F0,02,C3,
18448987,000001A1,false,Rx,0,8,B0,85,20,14,05,0C,80,20,
18452116,000001C7,false,Rx,0,4,AA,A0,FF,C0,00,00,00,00,
18452439,00000435,false,Rx,0,8,FF,FF,1E,0B,2E,00,00,00,
18453988,0000019F,false,Rx,0,8,00,00,7D,0C,00,6A,90,FE,
18454261,00000419,false,Rx,0,6,53,00,28,E6,3E,00,00,00,
18457590,00000157,false,Rx,0,8,D5,27,09,C4,FF,E0,00,80,
18457810,00000155,false,Rx,0,8,33,87,D0,54,96,F0,02,C3,
18458030,00000436,false,Rx,0,6,80,16,64,39,FF,DC,00,00,
18458983,000001A1,false,Rx,0,8,B0,85,20,14,05,0C,80,20,
18462186,000004F7,false,Rx,0,8,00,1A,08,00,90,30,06,F0,
18462357,000001C7,false,Rx,0,4,AA,A0,FF,C0,00,00,00,00,
18462655,00000428,false,Rx,0,8,00,00,00,7F,00,00,00,00,
18462830,0000042F,false,Rx,0,2,00,20,00,00,00,00,00,00,
18464009,0000019F,false,Rx,0,8,00,00,7D,01,00,6A,90,FE,
18467634,00000157,false,Rx,0,8,D5,77,09,C4,FF,E0,00,80,
18467856,00000155,false,Rx,0,8,33,87,D0,54,96,F0,02,C3,
18468982,000001A1,false,Rx,0,8,B0,45,20,14,05,0C,80,20,
18472109,000001C7,false,Rx,0,4,AA,A0,FF,C0,00,00,00,00,
18474007,0000019F,false,Rx,0,8,00,00,7D,06,00,6A,90,FE,
18477510,00000157,false,Rx,0,8,D5,C7,09,C4,FF,E0,00,80,
18477781,00000155,false,Rx,0,8,33,87,CF,54,96,F0,02,C3,
18478981,000001A1,false,Rx,0,8,B0,45,20,14,05,0C,80,20,
18482110,000001C7,false,Rx,0,4,AA,A0,FF,C0,00,00,00,00,
18483983,0000019F,false,Rx,0,8,00,00,7D,0B,00,6A,90,FE,
18487535,00000157,false,Rx,0,8,D5,17,09,C4,FF,E0,00,80,
18487754,00000155,false,Rx,0,8,33,87,D0,54,96,F0,02,C3,
18488982,000001A1,false,Rx,0,8,B0,85,20,14,05,0C,80,20,
18492133,000001C7,false,Rx,0,4,AA,A0,FF,C0,00,00,00,00,
18494008,0000019F,false,Rx,0,8,00,00,7D,00,00,6A,90,FE,
18497585,00000157,false,Rx,0,8,D5,67,09,C4,FF,E0,00,80,
18497803,00000155,false,Rx,0,8,33,87,D0,54,96,F0,02,C3,
18498989,000001A1,false,Rx,0,8,B0,45,20,14,05,0C,80,20,
18502136,000001C7,false,Rx,0,4,AA,A0,FF,C0,00,00,00,00,
18503985,0000019F,false,Rx,0,8,00,00,7D,05,00,6A,90,FE,
18504285,00000511,false,Rx,0,7,04,A7,32,F2,2F,A7,80,00,
18507459,00000157,false,Rx,0,8,D5,B7,09,C4,FF,E0,00,80,
18507730,00000155,false,Rx,0,8,33,87,CF,54,96,F0,02,C3,
18508985,000001A1,false,Rx,0,8,B0,45,20,14,05,0C,80,20,
18512135,000001C7,false,Rx,0,4,AA,A0,FF,C0,00,00,00,00,
18514010,0000019F,false,Rx,0,8,00,00,7D,0A,00,6A,90,FE,
18517512,00000157,false,Rx,0,8,D5,07,09,C4,FF,E0,00,80,
18517755,00000155,false,Rx,0,8,33,87,CF,54,96,F0,02,C3,
18518985,000001A1,false,Rx,0,8,B0,85,20,14,05,0C,80,20,
18522139,000001C7,false,Rx,0,4,AA,A0,FF,C0,00,00,00,00,
18523986,0000019F,false,Rx,0,8,00,00,7D,0F,00,6A,90,FE,
18527511,00000157,false,Rx,0,8,D5,57,09,C4,FF,E0,00,80,
18527730,00000155,false,Rx,0,8,33,87,CF,54,96,F0,02,C3,
18528983,000001A1,false,Rx,0,8,B0,45,20,14,05,0C,80,20,
18532160,000001C7,false,Rx,0,4,AA,A0,FF,C0,00,00,00,00,
18532529,00000423,false,Rx,0,8,07,1E,00,01,B2,80,5D,C6,
18534008,0000019F,false,Rx,0,8,00,00,7D,04,00,6A,90,FE,
18537558,00000157,false,Rx,0,8,D5,A7,09,C4,FF,E0,00,80,
18537779,00000155,false,Rx,0,8,33,87,D0,54,96,F0,02,C3,
18538004,00000424,false,Rx,0,8,11,40,56,C8,33,5E,AA,34,
18538230,00000425,false,Rx,0,8,2A,BB,44,9C,42,1A,CD,0C,
18538479,00000426,false,Rx,0,8,00,68,03,00,53,18,00,40,
18538980,000001A1,false,Rx,0,8,B0,45,20,14,05,0C,80,20,
18540424,00000445,false,Rx,0,7,80,DF,55,65,04,82,00,00,
18542156,000001C7,false,Rx,0,4,AA,A0,FF,C0,00,00,00,00,
18543983,0000019F,false,Rx,0,8,00,00,7D,09,00,6A,90,FE,
18547565,00000157,false,Rx,0,8,D5,F7,09,C4,FF,E0,00,80,
18547804,00000155,false,Rx,0,8,33,87,D0,54,96,F0,02,C3,
18548982,000001A1,false,Rx,0,8,B0,85,20,14,05,0C,80,20,
18552165,000001C7,false,Rx,0,4,AA,A0,FF,C0,00,00,00,00,
18552425,00000435,false,Rx,0,8,FF,FF,1E,0B,2E,00,00,00,
18553985,0000019F,false,Rx,0,8,00,00,7D,0E,00,6A,90,FE,
18554257,00000419,false,Rx,0,6,53,00,28,E6,3E,00,00,00,
18557463,00000157,false,Rx,0,8,D5,47,09,C4,FF,E0,00,80,
18557683,00000155,false,Rx,0,8,33,87,D0,54,96,F0,02,C3,
18557884,00000436,false,Rx,0,6,80,16,64,39,FF,DC,00,00,
18558983,000001A1,false,Rx,0,8,B0,45,20,14,05,0C,80,20,
18562236,000004F7,false,Rx,0,8,00,1A,08,00,90,30,06,F0,
18562424,000001C7,false,Rx,0,4,AA,A0,FF,C0,00,00,00,00,
18562720,00000428,false,Rx,0,8,00,00,00,7F,00,00,00,00,
18562896,0000042F,false,Rx,0,2,00,20,00,00,00,00,00,00,
18563981,0000019F,false,Rx,0,8,00,00,7D,03,00,6A,90,FE,
18567509,00000157,false,Rx,0,8,D5,97,09,C4,FF,E0,00,80,
18567730,00000155,false,Rx,0,8,33,87,D0,54,96,F0,02,C3,
18568981,000001A1,false,Rx,0,8,B0,85,20,14,05,0C,80,20,
18572163,000001C7,false,Rx,0,4,AA,A0,FF,C0,00,00,00,00,
18574013,0000019F,false,Rx,0,8,00,00,7D,08,00,6A,90,FE,
18577538,00000157,false,Rx,0,8,D5,E7,09,C4,FF,E0,00,80,
18577783,00000155,false,Rx,0,8,33,87,D0,54,96,F0,02,C3,
18578984,000001A1,false,Rx,0,8,B0,45,20,14,05,0C,80,20,
18582161,000001C7,false,Rx,0,4,AA,A0,FF,C0,00,00,00,00,
18583986,0000019F,false,Rx,0,8,00,00,7D,0D,00,6A,90,FE,
18587637,00000157,false,Rx,0,8,D5,37,09,C4,FF,E0,00,80,
18587854,00000155,false,Rx,0,8,33,87,D0,54,96,F0,02,C3,
18588980,000001A1,false,Rx,0,8,B0,45,20,14,05,0C,80,20,
18592183,000001C7,false,Rx,0,4,AA,A0,FF,C0,00,00,00,00,
18594007,0000019F,false,Rx,0,8,00,00,7D,02,00,6A,90,FE,
18597509,00000157,false,Rx,0,8,D5,87,09,C4,FF,E0,00,80,
18597754,00000155,false,Rx,0,8,33,87,D0,54,96,F0,02,C3,
18598981,000001A1,false,Rx,0,8,B0,85,20,14,05,0C,80,20,
18602196,000001C7,false,Rx,0,4,AA,A0,FF,C0,00,00,00,00,
18604021,0000019F,false,Rx,0,8,00,00,7D,07,00,6A,90,FE,
18604265,00000511,false,Rx,0,7,04,E6,FB,AB,9A,B4,63,00,
18607465,00000157,false,Rx,0,8,D5,D7,09,C4,FF,E0,00,80,
18607739,00000155,false,Rx,0,8,33,87,D0,54,96,F0,02,C3,
18608988,000001A1,false,Rx,0,8,B0,85,20,14,05,0C,80,20,
18612210,000001C7,false,Rx,0,4,AA,A0,FF,C0,00,00,00,00,
18613989,0000019F,false,Rx,0,8,00,00,7D,0C,00,6A,90,FE,
18617466,00000157,false,Rx,0,8,D5,27,09,C4,FF,E0,00,80,
18617692,00000155,false,Rx,0,8,33,87,CF,54,96,F0,02,C3,
18618988,000001A1,false,Rx,0,8,B0,45,20,14,05,0C,80,20,
18622181,000001C7,false,Rx,0,4,AA,A0,FF,C0,00,00,00,00,
18624011,0000019F,false,Rx,0,8,00,00,7D,01,00,6A,90,FE,
18627592,00000157,false,Rx,0,8,D5,77,09,C4,FF,E0,00,80,
18627806,00000155,false,Rx,0,8,33,87,D0,54,96,F0,02,C3,
18628981,000001A1,false,Rx,0,8,B0,85,20,14,05,0C,80,20,
18632268,000001C7,false,Rx,0,4,AA,A0,FF,C0,00,00,00,00,
18632555,00000423,false,Rx,0,8,07,1E,00,01,B2,80,5D,C6,
18634178,0000019F,false,Rx,0,8,00,00,7D,06,00,6A,90,FE,
18637896,00000157,false,Rx,0,8,D5,C7,09,C4,FF,E0,00,80,
18637902,00000155,false,Rx,0,8,33,87,D0,54,96,F0,02,C3,
18638156,00000424,false,Rx,0,8,11,40,56,C8,33,5E,AA,34,
18638385,00000425,false,Rx,0,8,2A,BB,44,9C,42,1A,CD,0C,
18638635,00000426,false,Rx,0,8,00,68,03,00,53,18,00,40,
18639163,000001A1,false,Rx,0,8,B0,85,20,14,05,0C,80,20,
18640506,00000445,false,Rx,0,7,80,DF,55,65,04,82,00,00,
18642378,000001C7,false,Rx,0,4,AA,A0,FF,C0,00,00,00,00,
18644173,0000019F,false,Rx,0,8,00,00,7D,0B,00,6A,90,FE,
18647502,00000157,false,Rx,0,8,D5,17,09,C4,FF,E0,00,80,
18647783,00000155,false,Rx,0,8,33,87,D0,54,96,F0,02,C3,
18649053,000001A1,false,Rx,0,8,B0,45,20,14,05,0C,80,20,
18652447,000001C7,false,Rx,0,4,AA,A0,FF,C0,00,00,00,00,
18652510,00000435,false,Rx,0,8,FF,FF,1E,0B,2E,00,00,00,
18654163,0000019F,false,Rx,0,8,00,00,7D,00,00,6A,90,FE,
18654278,00000419,false,Rx,0,6,53,00,28,E6,3E,00,00,00,
18657614,00000157,false,Rx,0,8,D5,67,09,C4,FF,E0,00,80,
18657706,00000155,false,Rx,0,8,33,87,D0,54,96,F0,02,C3,
18658062,00000436,false,Rx,0,6,80,16,64,39,FF,DC,00,00,
18659141,000001A1,false,Rx,0,8,B0,45,20,14,05,0C,80,20,
18662438,000004F7,false,Rx,0,8,00,1A,08,00,90,30,06,F0,
18662480,000001C7,false,Rx,0,4,AA,A0,FF,C0,00,00,00,00,
18662849,00000428,false,Rx,0,8,00,00,00,7F,00,00,00,00,
18663033,0000042F,false,Rx,0,2,00,20,00,00,00,00,00,00,
18664186,0000019F,false,Rx,0,8,00,00,7D,05,00,6A,90,FE,
18667778,00000157,false,Rx,0,8,D5,B7,09,C4,FF,E0,00,80,
18667786,00000155,false,Rx,0,8,33,87,D0,54,96,F0,02,C3,
18669254,000001A1,false,Rx,0,8,B0,85,20,14,05,0C,80,20,
18672452,000001C7,false,Rx,0,4,AA,A0,FF,C0,00,00,00,00,
18674293,0000019F,false,Rx,0,8,00,00,7D,0A,00,6A,90,FE,
18677692,00000157,false,Rx,0,8,D5,07,09,C4,FF,E0,00,80,
18677762,00000155,false,Rx,0,8,33,87,CF,54,96,F0,02,C3,
18679050,000001A1,false,Rx,0,8,B0,85,20,14,05,0C,80,20,
18682271,000001C7,false,Rx,0,4,AA,A0,FF,C0,00,00,00,00,
18684005,0000019F,false,Rx,0,8,00,00,7D,0F,00,6A,90,FE,
18687478,00000157,false,Rx,0,8,D5,57,09,C4,FF,E0,00,80,
18687704,00000155,false,Rx,0,8,33,87,D0,54,96,F0,02,C3,
18689002,000001A1,false,Rx,0,8,B0,85,20,14,05,0C,80,20,
18692251,000001C7,false,Rx,0,4,AA,A0,FF,C0,00,00,00,00,
18694025,0000019F,false,Rx,0,8,00,00,7D,04,00,6A,90,FE,
18697450,00000157,false,Rx,0,8,D5,A7,09,C4,FF,E0,00,80,
18697701,00000155,false,Rx,0,8,33,87,D0,54,96,F0,02,C3,
18699000,000001A1,false,Rx,0,8,B0,45,20,14,05,0C,80,20,
18702251,000001C7,false,Rx,0,4,AA,A0,FF,C0,00,00,00,00,
18704000,0000019F,false,Rx,0,8,00,00,7D,09,00,6A,90,FE,
18704278,00000511,false,Rx,0,7,04,25,C4,64,05,C1,46,00,
18707503,00000157,false,Rx,0,8,D5,F7,09,C4,FF,E0,00,80,
18707727,00000155,false,Rx,0,8,33,87,D0,54,96,F0,02,C3,
18708992,000001A1,false,Rx,0,8,B0,45,20,14,05,0C,80,20,
18712251,000001C7,false,Rx,0,4,AA,A0,FF,C0,00,00,00,00,
18714025,0000019F,false,Rx,0,8,00,00,7D,0E,00,6A,90,FE,
18717500,00000157,false,Rx,0,8,D5,47,09,C4,FF,E0,00,80,
18717725,00000155,false,Rx,0,8,33,87,D0,54,96,F0,02,C3,
18719000,000001A1,false,Rx,0,8,B0,85,20,14,05,0C,80,20,
18722250,000001C7,false,Rx,0,4,AA,A0,FF,C0,00,00,00,00,
18724025,0000019F,false,Rx,0,8,00,00,7D,03,00,6A,90,FE,
18727500,00000157,false,Rx,0,8,D5,97,09,C4,FF,E0,00,80,
18727727,00000155,false,Rx,0,8,33,87,D0,54,96,F0,02,C3,
18729002,000001A1,false,Rx,0,8,B0,45,20,14,05,0C,80,20,
18732268,000001C7,false,Rx,0,4,AA,A0,FF,C0,00,00,00,00,
18732488,00000423,false,Rx,0,8,07,1E,00,01,B2,80,5D,C6,
18734017,0000019F,false,Rx,0,8,00,00,7D,08,00,6A,90,FE,
18737495,00000157,false,Rx,0,8,D5,E7,09,C4,FF,E0,00,80,
18737720,00000155,false,Rx,0,8,33,87,CF,54,96,F0,02,C3,
18737944,00000424,false,Rx,0,8,11,40,56,C8,33,5E,AA,34,
18738142,00000425,false,Rx,0,8,2A,BB,44,9C,42,1A,CD,0C,
18738463,00000426,false,Rx,0,8,00,68,03,00,53,18,00,40,
18739035,000001A1,false,Rx,0,8,B0,45,20,14,05,0C,80,20,
18740469,00000445,false,Rx,0,7,80,DF,55,65,04,82,00,00,
18742266,000001C7,false,Rx,0,4,AA,A0,FF,C0,00,00,00,00,
18744045,0000019F,false,Rx,0,8,00,00,7D,0D,00,6A,90,FE,
18747480,00000157,false,Rx,0,8,D5,37,09,C4,FF,E0,00,80,
18747708,00000155,false,Rx,0,8,33,87,D0,54,96,F0,02,C3,
18748998,000001A1,false,Rx,0,8,B0,85,20,14,05,0C,80,20,
18752277,000001C7,false,Rx,0,4,AA,A0,FF,C0,00,00,00,00,
18752516,00000435,false,Rx,0,8,FF,FF,1E,0B,2E,00,00,00,
18754024,0000019F,false,Rx,0,8,00,00,7D,02,00,6A,90,FE,
18754269,00000419,false,Rx,0,6,53,00,28,E6,3E,00,00,00,
18757502,00000157,false,Rx,0,8,D5,87,09,C4,FF,E0,00,80,
18757789,00000155,false,Rx,0,8,33,87,CF,54,96,F0,02,C3,
18757923,00000436,false,Rx,0,6,80,16,64,39,FF,DC,00,00,
18759021,000001A1,false,Rx,0,8,B0,85,20,14,05,0C,80,20,
18762377,000004F7,false,Rx,0,8,00,1A,08,00,90,30,06,F0,
18762520,000001C7,false,Rx,0,4,AA,A0,FF,C0,00,00,00,00,
18762767,00000428,false,Rx,0,8,00,00,00,7F,00,00,00,00,
18762951,0000042F,false,Rx,0,2,00,20,00,00,00,00,00,00,
18764023,0000019F,false,Rx,0,8,00,00,7D,07,00,6A,90,FE,
18767542,00000157,false,Rx,0,8,D5,D7,09,C4,FF,E0,00,80,
18767766,00000155,false,Rx,0,8,33,87,D0,54,96,F0,02,C3,
18768992,000001A1,false,Rx,0,8,B0,45,20,14,05,0C,80,20,
18772292,000001C7,false,Rx,0,4,AA,A0,FF,C0,00,00,00,00,
18774017,0000019F,false,Rx,0,8,00,00,7D,0C,00,6A,90,FE,
18777626,00000157,false,Rx,0,8,D5,27,09,C4,FF,E0,00,80,
18777878,00000155,false,Rx,0,8,33,87,D0,54,96,F0,02,C3,
18779001,000001A1,false,Rx,0,8,B0,85,20,14,05,0C,80,20,
18782302,000001C7,false,Rx,0,4,AA,A0,FF,C0,00,00,00,00,
18784026,0000019F,false,Rx,0,8,00,00,7D,01,00,6A,90,FE,
18787552,00000157,false,Rx,0,8,D5,77,09,C4,FF,E0,00,80,
18787771,00000155,false,Rx,0,8,33,87,D0,54,96,F0,02,C3,
18789011,000001A1,false,Rx,0,8,B0,85,20,14,05,0C,80,20,
18792305,000001C7,false,Rx,0,4,AA,A0,FF,C0,00,00,00,00,
18794027,0000019F,false,Rx,0,8,00,00,7D,06,00,6A,90,FE,
18797568,00000157,false,Rx,0,8,D5,C7,09,C4,FF,E0,00,80,
18797792,00000155,false,Rx,0,8,33,87,D0,54,96,F0,02,C3,
18798995,000001A1,false,Rx,0,8,B0,45,20,14,05,0C,80,20,
18802305,000001C7,false,Rx,0,4,AA,A0,FF,C0,00,00,00,00,
18804027,0000019F,false,Rx,0,8,00,00,7D,0B,00,6A,90,FE,
18804299,00000511,false,Rx,0,7,04,64,8D,1D,70,CE,29,00,
18807493,00000157,false,Rx,0,8,D5,17,09,C4,FF,E0,00,80,
18807722,00000155,false,Rx,0,8,33,87,D0,54,96,F0,02,C3,
18809009,000001A1,false,Rx,0,8,B0,45,20,14,05,0C,80,20,
18812356,000001C7,false,Rx,0,4,AA,A0,FF,C0,00,00,00,00,
18814046,0000019F,false,Rx,0,8,00,00,7D,00,00,6A,90,FE,
18817547,00000157,false,Rx,0,8,D5,67,09,C4,FF,E0,00,80,
18817773,00000155,false,Rx,0,8,33,87,D0,54,96,F0,02,C3,
18819021,000001A1,false,Rx,0,8,B0,85,20,14,05,0C,80,20,
18822347,000001C7,false,Rx,0,4,AA,A0,FF,C0,00,00,00,00,
18824051,0000019F,false,Rx,0,8,00,00,7D,05,00,6A,90,FE,
18827544,00000157,false,Rx,0,8,D5,B7,09,C4,FF,E0,00,80,
18827767,00000155,false,Rx,0,8,33,87,D0,54,96,F0,02,C3,
18828989,000001A1,false,Rx,0,8,B0,85,20,14,05,0C,80,20,
18832316,000001C7,false,Rx,0,4,AA,A0,FF,C0,00,00,00,00,
18832538,00000423,false,Rx,0,8,07,1E,00,01,B2,80,5D,C6,
18834010,0000019F,false,Rx,0,8,00,00,7D,0A,00,6A,90,FE,
18837669,00000157,false,Rx,0,8,D5,07,09,C4,FF,E0,00,80,
18837938,00000155,false,Rx,0,8,33,87,D0,54,96,F0,02,C3,
18838118,00000424,false,Rx,0,8,11,40,56,C8,33,5E,AA,34,
18838419,00000425,false,Rx,0,8,2A,BB,44,9C,42,1A,CD,0C,
18838584,00000426,false,Rx,0,8,00,68,03,00,53,18,00,40,
18839157,000001A1,false,Rx,0,8,B0,45,20,14,05,0C,80,20,
18840516,00000445,false,Rx,0,7,80,DF,55,65,04,82,00,00,
18842411,000001C7,false,Rx,0,4,AA,A0,FF,C0,00,00,00,00,
18844279,0000019F,false,Rx,0,8,00,00,7D,0F,00,6A,90,FE,
18847656,00000157,false,Rx,0,8,D5,57,09,C4,FF,E0,00,80,
18847859,00000155,false,Rx,0,8,33,87,D0,54,96,F0,02,C3,
18849075,000001A1,false,Rx,0,8,B0,45,20,14,05,0C,80,20,
18852497,000001C7,false,Rx,0,4,AA,A0,FF,C0,00,00,00,00,
18852563,00000435,false,Rx,0,8,FF,FF,1E,0B,2E,00,00,00,
18854169,0000019F,false,Rx,0,8,00,00,7D,04,00,6A,90,FE,
18854263,00000419,false,Rx,0,6,53,00,28,E6,3E,00,00,00,
18857782,00000157,false,Rx,0,8,D5,A7,09,C4,FF,E0,00,80,
18857865,00000155,false,Rx,0,8,33,87,D0,54,96,F0,02,C3,
18858145,00000436,false,Rx,0,6,80,16,64,39,FF,DC,00,00,
18859166,000001A1,false,Rx,0,8,B0,85,20,14,05,0C,80,20,
18862609,000004F7,false,Rx,0,8,00,1A,08,00,90,30,06,F0,
18862618,000001C7,false,Rx,0,4,AA,A0,FF,C0,00,00,00,00,
18862898,00000428,false,Rx,0,8,00,00,00,7F,00,00,00,00,
18863009,0000042F,false,Rx,0,2,00,20,00,00,00,00,00,00,
18864234,0000019F,false,Rx,0,8,00,00,7D,09,00,6A,90,FE,
18867681,00000157,false,Rx,0,8,D5,F7,09,C4,FF,E0,00,80,
18867763,00000155,false,Rx,0,8,33,87,D0,54,96,F0,02,C3,
18869154,000001A1,false,Rx,0,8,B0,85,20,14,05,0C,80,20,
18872397,000001C7,false,Rx,0,4,AA,A0,FF,C0,00,00,00,00,
18874280,0000019F,false,Rx,0,8,00,00,7D,0E,00,6A,90,FE,
18877880,00000157,false,Rx,0,8,D5,47,09,C4,FF,E0,00,80,
18877891,00000155,false,Rx,0,8,33,87,CF,54,96,F0,02,C3,
18879164,000001A1,false,Rx,0,8,B0,85,20,14,05,0C,80,20,
18882536,000001C7,false,Rx,0,4,AA,A0,FF,C0,00,00,00,00,
18884034,0000019F,false,Rx,0,8,00,00,7D,03,00,6A,90,FE,
18887858,00000157,false,Rx,0,8,D5,97,09,C4,FF,E0,00,80,
18887868,00000155,false,Rx,0,8,33,87,CF,54,96,F0,02,C3,
18889255,000001A1,false,Rx,0,8,B0,45,20,14,05,0C,80,20,
18892573,000001C7,false,Rx,0,4,AA,A0,FF,C0,00,00,00,00,
18894269,0000019F,false,Rx,0,8,00,00,7D,08,00,6A,90,FE,
18897838,00000157,false,Rx,0,8,D5,E7,09,C4,FF,E0,00,80,
18897848,00000155,false,Rx,0,8,33,87,D0,54,96,F0,02,C3,
18899066,000001A1,false,Rx,0,8,B0,85,20,14,05,0C,80,20,
18902577,000001C7,false,Rx,0,4,AA,A0,FF,C0,00,00,00,00,
18904281,0000019F,false,Rx,0,8,00,00,7D,0D,00,6A,90,FE,
18904289,00000511,false,Rx,0,7,04,A3,56,D6,DB,DB,0C,00,
18907678,00000157,false,Rx,0,8,D5,37,09,C4,FF,E0,00,80,
18907852,00000155,false,Rx,0,8,33,87,D0,54,96,F0,02,C3,
18909159,000001A1,false,Rx,0,8,B0,85,20,14,05,0C,80,20,
18912562,000001C7,false,Rx,0,4,AA,A0,FF,C0,00,00,00,00,
18914283,0000019F,false,Rx,0,8,00,00,7D,02,00,6A,90,FE,
18917668,00000157,false,Rx,0,8,D5,87,09,C4,FF,E0,00,80,
18917687,00000155,false,Rx,0,8,33,87,D0,54,96,F0,02,C3,
18919187,000001A1,false,Rx,0,8,B0,45,20,14,05,0C,80,20,
18922473,000001C7,false,Rx,0,4,AA,A0,FF,C0,00,00,00,00,
18924284,0000019F,false,Rx,0,8,00,00,7D,07,00,6A,90,FE,
18927857,00000157,false,Rx,0,8,D5,D7,09,C4,FF,E0,00,80,
18927867,00000155,false,Rx,0,8,33,87,D0,54,96,F0,02,C3,
18929049,000001A1,false,Rx,0,8,B0,85,20,14,05,0C,80,20,
18932496,000001C7,false,Rx,0,4,AA,A0,FF,C0,00,00,00,00,
18932627,00000423,false,Rx,0,8,07,1E,00,01,B2,80,5D,C6,
18934075,0000019F,false,Rx,0,8,00,00,7D,0C,00,6A,90,FE,
18937645,00000157,false,Rx,0,8,D5,27,09,C4,FF,E0,00,80,
18937821,00000155,false,Rx,0,8,33,87,D0,54,96,F0,02,C3,
18938107,00000424,false,Rx,0,8,11,40,56,C8,33,5E,AA,34,
18938326,00000425,false,Rx,0,8,2A,BB,44,9C,42,1A,CD,0C,
18938544,00000426,false,Rx,0,8,00,68,03,00,53,18,00,40,
18939044,000001A1,false,Rx,0,8,B0,85,20,14,05,0C,80,20,
18940443,00000445,false,Rx,0,7,80,DF,55,65,04,82,00,00,
18942482,000001C7,false,Rx,0,4,AA,A0,FF,C0,00,00,00,00,
18944063,0000019F,false,Rx,0,8,00,00,7D,01,00,6A,90,FE,
18947563,00000157,false,Rx,0,8,D5,77,09,C4,FF,E0,00,80,
18947816,00000155,false,Rx,0,8,33,87,D0,54,96,F0,02,C3,
18949038,000001A1,false,Rx,0,8,B0,45,20,14,05,0C,80,20,
18952482,00000435,false,Rx,0,8,FF,FF,1E,0B,2E,00,00,00,
18952598,000001C7,false,Rx,0,4,AA,A0,FF,C0,00,00,00,00,
18954063,0000019F,false,Rx,0,8,00,00,7D,06,00,6A,90,FE,
18954316,00000419,false,Rx,0,6,53,00,28,E6,3E,00,00,00,
18957615,00000157,false,Rx,0,8,D5,C7,09,C4,FF,E0,00,80,
18957841,00000155,false,Rx,0,8,33,87,CF,54,96,F0,02,C3,
18958047,00000436,false,Rx,0,6,80,16,64,39,FF,DC,00,00,
18959019,000001A1,false,Rx,0,8,B0,85,20,14,05,0C,80,20,
18962514,000004F7,false,Rx,0,8,00,1A,08,00,90,30,06,F0,
18962660,000001C7,false,Rx,0,4,AA,A0,FF,C0,00,00,00,00,
18962943,00000428,false,Rx,0,8,00,00,00,7F,00,00,00,00,
18963106,0000042F,false,Rx,0,2,00,20,00,00,00,00,00,00,
18964066,0000019F,false,Rx,0,8,00,00,7D,0B,00,6A,90,FE,
18967504,00000157,false,Rx,0,8,D5,17,09,C4,FF,E0,00,80,
18967729,00000155,false,Rx,0,8,33,87,D0,54,96,F0,02,C3,
18969038,000001A1,false,Rx,0,8,B0,85,20,14,05,0C,80,20,
18972482,000001C7,false,Rx,0,4,AA,A0,FF,C0,00,00,00,00,
18974063,0000019F,false,Rx,0,8,00,00,7D,00,00,6A,90,FE,
18977740,00000157,false,Rx,0,8,D5,67,09,C4,FF,E0,00,80,
18977966,00000155,false,Rx,0,8,33,87,CF,54,96,F0,02,C3,
18979041,000001A1,false,Rx,0,8,B0,85,20,14,05,0C,80,20,
18982473,000001C7,false,Rx,0,4,AA,A0,FF,C0,00,00,00,00,
18984055,0000019F,false,Rx,0,8,00,00,7D,05,00,6A,90,FE,
18987516,00000157,false,Rx,0,8,D5,B7,09,C4,FF,E0,00,80,
18987729,00000155,false,Rx,0,8,33,87,CF,54,96,F0,02,C3,
18989005,000001A1,false,Rx,0,8,B1,45,20,14,05,0C,80,20,
18992465,000001C7,false,Rx,0,4,AA,A0,FF,C0,00,00,00,00,
18994019,0000019F,false,Rx,0,8,00,00,7D,0A,00,6A,90,FE,
18997496,00000157,false,Rx,0,8,D5,07,09,C4,FF,E0,00,80,
18997732,00000155,false,Rx,0,8,33,87,D0,54,96,F0,02,C3,
18999004,000001A1,false,Rx,0,8,B1,45,20,14,05,0C,80,20,
19002452,000001C7,false,Rx,0,4,AA,A0,FF,C0,00,00,00,00,
19004036,0000019F,false,Rx,0,8,00,00,7D,0F,00,6A,90,FE,
19004295,00000511,false,Rx,0,7,04,E2,1F,8F,46,E8,EF,00,
19007602,00000157,false,Rx,0,8,D5,57,09,C4,FF,E0,00,80,
19007851,00000155,false,Rx,0,8,33,87,D0,54,96,F0,02,C3,
19009001,000001A1,false,Rx,0,8,B1,45,20,14,05,0C,80,20,
19012447,000001C7,false,Rx,0,4,AA,A0,FF,C0,00,00,00,00,
19014034,0000019F,false,Rx,0,8,00,00,7D,04,00,6A,90,FE,
19017566,00000157,false,Rx,0,8,D5,A7,09,C4,FF,E0,00,80,
19017786,00000155,false,Rx,0,8,33,87,D0,54,96,F0,02,C3,
19019055,000001A1,false,Rx,0,8,B1,45,20,14,05,0C,80,20,
19021106,0000069F,false,Rx,0,4,71,30,28,2F,00,00,00,00,
19022462,000001C7,false,Rx,0,4,AA,A0,FF,C0,00,00,00,00,
19024055,0000019F,false,Rx,0,8,00,00,7D,09,00,6A,90,FE,
19027539,00000157,false,Rx,0,8,D5,F7,09,C4,FF,E0,00,80,
19027814,00000155,false,Rx,0,8,33,87,D0,54,96,F0,02,C3,
19029039,000001A1,false,Rx,0,8,B1,45,20,14,05,0C,80,20,
19032504,00000423,false,Rx,0,8,07,1E,00,01,5D,80,B2,C6,
19032616,000001C7,false,Rx,0,4,AA,A0,FF,C0,00,00,00,00,
19034053,0000019F,false,Rx,0,8,00,00,7D,0E,00,6A,90,FE,
19037505,00000157,false,Rx,0,8,D5,47,09,C4,FF,E0,00,80,
19037728,00000155,false,Rx,0,8,33,87,D0,54,96,F0,02,C3,
19037956,00000424,false,Rx,0,8,11,40,56,C8,33,5E,55,34,
19038180,00000425,false,Rx,0,8,2A,BB,44,9C,42,1A,CD,0C,
19038475,00000426,false,Rx,0,8,00,68,03,00,53,18,00,40,
19039044,000001A1,false,Rx,0,8,B1,45,20,14,05,0C,80,20,
19040474,00000445,false,Rx,0,7,80,DF,AA,65,04,82,00,00,
19042514,000001C7,false,Rx,0,4,AA,A0,FF,C0,00,00,00,00,
19044066,0000019F,false,Rx,0,8,00,00,7D,03,00,6A,90,FE,
19047497,00000157,false,Rx,0,8,D5,97,09,C4,FF,E0,00,80,
19047712,00000155,false,Rx,0,8,33,87,D0,54,96,F0,02,C3,
19049019,000001A1,false,Rx,0,8,B1,45,20,14,05,0C,80,20,
19052463,00000435,false,Rx,0,8,FF,FF,1E,0B,2E,00,00,00,
19052610,000001C7,false,Rx,0,4,AA,A0,FF,C0,00,00,00,00,
19054044,0000019F,false,Rx,0,8,00,00,7D,08,00,6A,90,FE,
19054318,00000419,false,Rx,0,6,53,00,28,E6,3E,00,00,00,
19057541,00000157,false,Rx,0,8,D5,E7,09,C4,FF,E0,00,80,
19057765,00000155,false,Rx,0,8,33,87,D0,54,96,F0,02,C3,
19057964,00000436,false,Rx,0,6,80,16,64,39,FF,DC,00,00,
19059014,000001A1,false,Rx,0,8,B1,45,20,14,05,0C,80,20,
19062564,000004F7,false,Rx,0,8,00,1A,08,00,90,30,06,F0,
19062707,000001C7,false,Rx,0,4,AA,A0,FF,C0,00,00,00,00,
19063016,00000428,false,Rx,0,8,00,00,00,7F,00,00,00,00,
19063145,0000042F,false,Rx,0,2,00,20,00,00,00,00,00,00,
19064024,0000019F,false,Rx,0,8,00,00,7D,0D,00,6A,90,FE,
19067542,00000157,false,Rx,0,8,D5,37,09,C4,FF,E0,00,80,
19067792,00000155,false,Rx,0,8,33,87,D0,54,96,F0,02,C3,
19069012,000001A1,false,Rx,0,8,B1,05,20,14,05,0C,80,20,
19072544,000001C7,false,Rx,0,4,AA,A0,FF,C0,00,00,00,00,
19074273,0000019F,false,Rx,0,8,00,00,7D,02,00,6A,90,FE,
19077680,00000157,false,Rx,0,8,D5,87,09,C4,FF,E0,00,80,
19077797,00000155,false,Rx,0,8,33,87,D0,54,96,F0,02,C3,
19079177,000001A1,false,Rx,0,8,B1,45,20,14,05,0C,80,20,
19082642,000001C7,false,Rx,0,4,AA,A0,FF,C0,00,00,00,00,
19084167,0000019F,false,Rx,0,8,00,00,7D,07,00,6A,90,FE,
19087546,00000157,false,Rx,0,8,D5,D7,09,C4,FF,E0,00,80,
19087763,00000155,false,Rx,0,8,33,87,D0,54,96,F0,02,C3,
19089166,000001A1,false,Rx,0,8,B1,45,20,14,05,0C,80,20,
19092534,000001C7,false,Rx,0,4,AA,A0,FF,C0,00,00,00,00,
19094021,0000019F,false,Rx,0,8,00,00,7D,0C,00,6A,90,FE,
19097632,00000157,false,Rx,0,8,D5,27,09,C4,FF,E0,00,80,
19097864,00000155,false,Rx,0,8,33,87,D0,54,96,F0,02,C3,
19099161,000001A1,false,Rx,0,8,B1,45,20,14,05,0C,80,20,
19102497,000001C7,false,Rx,0,4,AA,A0,FF,C0,00,00,00,00,
19104066,0000019F,false,Rx,0,8,00,00,7D,01,00,6A,90,FE,
19104331,00000511,false,Rx,0,7,04,21,E8,48,B1,F5,D2,00,
19107845,00000157,false,Rx,0,8,D5,77,09,C4,FF,E0,00,80,
19107851,00000155,false,Rx,0,8,33,87,D0,54,96,F0,02,C3,
19109179,000001A1,false,Rx,0,8,B1,45,20,14,05,0C,80,20,
19112700,000001C7,false,Rx,0,4,AA,A0,FF,C0,00,00,00,00,
19114280,0000019F,false,Rx,0,8,00,00,7D,06,00,6A,90,FE,
19117860,00000157,false,Rx,0,8,D5,C7,09,C4,FF,E0,00,80,
19117868,00000155,false,Rx,0,8,33,87,D0,54,96,F0,02,C3,
19119177,000001A1,false,Rx,0,8,B1,45,20,14,05,0C,80,20,
19122548,000001C7,false,Rx,0,4,AA,A0,FF,C0,00,00,00,00,
19124027,0000019F,false,Rx,0,8,00,00,7D,0B,00,6A,90,FE,
19127591,00000157,false,Rx,0,8,D5,17,09,C4,FF,E0,00,80,
19127821,00000155,false,Rx,0,8,33,87,D0,54,96,F0,02,C3,
19129040,000001A1,false,Rx,0,8,B1,45,20,14,05,0C,80,20,
19132498,00000423,false,Rx,0,8,07,1E,00,01,5D,80,B2,C6,
19132647,000001C7,false,Rx,0,4,AA,A0,FF,C0,00,00,00,00,
19134059,0000019F,false,Rx,0,8,00,00,7D,00,00,6A,90,FE,
19137536,00000157,false,Rx,0,8,D5,67,09,C4,FF,E0,00,80,
19137762,00000155,false,Rx,0,8,33,87,D0,54,96,F0,02,C3,
19137993,00000424,false,Rx,0,8,11,40,56,C8,33,5E,55,34,
19138217,00000425,false,Rx,0,8,2A,BB,44,9C,42,1A,CD,0C,
19138476,00000426,false,Rx,0,8,00,68,03,00,53,18,00,40,
19139033,000001A1,false,Rx,0,8,B1,45,20,14,05,0C,80,20,
19140409,00000445,false,Rx,0,7,80,DF,AA,65,04,82,00,00,
19142561,000001C7,false,Rx,0,4,AA,A0,FF,C0,00,00,00,00,
19144059,0000019F,false,Rx,0,8,00,00,7D,05,00,6A,90,FE,
19147612,00000157,false,Rx,0,8,D5,B7,09,C4,FF,E0,00,80,
19147837,00000155,false,Rx,0,8,33,87,D0,54,96,F0,02,C3,
19149060,000001A1,false,Rx,0,8,B1,45,20,14,05,0C,80,20,
19152600,00000435,false,Rx,0,8,FF,FF,1E,0B,2E,00,00,00,
19152705,000001C7,false,Rx,0,4,AA,A0,FF,C0,00,00,00,00,
19154067,0000019F,false,Rx,0,8,00,00,7D,0A,00,6A,90,FE,
19154343,00000419,false,Rx,0,6,53,00,28,E6,3E,00,00,00,
19157498,00000157,false,Rx,0,8,D5,07,09,C4,FF,E0,00,80,
19157695,00000155,false,Rx,0,8,33,87,D0,54,96,F0,02,C3,
19157922,00000436,false,Rx,0,6,80,16,64,39,FF,DC,00,00,
19159019,000001A1,false,Rx,0,8,B1,45,20,14,05,0C,80,20,
19162650,000004F7,false,Rx,0,8,00,1A,08,00,90,30,06,F0,
19162782,000001C7,false,Rx,0,4,AA,A0,FF,C0,00,00,00,00,
19163212,00000428,false,Rx,0,8,00,00,00,7F,00,00,00,00,
19163221,0000042F,false,Rx,0,2,00,20,00,00,00,00,00,00,
19164279,0000019F,false,Rx,0,8,00,00,7D,0F,00,6A,90,FE,
19167625,00000157,false,Rx,0,8,D5,57,09,C4,FF,E0,00,80,
19167907,00000155,false,Rx,0,8,33,87,D0,54,96,F0,02,C3,
19169281,000001A1,false,Rx,0,8,B1,45,20,14,05,0C,80,20,
19172784,000001C7,false,Rx,0,4,AA,A0,FF,C0,00,00,00,00,
19174280,0000019F,false,Rx,0,8,00,00,7D,04,00,6A,90,FE,
19177775,00000157,false,Rx,0,8,D5,A7,09,C4,FF,E0,00,80,
19177784,00000155,false,Rx,0,8,33,87,D0,54,96,F0,02,C3,
19179027,000001A1,false,Rx,0,8,B1,45,20,14,05,0C,80,20,
19182558,000001C7,false,Rx,0,4,AA,A0,FF,C0,00,00,00,00,
19184028,0000019F,false,Rx,0,8,00,00,7D,09,00,6A,90,FE,
19187546,00000157,false,Rx,0,8,D5,F7,09,C4,FF,E0,00,80,
19187772,00000155,false,Rx,0,8,33,87,D0,54,96,F0,02,C3,
19188995,000001A1,false,Rx,0,8,B1,45,20,14,05,0C,80,20,
19192551,000001C7,false,Rx,0,4,AA,A0,FF,C0,00,00,00,00,
19194020,0000019F,false,Rx,0,8,00,00,7D,0E,00,6A,90,FE,
19197496,00000157,false,Rx,0,8,D5,47,09,C4,FF,E0,00,80,
19197747,00000155,false,Rx,0,8,33,87,D0,54,96,F0,02,C3,
19199020,000001A1,false,Rx,0,8,B1,85,20,14,05,0C,80,20,
19202521,000001C7,false,Rx,0,4,AA,A0,FF,C0,00,00,00,00,
19204020,0000019F,false,Rx,0,8,00,00,7D,03,00,6A,90,FE,
19204297,00000511,false,Rx,0,7,04,60,B1,01,1C,02,B5,00,
19207470,00000157,false,Rx,0,8,D5,97,09,C4,FF,E0,00,80,
19207698,00000155,false,Rx,0,8,33,87,D0,54,96,F0,02,C3,
19208995,000001A1,false,Rx,0,8,B1,45,20,14,05,0C,80,20,
19212521,000001C7,false,Rx,0,4,AA,A0,FF,C0,00,00,00,00,
19214021,0000019F,false,Rx,0,8,00,00,7D,08,00,6A,90,FE,
19217520,00000157,false,Rx,0,8,D5,E7,09,C4,FF,E0,00,80,
19217747,00000155,false,Rx,0,8,33,87,D0,54,96,F0,02,C3,
19219020,000001A1,false,Rx,0,8,B1,05,20,14,05,0C,80,20,
19222521,000001C7,false,Rx,0,4,AA,A0,FF,C0,00,00,00,00,
19224020,0000019F,false,Rx,0,8,00,00,7D,0D,00,6A,90,FE,
19227470,00000157,false,Rx,0,8,D5,37,09,C4,FF,E0,00,80,
19227696,00000155,false,Rx,0,8,33,87,D0,54,96,F0,02,C3,
19229019,000001A1,false,Rx,0,8,B1,45,20,14,05,0C,80,20,
19232438,00000423,false,Rx,0,8,07,1E,00,02,5D,80,B2,C6,
19232580,000001C7,false,Rx,0,4,AA,A0,FF,C0,00,00,00,00,
19234013,0000019F,false,Rx,0,8,00,00,7D,02,00,6A,90,FE,
19237499,00000157,false,Rx,0,8,D5,87,09,C4,FF,E0,00,80,
19237705,00000155,false,Rx,0,8,33,87,D0,54,96,F0,02,C3,
19237914,00000424,false,Rx,0,8,11,40,56,C8,33,5E,55,34,
19238138,00000425,false,Rx,0,8,2A,BB,44,9C,42,1A,CD,0C,
19238431,00000426,false,Rx,0,8,00,68,01,00,53,18,00,40,
19239034,000001A1,false,Rx,0,8,B1,85,20,14,05,0C,80,20,
19240448,00000445,false,Rx,0,7,80,DF,AA,65,04,82,00,00,
19242536,000001C7,false,Rx,0,4,AA,A0,FF,C0,00,00,00,00,
19244049,0000019F,false,Rx,0,8,00,00,7D,07,00,6A,90,FE,
19247481,00000157,false,Rx,0,8,D5,D7,09,C4,FF,E0,00,80,
19247698,00000155,false,Rx,0,8,33,87,D0,54,96,F0,02,C3,
19249026,000001A1,false,Rx,0,8,B1,05,0C,14,05,0C,80,20,
19252454,00000435,false,Rx,0,8,FF,FF,1E,0B,2E,00,00,00,
19252623,000001C7,false,Rx,0,4,AA,A0,FF,C0,00,00,00,00,
19254021,0000019F,false,Rx,0,8,00,00,7D,0C,00,6A,90,FE,
19254298,00000419,false,Rx,0,6,53,00,28,E6,3E,00,00,00,
19257611,00000157,false,Rx,0,8,D5,27,09,C4,FF,E0,00,80,
19257824,00000155,false,Rx,0,8,33,87,D0,54,96,F0,02,C3,
19258028,00000436,false,Rx,0,6,80,16,64,39,FF,DC,00,00,
19259023,000001A1,false,Rx,0,8,B1,45,20,14,05,0C,80,20,
19262622,000004F7,false,Rx,0,8,00,1A,08,00,90,30,06,F0,
19262795,000001C7,false,Rx,0,4,AA,A0,FF,C0,00,00,00,00,
19263070,00000428,false,Rx,0,8,00,00,00,7F,00,00,00,00,
19263273,0000042F,false,Rx,0,2,00,20,00,00,00,00,00,00,
19264023,0000019F,false,Rx,0,8,00,00,7D,01,00,6A,90,FE,
19267594,00000157,false,Rx,0,8,D5,77,09,C4,FF,E0,00,80,
19267815,00000155,false,Rx,0,8,33,87,D0,54,96,F0,02,C3,
19269017,000001A1,false,Rx,0,8,B1,85,20,14,05,0C,80,20,
19272548,000001C7,false,Rx,0,4,AA,A0,FF,C0,00,00,00,00,
19274021,0000019F,false,Rx,0,8,00,00,7D,06,00,6A,90,FE,
19277506,00000157,false,Rx,0,8,D5,C7,09,C4,FF,E0,00,80,
19277774,00000155,false,Rx,0,8,33,87,D0,54,96,F0,02,C3,
19279021,000001A1,false,Rx,0,8,B1,45,20,14,05,0C,80,20,
19282555,000001C7,false,Rx,0,4,AA,A0,FF,C0,00,00,00,00,
19284017,0000019F,false,Rx,0,8,00,00,7D,0B,00,6A,90,FE,
19287519,00000157,false,Rx,0,8,D5,17,09,C4,FF,E0,00,80,
19287741,00000155,false,Rx,0,8,33,87,D0,54,96,F0,02,C3,
19289017,000001A1,false,Rx,0,8,B1,45,20,14,05,0C,80,20,
19292581,000001C7,false,Rx,0,4,AA,A0,FF,C0,00,00,00,00,
19294028,0000019F,false,Rx,0,8,00,00,7D,00,00,6A,90,FE,
19297581,00000157,false,Rx,0,8,D5,67,09,C4,FF,E0,00,80,
19297823,00000155,false,Rx,0,8,33,87,D0,54,96,F0,02,C3,
19299023,000001A1,false,Rx,0,8,B1,45,20,14,05,0C,80,20,
19302581,000001C7,false,Rx,0,4,AA,A0,FF,C0,00,00,00,00,
19304024,0000019F,false,Rx,0,8,00,00,7D,05,00,6A,90,FE,
19304297,00000511,false,Rx,0,7,04,9F,7A,BA,87,0F,98,00,
19307607,00000157,false,Rx,0,8,D5,B7,09,C4,FF,E0,00,80,
19307827,00000155,false,Rx,0,8,33,87,D0,54,96,F0,02,C3,
19309031,000001A1,false,Rx,0,8,B1,45,0C,14,05,0C,80,20,
19312581,000001C7,false,Rx,0,4,AA,A0,FF,C0,00,00,00,00,
19314025,0000019F,false,Rx,0,8,00,00,7D,0A,00,6A,90,FE,
19317451,00000157,false,Rx,0,8,D5,07,09,C4,FF,E0,00,80,
19317696,00000155,false,Rx,0,8,33,87,D0,54,96,F0,02,C3,
19319022,000001A1,false,Rx,0,8,B1,45,20,14,05,0C,80,20,
19322586,000001C7,false,Rx,0,4,AA,A0,FF,C0,00,00,00,00,
19324026,0000019F,false,Rx,0,8,00,00,7D,0F,00,6A,90,FE,
19327598,00000157,false,Rx,0,8,D5,57,09,C4,FF,E0,00,80,
19327846,00000155,false,Rx,0,8,33,87,D0,54,96,F0,02,C3,
19329020,000001A1,false,Rx,0,8,B1,45,20,14,05,0C,80,20,
19332444,00000423,false,Rx,0,8,07,1E,00,02,5D,80,B2,C6,
19332583,000001C7,false,Rx,0,4,AA,A0,FF,C0,00,00,00,00,
19334044,0000019F,false,Rx,0,8,00,00,7D,04,00,6A,90,FE,
19337521,00000157,false,Rx,0,8,D5,A7,09,C4,FF,E0,00,80,
19337745,00000155,false,Rx,0,8,33,87,D0,54,96,F0,02,C3,
19337991,00000424,false,Rx,0,8,11,40,56,C8,33,5E,55,34,
19338191,00000425,false,Rx,0,8,2A,BB,44,9C,42,1A,CD,0C,
19338437,00000426,false,Rx,0,8,00,68,01,00,53,18,00,40,
19339010,000001A1,false,Rx,0,8,B1,45,20,14,05,0C,80,20,
19340379,00000445,false,Rx,0,7,80,DF,AA,65,04,82,00,00,
19342581,000001C7,false,Rx,0,4,AA,A0,FF,C0,00,00,00,00,
19344020,0000019F,false,Rx,0,8,00,00,7D,09,00,6A,90,FE,
19347563,00000157,false,Rx,0,8,D5,F7,09,C4,FF,E0,00,80,
19347800,00000155,false,Rx,0,8,33,87,D0,54,96,F0,02,C3,
19349024,000001A1,false,Rx,0,8,B1,85,20,14,05,0C,80,20,
19352558,00000435,false,Rx,0,8,FF,FF,1E,0B,2E,00,00,00,
19352699,000001C7,false,Rx,0,4,AA,A0,FF,C0,00,00,00,00,
19354030,0000019F,false,Rx,0,8,00,00,7D,0E,00,6A,90,FE,
19354305,00000419,false,Rx,0,6,53,00,28,E6,3E,00,00,00,
19357483,00000157,false,Rx,0,8,D5,47,09,C4,FF,E0,00,80,
19357698,00000155,false,Rx,0,8,33,87,D0,54,96,F0,02,C4,
19357902,00000436,false,Rx,0,6,80,16,64,39,FF,DC,00,00,
19359023,000001A1,false,Rx,0,8,B1,45,0C,14,05,0C,80,20,
19362672,000004F7,false,Rx,0,8,00,1A,08,00,90,30,06,F0,
19362846,000001C7,false,Rx,0,4,AA,A0,FF,C0,00,00,00,00,
19363140,00000428,false,Rx,0,8,00,00,00,7F,00,00,00,00,
19363343,0000042F,false,Rx,0,2,00,20,00,00,00,00,00,00,
19364017,0000019F,false,Rx,0,8,00,00,7D,03,00,6A,90,FE,
19367575,00000157,false,Rx,0,8,D5,97,09,C4,FF,E0,00,80,
19367793,00000155,false,Rx,0,8,33,87,D0,54,96,F0,02,C4,
19369023,000001A1,false,Rx,0,8,B1,05,20,14,05,0C,80,20,
19372607,000001C7,false,Rx,0,4,AA,A0,FF,C0,00,00,00,00,
