Time Stamp,ID,Extended,Dir,Bus,LEN,D1,D2,D3,D4,D5,D6,D7,D8
546657,00000155,false,Rx,0,8,47,87,C6,54,96,18,02,C3,
546760,0000019F,false,Rx,0,8,E1,E1,7D,08,00,6A,50,FE,
548799,000004F7,false,Rx,0,8,00,1A,08,00,90,2C,06,F0,
548864,000001C7,false,Rx,0,4,AA,A0,FF,C0,00,00,00,00,
549289,00000428,false,Rx,0,8,00,00,00,7F,00,00,00,00,
549297,0000042F,false,Rx,0,2,00,20,00,00,00,00,00,00,
551467,00000157,false,Rx,0,8,D5,EB,09,C4,FF,E0,00,80,
551851,000001A1,false,Rx,0,8,B1,05,70,0F,85,8C,80,20,
556657,00000155,false,Rx,0,8,47,87,C5,54,96,18,02,C3,
556760,0000019F,false,Rx,0,8,E1,E1,7D,0D,00,6A,50,FE,
558699,000001C7,false,Rx,0,4,AA,A0,FF,C0,00,00,00,00,
561331,00000157,false,Rx,0,8,D5,3B,09,C4,FF,E0,00,80,
561716,000001A1,false,Rx,0,8,B0,C5,70,0F,55,8C,80,20,
566409,00000155,false,Rx,0,8,47,87,C4,54,96,18,02,C3,
566771,0000019F,false,Rx,0,8,E1,E1,7D,02,00,6A,50,FE,
568685,000001C7,false,Rx,0,4,AA,A0,FF,C0,00,00,00,00,
571332,00000157,false,Rx,0,8,D5,8B,09,C4,FF,E0,00,80,
571691,000001A1,false,Rx,0,8,B0,C5,5C,0F,D5,8C,80,20,
576396,00000155,false,Rx,0,8,47,87,C4,54,96,18,02,C3,
576778,0000019F,false,Rx,0,8,E1,E1,7D,07,00,6A,50,FE,
576971,00000511,false,Rx,0,7,00,34,A7,73,1D,C1,CF,00,
578643,000001C7,false,Rx,0,4,AA,A0,FF,C0,00,00,00,00,
581272,00000157,false,Rx,0,8,D5,DB,09,C4,FF,E0,00,80,
581693,000001A1,false,Rx,0,8,B1,05,70,0F,75,8C,80,20,
586361,00000155,false,Rx,0,8,47,87,C4,54,96,18,02,C3,
586790,0000019F,false,Rx,0,8,E1,E1,7D,0C,00,6A,50,FE,
588672,000001C7,false,Rx,0,4,AA,A0,FF,C0,00,00,00,00,
591324,00000157,false,Rx,0,8,D5,2B,09,C4,FF,E0,00,80,
591707,000001A1,false,Rx,0,8,B0,C5,5C,0F,85,8C,80,20,
592402,00000445,false,Rx,0,7,80,55,AA,65,04,82,00,00,
596321,00000155,false,Rx,0,8,47,87,C5,54,96,18,02,C3,
596761,0000019F,false,Rx,0,8,E1,E1,7D,01,00,6A,50,FE,
598679,000001C7,false,Rx,0,4,AA,A0,FF,C0,00,00,00,00,
601280,00000157,false,Rx,0,8,D5,7B,09,C4,FF,E0,00,80,
601722,000001A1,false,Rx,0,8,B0,C5,70,0F,D5,8C,80,20,
606266,00000423,false,Rx,0,8,0B,1D,00,02,5D,80,B2,D8,
606468,00000155,false,Rx,0,8,47,87,C5,54,96,18,02,C3,
606694,00000424,false,Rx,0,8,11,40,56,C8,33,5E,55,34,
606928,0000019F,false,Rx,0,8,E1,E1,7D,06,00,6A,50,FE,
607161,00000425,false,Rx,0,8,2A,BA,44,9C,42,18,CD,0B,
608841,000001C7,false,Rx,0,4,AA,A0,FF,C0,00,00,00,00,
611365,00000157,false,Rx,0,8,D5,CB,09,C4,FF,E0,00,80,
611594,00000426,false,Rx,0,8,00,60,01,00,53,18,00,40,
611868,000001A1,false,Rx,0,8,B0,C5,5C,0F,55,8C,80,20,
616581,00000155,false,Rx,0,8,47,87,C5,54,96,18,02,C3,
616842,0000019F,false,Rx,0,8,E1,E1,7D,0B,00,6A,50,FE,
618670,00000500,false,Rx,0,5,02,6D,BD,BF,8F,00,00,00,
618680,000001C7,false,Rx,0,4,AA,A0,FF,C0,00,00,00,00,
621583,00000157,false,Rx,0,8,D5,1B,09,C4,FF,E0,00,80,
621806,000001A1,false,Rx,0,8,B1,05,70,0F,85,8C,80,20,
626375,00000435,false,Rx,0,8,FF,FF,1E,0B,2E,10,00,00,
626435,00000155,false,Rx,0,8,47,87,C5,54,96,18,02,C3,
626922,0000019F,false,Rx,0,8,E1,E1,7D,00,00,6A,50,FE,
626956,00000419,false,Rx,0,6,5E,22,32,E6,46,00,00,00,
628820,000001C7,false,Rx,0,4,AA,A0,FF,C0,00,00,00,00,
631395,00000157,false,Rx,0,8,D5,6B,09,C4,FF,E0,00,80,
631519,00000436,false,Rx,0,6,86,16,64,3F,FF,DC,00,00,
631770,000001A1,false,Rx,0,8,B0,C5,70,0F,D5,8C,80,20,
636338,00000155,false,Rx,0,8,47,87,C4,54,96,18,02,C3,
636779,0000019F,false,Rx,0,8,E1,E1,7D,05,00,6A,50,FE,
638678,000001C7,false,Rx,0,4,AA,A0,FF,C0,00,00,00,00,
641301,00000157,false,Rx,0,8,D5,BB,09,C4,FF,E0,00,80,
641701,000001A1,false,Rx,0,8,B0,C5,70,0F,85,8C,80,20,
646496,00000155,false,Rx,0,8,47,87,C4,54,96,18,02,C3,
646760,0000019F,false,Rx,0,8,E1,E1,7D,0A,00,6A,50,FE,
648767,000004F7,false,Rx,0,8,00,1A,08,00,90,2C,06,F0,
648918,000001C7,false,Rx,0,4,AA,A0,FF,C0,00,00,00,00,
649171,00000428,false,Rx,0,8,00,00,00,7F,00,00,00,00,
649344,0000042F,false,Rx,0,2,00,20,00,00,00,00,00,00,
651266,00000157,false,Rx,0,8,D5,0B,09,C4,FF,E0,00,80,
651694,000001A1,false,Rx,0,8,B0,C5,5C,0F,85,8C,80,20,
656346,00000155,false,Rx,0,8,47,87,C4,54,96,18,02,C3,
656693,0000019F,false,Rx,0,8,E1,E1,7D,0F,00,6A,50,FE,
658648,000001C7,false,Rx,0,4,AA,A0,FF,C0,00,00,00,00,
661270,00000157,false,Rx,0,8,D5,5B,09,C4,FF,E0,00,80,
661697,000001A1,false,Rx,0,8,B1,05,70,0F,F5,8C,80,20,
666387,00000155,false,Rx,0,8,47,87,C4,54,96,18,02,C3,
666802,0000019F,false,Rx,0,8,E1,E1,7D,04,00,6A,50,FE,
668690,000001C7,false,Rx,0,4,AA,A0,FF,C0,00,00,00,00,
671342,00000157,false,Rx,0,8,D5,AB,09,C4,FF,E0,00,80,
671710,000001A1,false,Rx,0,8,B0,C5,5C,0F,85,8C,80,20,
676418,00000155,false,Rx,0,8,47,87,C6,54,96,18,02,C2,
676742,0000019F,false,Rx,0,8,E1,E1,7D,09,00,6A,50,FE,
677013,00000511,false,Rx,0,7,00,73,70,2C,88,CE,B2,00,
678709,000001C7,false,Rx,0,4,AA,A0,FF,C0,00,00,00,00,
681361,00000157,false,Rx,0,8,D5,FB,09,C4,FF,E0,00,80,
681736,000001A1,false,Rx,0,8,B0,C5,70,0F,55,8C,80,20,
686407,00000155,false,Rx,0,8,47,87,C5,54,96,18,02,C2,
686696,0000019F,false,Rx,0,8,E1,E1,7D,0E,00,6A,50,FE,
688672,000001C7,false,Rx,0,4,AA,A0,FF,C0,00,00,00,00,
691276,00000157,false,Rx,0,8,D5,4B,09,C4,FF,E0,00,80,
691697,000001A1,false,Rx,0,8,B1,05,70,0F,75,8C,80,20,
692370,00000445,false,Rx,0,7,80,55,AA,65,04,82,00,00,
696324,00000155,false,Rx,0,8,47,87,C5,54,96,18,02,C2,
696696,0000019F,false,Rx,0,8,E1,E1,7D,03,00,6A,50,FE,
698672,000001C7,false,Rx,0,4,AA,A0,FF,C0,00,00,00,00,
701304,00000157,false,Rx,0,8,D5,9B,09,C4,FF,E0,00,80,
701698,000001A1,false,Rx,0,8,B0,C5,70,0F,85,8C,80,20,
706220,00000423,false,Rx,0,8,0B,1D,00,02,5D,80,B2,D8,
706423,00000155,false,Rx,0,8,47,87,C4,54,96,18,02,C2,
706649,00000424,false,Rx,0,8,11,40,56,C8,33,5E,55,34,
706867,0000019F,false,Rx,0,8,E1,E1,7D,08,00,6A,50,FE,
707098,00000425,false,Rx,0,8,2A,BA,44,9C,42,18,CD,0B,
708671,000001C7,false,Rx,0,4,AA,A0,FF,C0,00,00,00,00,
711252,00000157,false,Rx,0,8,D5,EB,09,C4,FF,E0,00,80,
711519,00000426,false,Rx,0,8,00,60,01,00,53,18,00,40,
711763,000001A1,false,Rx,0,8,B0,C5,70,0F,85,8C,80,20,
716331,00000155,false,Rx,0,8,47,87,C4,54,96,18,02,C2,
716702,0000019F,false,Rx,0,8,E1,E1,7D,0D,00,6A,50,FE,
718476,00000500,false,Rx,0,5,02,E6,62,3E,02,00,00,00,
718673,000001C7,false,Rx,0,4,AA,A0,FF,C0,00,00,00,00,
721295,00000157,false,Rx,0,8,D5,3B,09,C4,FF,E0,00,80,
721698,000001A1,false,Rx,0,8,B1,05,5C,0F,85,8C,80,20,
726204,00000435,false,Rx,0,8,FF,FF,1E,0B,2E,10,00,00,
726425,00000155,false,Rx,0,8,47,87,C5,54,96,18,02,C2,
726761,0000019F,false,Rx,0,8,E1,E1,7D,02,00,6A,50,FE,
726967,00000419,false,Rx,0,6,5E,22,32,E6,46,00,00,00,
728695,000001C7,false,Rx,0,4,AA,A0,FF,C0,00,00,00,00,
731330,00000157,false,Rx,0,8,D5,8B,09,C4,FF,E0,00,80,
731498,00000436,false,Rx,0,6,86,16,64,3F,FF,DC,00,00,
731763,000001A1,false,Rx,0,8,B1,05,70,0F,A5,8C,80,20,
736353,00000155,false,Rx,0,8,47,87,C5,54,96,18,02,C2,
736764,0000019F,false,Rx,0,8,E1,E1,7D,07,00,6A,50,FE,
738715,000001C7,false,Rx,0,4,AA,A0,FF,C0,00,00,00,00,
741302,00000157,false,Rx,0,8,D5,DB,09,C4,FF,E0,00,80,
741695,000001A1,false,Rx,0,8,B0,C5,5C,0F,85,8C,80,20,
746394,00000155,false,Rx,0,8,47,87,C6,54,96,18,02,C2,
746757,0000019F,false,Rx,0,8,E1,E1,7D,0C,00,6A,50,FE,
748763,000004F7,false,Rx,0,8,00,1A,08,00,90,2C,06,F0,
748940,000001C7,false,Rx,0,4,AA,A0,FF,C0,00,00,00,00,
749244,00000428,false,Rx,0,8,00,00,00,7F,00,00,00,00,
749420,0000042F,false,Rx,0,2,00,20,00,00,00,00,00,00,
751269,00000157,false,Rx,0,8,D5,2B,09,C4,FF,E0,00,80,
751699,000001A1,false,Rx,0,8,B0,C5,70,0F,85,8C,80,20,
756399,00000155,false,Rx,0,8,47,87,C5,54,96,18,02,C2,
756698,0000019F,false,Rx,0,8,E1,E1,7D,01,00,6A,50,FE,
758701,000001C7,false,Rx,0,4,AA,A0,FF,C0,00,00,00,00,
761322,00000157,false,Rx,0,8,D5,7B,09,C4,FF,E0,00,80,
761696,000001A1,false,Rx,0,8,B1,05,70,0F,A5,8C,80,20,
766402,00000155,false,Rx,0,8,47,87,C4,54,96,18,02,C2,
766763,0000019F,false,Rx,0,8,E1,E1,7D,06,00,6A,50,FE,
768764,000001C7,false,Rx,0,4,AA,A0,FF,C0,00,00,00,00,
771353,00000157,false,Rx,0,8,D5,CB,09,C4,FF,E0,00,80,
771696,000001A1,false,Rx,0,8,B0,C5,70,0F,A5,8C,80,20,
776411,00000155,false,Rx,0,8,47,87,C4,54,96,18,02,C2,
776705,0000019F,false,Rx,0,8,E1,E1,7D,0B,00,6A,50,FE,
776976,00000511,false,Rx,0,7,00,B2,39,E5,F3,DB,95,00,
778773,000001C7,false,Rx,0,4,AA,A0,FF,C0,00,00,00,00,
781331,00000157,false,Rx,0,8,D5,1B,09,C4,FF,E0,00,80,
781697,000001A1,false,Rx,0,8,B0,C5,5C,0F,A5,8C,80,20,
786355,00000155,false,Rx,0,8,47,87,C5,54,96,18,02,C2,
786762,0000019F,false,Rx,0,8,E1,E1,7D,00,00,6A,50,FE,
788773,000001C7,false,Rx,0,4,AA,A0,FF,C0,00,00,00,00,
791252,00000157,false,Rx,0,8,D5,6B,09,C4,FF,E0,00,80,
791635,000001A1,false,Rx,0,8,B1,05,70,0F,A5,8C,80,20,
792396,00000445,false,Rx,0,7,80,55,AA,65,04,82,00,00,
796331,00000155,false,Rx,0,8,47,87,C5,54,96,18,02,C2,
796624,0000019F,false,Rx,0,8,E1,E1,7D,05,00,6A,50,FE,
798767,000001C7,false,Rx,0,4,AA,A0,FF,C0,00,00,00,00,
801327,00000157,false,Rx,0,8,D5,BB,09,C4,FF,E0,00,80,
801622,000001A1,false,Rx,0,8,B0,C5,70,0F,A5,8C,80,20,
806240,00000423,false,Rx,0,8,0B,1D,00,02,5D,80,B2,D8,
806457,00000155,false,Rx,0,8,47,87,C6,54,96,18,02,C2,
806685,0000019F,false,Rx,0,8,E1,E1,7D,0A,00,6A,50,FE,
806901,00000424,false,Rx,0,8,11,40,56,C8,33,5E,55,34,
807127,00000425,false,Rx,0,8,2A,BA,44,9C,42,18,CD,0B,
808765,000001C7,false,Rx,0,4,AA,A0,FF,C0,00,00,00,00,
811305,00000157,false,Rx,0,8,D5,0B,09,C4,FF,E0,00,80,
811521,00000426,false,Rx,0,8,00,60,01,00,53,18,00,40,
811764,000001A1,false,Rx,0,8,B0,C5,70,0F,A5,8C,80,20,
816328,00000155,false,Rx,0,8,47,87,C5,54,96,18,02,C2,
816623,0000019F,false,Rx,0,8,E1,E1,7D,0F,00,6A,50,FE,
818764,00000500,false,Rx,0,5,02,36,A7,4F,00,00,00,00,
818902,000001C7,false,Rx,0,4,AA,A0,FF,C0,00,00,00,00,
821325,00000157,false,Rx,0,8,D5,5B,09,C4,FF,E0,00,80,
821623,000001A1,false,Rx,0,8,B0,C5,70,0F,A5,8C,80,20,
826284,00000435,false,Rx,0,8,FF,FF,1E,0B,2E,10,00,00,
826501,00000155,false,Rx,0,8,47,87,C5,54,96,18,02,C1,
826763,0000019F,false,Rx,0,8,E1,E1,7D,04,00,6A,50,FE,
826974,00000419,false,Rx,0,6,5E,22,32,E6,46,00,00,00,
828771,000001C7,false,Rx,0,4,AA,A0,FF,C0,00,00,00,00,
831323,00000157,false,Rx,0,8,D5,AB,09,C4,FF,E0,00,80,
831521,00000436,false,Rx,0,6,86,16,64,3F,FF,DC,00,00,
831762,000001A1,false,Rx,0,8,B0,C5,70,0F,85,8C,80,20,
836322,00000155,false,Rx,0,8,47,87,C4,54,96,18,02,C2,
836614,0000019F,false,Rx,0,8,E1,E1,7D,09,00,6A,50,FE,
838767,000001C7,false,Rx,0,4,AA,A0,FF,C0,00,00,00,00,
841246,00000157,false,Rx,0,8,D5,FB,09,C4,FF,E0,00,80,
841614,000001A1,false,Rx,0,8,B0,C5,5C,0F,85,8C,80,20,
846420,00000155,false,Rx,0,8,47,87,C4,54,96,18,02,C2,
846640,0000019F,false,Rx,0,8,E1,E1,7D,0E,00,6A,50,FE,
848819,000004F7,false,Rx,0,8,00,1A,08,00,90,2C,06,F0,
849014,000001C7,false,Rx,0,4,AA,A0,FF,C0,00,00,00,00,
849290,00000428,false,Rx,0,8,00,00,00,7F,00,00,00,00,
849488,0000042F,false,Rx,0,2,00,20,00,00,00,00,00,00,
851267,00000157,false,Rx,0,8,D5,4B,09,C4,FF,E0,00,80,
851615,000001A1,false,Rx,0,8,B1,05,70,0F,85,8C,80,20,
856345,00000155,false,Rx,0,8,47,87,C5,54,96,18,02,C1,
856616,0000019F,false,Rx,0,8,E1,E1,7D,03,00,6A,50,FE,
858761,000001C7,false,Rx,0,4,AA,A0,FF,C0,00,00,00,00,
861268,00000157,false,Rx,0,8,D5,9B,09,C4,FF,E0,00,80,
861617,000001A1,false,Rx,0,8,B1,05,70,0F,85,8C,80,20,
866346,00000155,false,Rx,0,8,47,87,C5,54,96,18,02,C2,
866615,0000019F,false,Rx,0,8,E1,E1,7D,08,00,6A,50,FE,
868766,000001C7,false,Rx,0,4,AA,A0,FF,C0,00,00,00,00,
871243,00000157,false,Rx,0,8,D5,EB,09,C4,FF,E0,00,80,
871614,000001A1,false,Rx,0,8,B0,C5,70,0F,75,8C,80,20,
876396,00000155,false,Rx,0,8,47,87,C6,54,96,18,02,C2,
876616,0000019F,false,Rx,0,8,E1,E1,7D,0D,00,6A,50,FE,
876889,00000511,false,Rx,0,7,00,F1,02,9E,5E,E8,78,00,
878762,000001C7,false,Rx,0,4,AA,A0,FF,C0,00,00,00,00,
881245,00000157,false,Rx,0,8,D5,3B,09,C4,FF,E0,00,80,
881617,000001A1,false,Rx,0,8,B0,C5,70,0F,85,8C,80,20,
886372,00000155,false,Rx,0,8,47,87,C5,54,96,18,02,C2,
886615,0000019F,false,Rx,0,8,E1,E1,7D,02,00,6A,50,FE,
888757,000001C7,false,Rx,0,4,AA,A0,FF,C0,00,00,00,00,
891316,00000157,false,Rx,0,8,D5,8B,09,C4,FF,E0,00,80,
891613,000001A1,false,Rx,0,8,B0,C5,70,0F,55,8C,80,20,
892339,00000445,false,Rx,0,7,80,55,AA,65,04,82,00,00,
896317,00000155,false,Rx,0,8,47,87,C4,54,96,18,02,C1,
896611,0000019F,false,Rx,0,8,E1,E1,7D,07,00,6A,50,FE,
898759,000001C7,false,Rx,0,4,AA,A0,FF,C0,00,00,00,00,
901267,00000157,false,Rx,0,8,D5,DB,09,C4,FF,E0,00,80,
901611,000001A1,false,Rx,0,8,B1,05,70,0F,55,8C,80,20,
906241,00000423,false,Rx,0,8,0B,1D,00,02,B2,80,5D,D8,
906462,00000155,false,Rx,0,8,47,87,C4,54,96,18,02,C1,
906688,0000019F,false,Rx,0,8,E1,E1,7D,0C,00,6A,50,FE,
906935,00000424,false,Rx,0,8,11,40,56,C8,33,5E,55,34,
907159,00000425,false,Rx,0,8,2A,BA,44,9C,42,18,CD,0B,
908762,000001C7,false,Rx,0,4,AA,A0,FF,C0,00,00,00,00,
911290,00000157,false,Rx,0,8,D5,2B,09,C4,FF,E0,00,80,
911509,00000426,false,Rx,0,8,00,60,01,00,53,18,00,40,
911759,000001A1,false,Rx,0,8,B0,C5,70,0F,85,8C,80,20,
916317,00000155,false,Rx,0,8,47,87,C4,54,96,18,02,C2,
916611,0000019F,false,Rx,0,8,E1,E1,7D,01,00,6A,50,FE,
918491,00000500,false,Rx,0,5,02,99,BF,9A,AA,00,00,00,
918788,000001C7,false,Rx,0,4,AA,A0,FF,C0,00,00,00,00,
921269,00000157,false,Rx,0,8,D5,7B,09,C4,FF,E0,00,80,
921612,000001A1,false,Rx,0,8,B0,C5,70,0F,75,8C,80,20,
926223,00000435,false,Rx,0,8,FF,FF,1E,0B,2E,10,00,00,
926436,00000155,false,Rx,0,8,47,87,C5,54,96,18,02,C2,
926696,0000019F,false,Rx,0,8,E1,E1,7D,06,00,6A,50,FE,
926883,00000419,false,Rx,0,6,5E,22,32,E6,46,00,00,00,
928790,000001C7,false,Rx,0,4,AA,A0,FF,C0,00,00,00,00,
931242,00000157,false,Rx,0,8,D5,CB,09,C4,FF,E0,00,80,
931437,00000436,false,Rx,0,6,86,16,64,40,FF,DC,00,00,
931662,000001A1,false,Rx,0,8,B1,05,70,0F,55,8C,80,20,
936317,00000155,false,Rx,0,8,47,87,C6,54,96,18,02,C2,
936611,0000019F,false,Rx,0,8,E1,E1,7D,0B,00,6A,50,FE,
938794,000001C7,false,Rx,0,4,AA,A0,FF,C0,00,00,00,00,
941317,00000157,false,Rx,0,8,D5,1B,09,C4,FF,E0,00,80,
941614,000001A1,false,Rx,0,8,B0,C5,70,0F,85,8C,80,20,
946393,00000155,false,Rx,0,8,47,87,C5,54,96,18,02,C1,
946612,0000019F,false,Rx,0,8,E1,E1,7D,00,00,6A,50,FE,
948866,000004F7,false,Rx,0,8,00,1A,08,00,90,2C,06,F0,
949061,000001C7,false,Rx,0,4,AA,A0,FF,C0,00,00,00,00,
949360,00000428,false,Rx,0,8,00,00,00,7F,00,00,00,00,
949541,0000042F,false,Rx,0,2,00,20,00,00,00,00,00,00,
951364,00000157,false,Rx,0,8,D5,6B,09,C4,FF,E0,00,80,
951611,000001A1,false,Rx,0,8,B0,C5,70,0F,75,8C,80,20,
956367,00000155,false,Rx,0,8,47,87,C5,54,96,18,02,C2,
956612,0000019F,false,Rx,0,8,E1,E1,7D,05,00,6A,50,FE,
958791,000001C7,false,Rx,0,4,AA,A0,FF,C0,00,00,00,00,
961339,00000157,false,Rx,0,8,D5,BB,09,C4,FF,E0,00,80,
961611,000001A1,false,Rx,0,8,B1,05,70,0F,75,8C,80,20,
966367,00000155,false,Rx,0,8,47,87,C4,54,96,18,02,C2,
966612,0000019F,false,Rx,0,8,E1,E1,7D,0A,00,6A,50,FE,
968815,000001C7,false,Rx,0,4,AA,A0,FF,C0,00,00,00,00,
971316,00000157,false,Rx,0,8,D5,0B,09,C4,FF,E0,00,80,
971611,000001A1,false,Rx,0,8,B1,05,5C,0F,A5,8C,80,20,
976366,00000155,false,Rx,0,8,47,87,C5,54,96,18,02,C1,
976611,0000019F,false,Rx,0,8,E1,E1,7D,0F,00,6A,50,FE,
976887,00000511,false,Rx,0,7,00,30,CB,57,C9,F5,5B,00,
978813,000001C7,false,Rx,0,4,AA,A0,FF,C0,00,00,00,00,
981315,00000157,false,Rx,0,8,D5,5B,09,C4,FF,E0,00,80,
981611,000001A1,false,Rx,0,8,B0,C5,70,0F,B5,8C,80,20,
986317,00000155,false,Rx,0,8,47,87,C5,54,96,18,02,C2,
986612,0000019F,false,Rx,0,8,E1,E1,7D,04,00,6A,50,FE,
988816,000001C7,false,Rx,0,4,AA,A0,FF,C0,00,00,00,00,
991240,00000157,false,Rx,0,8,D5,AB,09,C4,FF,E0,00,80,
991612,000001A1,false,Rx,0,8,B1,05,70,0F,85,8C,80,20,
992362,00000445,false,Rx,0,7,80,55,55,65,04,82,00,00,
996316,00000155,false,Rx,0,8,47,87,C6,54,96,18,02,C2,
996612,0000019F,false,Rx,0,8,E1,E1,7D,09,00,6A,50,FE,
998817,000001C7,false,Rx,0,4,AA,A0,FF,C0,00,00,00,00,
1001290,00000157,false,Rx,0,8,D5,FB,09,C4,FF,E0,00,80,
1001614,000001A1,false,Rx,0,8,B1,05,5C,0F,C5,8C,80,20,
1006166,00000423,false,Rx,0,8,0B,1D,00,02,B2,80,5D,D8,
1006386,00000155,false,Rx,0,8,47,87,C6,54,96,18,02,C1,
1006636,0000019F,false,Rx,0,8,E1,E1,7D,0E,00,6A,50,FE,
1006860,00000424,false,Rx,0,8,11,40,56,C8,33,5E,AA,34,
1007084,00000425,false,Rx,0,8,2A,BA,44,9C,42,18,CD,0B,
1008813,000001C7,false,Rx,0,4,AA,A0,FF,C0,00,00,00,00,
1011242,00000157,false,Rx,0,8,D5,4B,09,C4,FF,E0,00,80,
1011487,00000426,false,Rx,0,8,00,60,01,00,53,18,00,40,
1011754,000001A1,false,Rx,0,8,B0,C5,70,0F,B5,8C,80,20,
1016316,00000155,false,Rx,0,8,47,87,C5,54,96,18,02,C1,
1016613,0000019F,false,Rx,0,8,E1,E1,7D,03,00,6A,50,FE,
1018489,00000500,false,Rx,0,5,02,C7,C9,B3,AA,00,00,00,
1018817,000001C7,false,Rx,0,4,AA,A0,FF,C0,00,00,00,00,
1021290,00000157,false,Rx,0,8,D5,9B,09,C4,FF,E0,00,80,
1021611,000001A1,false,Rx,0,8,B0,C5,70,0F,75,8C,80,20,
1026263,00000435,false,Rx,0,8,FF,FF,1E,0B,2E,10,00,00,
1026511,00000155,false,Rx,0,8,47,87,C4,54,96,18,02,C1,
1026756,0000019F,false,Rx,0,8,E1,E1,7D,08,00,6A,50,FE,
1026951,00000419,false,Rx,0,6,5E,22,32,E6,46,00,00,00,
1028837,000001C7,false,Rx,0,4,AA,A0,FF,C0,00,00,00,00,
1031361,00000157,false,Rx,0,8,D5,EB,09,C4,FF,E0,00,80,
1031485,00000436,false,Rx,0,6,86,16,64,40,FF,DC,00,00,
1031825,000001A1,false,Rx,0,8,B1,05,70,0F,C5,8C,80,20,
1036406,00000155,false,Rx,0,8,47,87,C5,54,96,18,02,C1,
1036699,0000019F,false,Rx,0,8,E1,E1,7D,0D,00,6A,50,FE,
1038903,000001C7,false,Rx,0,4,AA,A0,FF,C0,00,00,00,00,
1041279,00000157,false,Rx,0,8,D5,3B,09,C4,FF,E0,00,80,
1041633,000001A1,false,Rx,0,8,B0,C5,70,0F,A5,8C,80,20,
1046628,00000155,false,Rx,0,8,47,87,C5,54,96,18,02,C2,
1046644,0000019F,false,Rx,0,8,E1,E1,7D,02,00,6A,50,FE,
1049127,000004F7,false,Rx,0,8,00,1A,08,00,90,2C,06,F0,
1049132,000001C7,false,Rx,0,4,AA,A0,FF,C0,00,00,00,00,
1049411,00000428,false,Rx,0,8,00,00,00,7F,00,00,00,00,
1049552,0000042F,false,Rx,0,2,00,20,00,00,00,00,00,00,
1051416,00000157,false,Rx,0,8,D5,8B,09,C4,FF,E0,00,80,
1051662,000001A1,false,Rx,0,8,B0,C5,5C,0F,85,8C,80,20,
1056498,00000155,false,Rx,0,8,47,87,C5,54,96,18,02,C1,
1056646,0000019F,false,Rx,0,8,E1,E1,7D,07,00,6A,50,FE,
1058923,000001C7,false,Rx,0,4,AA,A0,FF,C0,00,00,00,00,
1061284,00000157,false,Rx,0,8,D5,DB,09,C4,FF,E0,00,80,
1061650,000001A1,false,Rx,0,8,B1,05,70,0F,C5,8C,80,20,
1066384,00000155,false,Rx,0,8,47,87,C5,54,96,18,02,C1,
1066660,0000019F,false,Rx,0,8,E1,E1,7D,0C,00,6A,50,FE,
1068908,000001C7,false,Rx,0,4,AA,A0,FF,C0,00,00,00,00,
1071306,00000157,false,Rx,0,8,D5,2B,09,C4,FF,E0,00,80,
1071620,000001A1,false,Rx,0,8,B0,C5,70,0F,85,8C,80,20,
1076407,00000155,false,Rx,0,8,47,87,C6,54,96,18,02,C2,
1076657,0000019F,false,Rx,0,8,E1,E1,7D,01,00,6A,50,FE,
1076932,00000511,false,Rx,0,7,00,6F,94,10,34,02,3E,00,
1078911,000001C7,false,Rx,0,4,AA,A0,FF,C0,00,00,00,00,
1081258,00000157,false,Rx,0,8,D5,7B,09,C4,FF,E0,00,80,
1081657,000001A1,false,Rx,0,8,B0,C5,70,0F,75,8C,80,20,
1086408,00000155,false,Rx,0,8,47,87,C5,54,96,18,02,C1,
1086657,0000019F,false,Rx,0,8,E1,E1,7D,06,00,6A,50,FE,
1088907,000001C7,false,Rx,0,4,AA,A0,FF,C0,00,00,00,00,
1091308,00000157,false,Rx,0,8,D5,CB,09,C4,FF,E0,00,80,
1091667,000001A1,false,Rx,0,8,B0,C5,70,0F,A5,8C,80,20,
1092421,00000445,false,Rx,0,7,80,55,55,65,04,82,00,00,
1096357,00000155,false,Rx,0,8,47,87,C5,54,96,18,02,C1,
1096651,0000019F,false,Rx,0,8,E1,E1,7D,0B,00,6A,50,FE,
1098907,000001C7,false,Rx,0,4,AA,A0,FF,C0,00,00,00,00,
1101334,00000157,false,Rx,0,8,D5,1B,09,C4,FF,E0,00,80,
1101657,000001A1,false,Rx,0,8,B0,C5,5C,0F,85,8C,80,20,
1106235,00000423,false,Rx,0,8,0B,1D,00,02,B2,80,5D,D8,
1106483,00000155,false,Rx,0,8,47,87,C5,54,96,18,02,C2,
1106707,0000019F,false,Rx,0,8,E1,E1,7D,00,00,6A,50,FE,
1106933,00000424,false,Rx,0,8,11,40,56,C8,33,5E,AA,34,
1107157,00000425,false,Rx,0,8,2A,BA,44,9C,42,18,CD,0B,
1108933,000001C7,false,Rx,0,4,AA,A0,FF,C0,00,00,00,00,
1111310,00000157,false,Rx,0,8,D5,6B,09,C4,FF,E0,00,80,
1111517,00000426,false,Rx,0,8,00,60,01,00,53,18,00,40,
1111802,000001A1,false,Rx,0,8,B1,05,70,0F,55,8C,80,20,
1116357,00000155,false,Rx,0,8,47,87,C5,54,96,18,02,C1,
1116623,0000019F,false,Rx,0,8,E1,E1,7D,05,00,6A,50,FE,
1118887,00000500,false,Rx,0,5,02,30,B9,EE,09,00,00,00,
1118996,000001C7,false,Rx,0,4,AA,A0,FF,C0,00,00,00,00,
1121294,00000157,false,Rx,0,8,D5,BB,09,C4,FF,E0,00,80,
1121633,000001A1,false,Rx,0,8,B0,C5,70,0F,85,8C,80,20,
1126210,00000435,false,Rx,0,8,FF,FF,1E,0B,2E,10,00,00,
1126434,00000155,false,Rx,0,8,47,87,C5,54,96,18,02,C2,
1126662,0000019F,false,Rx,0,8,E1,E1,7D,0A,00,6A,50,FE,
1126881,00000419,false,Rx,0,6,5E,22,32,E6,46,00,00,00,
1128907,000001C7,false,Rx,0,4,AA,A0,FF,C0,00,00,00,00,
1131294,00000157,false,Rx,0,8,D5,0B,09,C4,FF,E0,00,80,
1131457,00000436,false,Rx,0,6,86,16,64,40,FF,DC,00,00,
1131711,000001A1,false,Rx,0,8,B0,C5,70,0F,75,8C,80,20,
1136331,00000155,false,Rx,0,8,47,87,C6,54,96,18,02,C2,
1136632,0000019F,false,Rx,0,8,E1,E1,7D,0F,00,6A,50,FE,
1138898,000001C7,false,Rx,0,4,AA,A0,FF,C0,00,00,00,00,
1141345,00000157,false,Rx,0,8,D5,5B,09,C4,FF,E0,00,80,
1141629,000001A1,false,Rx,0,8,B1,05,70,0F,55,8C,80,20,
1146533,00000155,false,Rx,0,8,47,87,C5,54,96,18,02,C2,
1146774,0000019F,false,Rx,0,8,E1,E1,7D,04,00,6A,50,FE,
1148982,000004F7,false,Rx,0,8,00,1A,08,00,90,2C,06,F0,
1149157,000001C7,false,Rx,0,4,AA,A0,FF,C0,00,00,00,00,
1149410,00000428,false,Rx,0,8,00,00,00,7F,00,00,00,00,
1149588,0000042F,false,Rx,0,2,00,20,00,00,00,00,00,00,
1151356,00000157,false,Rx,0,8,D5,AB,09,C4,FF,E0,00,80,
1151624,000001A1,false,Rx,0,8,B0,C5,70,0F,85,8C,80,20,
1156374,00000155,false,Rx,0,8,47,87,C5,54,96,18,02,C2,
1156622,0000019F,false,Rx,0,8,E1,E1,7D,09,00,6A,50,FE,
1158932,000001C7,false,Rx,0,4,AA,A0,FF,C0,00,00,00,00,
1161357,00000157,false,Rx,0,8,D5,FB,09,C4,FF,E0,00,80,
1161635,000001A1,false,Rx,0,8,B0,C5,70,0F,85,8C,80,20,
1166383,00000155,false,Rx,0,8,47,87,C4,54,96,18,02,C2,
1166626,0000019F,false,Rx,0,8,E1,E1,7D,0E,00,6A,50,FE,
1168933,000001C7,false,Rx,0,4,AA,A0,FF,C0,00,00,00,00,
1171363,00000157,false,Rx,0,8,D5,4B,09,C4,FF,E0,00,80,
1171600,000001A1,false,Rx,0,8,B1,05,70,0F,55,8C,80,20,
1176386,00000155,false,Rx,0,8,47,87,C5,54,96,18,02,C2,
1176628,0000019F,false,Rx,0,8,E1,E1,7D,03,00,6A,50,FE,
1176899,00000511,false,Rx,0,7,00,AE,5D,C9,9F,0F,21,00,
1178933,000001C7,false,Rx,0,4,AA,A0,FF,C0,00,00,00,00,
1181278,00000157,false,Rx,0,8,D5,9B,09,C4,FF,E0,00,80,
1181658,000001A1,false,Rx,0,8,B0,C5,70,0F,85,8C,80,20,
1186333,00000155,false,Rx,0,8,47,87,C5,54,96,18,02,C1,
1186658,0000019F,false,Rx,0,8,E1,E1,7D,08,00,6A,50,FE,
1188970,000001C7,false,Rx,0,4,AA,A0,FF,C0,00,00,00,00,
1191314,00000157,false,Rx,0,8,D5,EB,09,C4,FF,E0,00,80,
1191625,000001A1,false,Rx,0,8,B0,85,70,0F,85,8C,80,20,
1192530,00000445,false,Rx,0,7,80,55,55,65,04,82,00,00,
1196468,00000155,false,Rx,0,8,47,87,C6,54,96,18,02,C1,
1196625,0000019F,false,Rx,0,8,E1,E1,7D,0D,00,6A,50,FE,
1198978,000001C7,false,Rx,0,4,AA,A0,FF,C0,00,00,00,00,
1201362,00000157,false,Rx,0,8,D5,3B,09,C4,FF,E0,00,80,
1201697,000001A1,false,Rx,0,8,B1,05,70,0F,75,8C,80,20,
1206348,00000423,false,Rx,0,8,0B,1D,00,02,B2,80,5D,D8,
1206445,00000155,false,Rx,0,8,47,87,C6,54,96,18,02,C2,
1206851,0000019F,false,Rx,0,8,E1,E1,7D,02,00,6A,50,FE,
1206888,00000424,false,Rx,0,8,11,40,56,C8,33,5E,AA,34,
1207184,00000425,false,Rx,0,8,2A,BA,44,9C,42,18,CD,0B,
1209009,000001C7,false,Rx,0,4,AA,A0,FF,C0,00,00,00,00,
1211487,00000157,false,Rx,0,8,D5,8B,09,C4,FF,E0,00,80,
1211569,00000426,false,Rx,0,8,00,60,01,00,53,18,00,40,
1211904,000001A1,false,Rx,0,8,B1,05,70,0F,B5,8C,80,20,
1216471,00000155,false,Rx,0,8,47,87,C5,54,96,18,02,C2,
1216627,0000019F,false,Rx,0,8,E1,E1,7D,07,00,6A,50,FE,
1218623,00000500,false,Rx,0,5,02,8E,A6,C7,F2,00,00,00,
1219042,000001C7,false,Rx,0,4,AA,A0,FF,C0,00,00,00,00,
1221452,00000157,false,Rx,0,8,D5,DB,09,C4,FF,E0,00,80,
1221611,000001A1,false,Rx,0,8,B0,85,70,0F,A5,8C,80,20,
1226388,00000435,false,Rx,0,8,FF,FF,1E,0B,2E,10,00,00,
1226433,00000155,false,Rx,0,8,47,87,C4,54,96,18,02,C1,
1226766,0000019F,false,Rx,0,8,E1,E1,7D,0C,00,6A,50,FE,
1226879,00000419,false,Rx,0,6,5E,22,32,E6,46,00,00,00,
1229210,000001C7,false,Rx,0,4,AA,A0,FF,C0,00,00,00,00,
1231488,00000157,false,Rx,0,8,D5,2B,09,C4,FF,E0,00,80,
1231497,00000436,false,Rx,0,6,86,16,64,40,FF,DC,00,00,
1231698,000001A1,false,Rx,0,8,B1,05,70,0F,85,8C,80,20,
1236407,00000155,false,Rx,0,8,47,87,C4,54,96,18,02,C1,
1236701,0000019F,false,Rx,0,8,E1,E1,7D,01,00,6A,50,FE,
1239129,000001C7,false,Rx,0,4,AA,A0,FF,C0,00,00,00,00,
1241522,00000157,false,Rx,0,8,D5,7B,09,C4,FF,E0,00,80,
1241632,000001A1,false,Rx,0,8,B1,05,70,0F,A5,8C,80,20,
1246502,00000155,false,Rx,0,8,47,87,C5,54,96,18,02,C2,
1246667,0000019F,false,Rx,0,8,E1,E1,7D,06,00,6A,50,FE,
1249124,000004F7,false,Rx,0,8,00,1A,08,00,90,2C,06,F0,
1249212,000001C7,false,Rx,0,4,AA,A0,FF,C0,00,00,00,00,
1249647,00000428,false,Rx,0,8,00,00,00,7F,00,00,00,00,
1249656,0000042F,false,Rx,0,2,00,20,00,00,00,00,00,00,
1251415,00000157,false,Rx,0,8,D5,CB,09,C4,FF,E0,00,80,
1251670,000001A1,false,Rx,0,8,B0,C5,70,0F,A5,8C,80,20,
1256517,00000155,false,Rx,0,8,47,87,C5,54,96,18,02,C1,
1256622,0000019F,false,Rx,0,8,E1,E1,7D,0B,00,6A,50,FE,
1259194,000001C7,false,Rx,0,4,AA,A0,FF,C0,00,00,00,00,
1261313,00000157,false,Rx,0,8,D5,1B,09,C4,FF,E0,00,80,
1261678,000001A1,false,Rx,0,8,B0,C5,70,0F,85,8C,80,20,
1266335,00000155,false,Rx,0,8,47,87,C6,54,96,18,02,C2,
1266733,0000019F,false,Rx,0,8,E1,E1,7D,00,00,6A,50,FE,
1269136,000001C7,false,Rx,0,4,AA,A0,FF,C0,00,00,00,00,
1271509,00000157,false,Rx,0,8,D5,6B,09,C4,FF,E0,00,80,
1271619,000001A1,false,Rx,0,8,B1,05,70,0F,A5,8C,80,20,
1276630,00000155,false,Rx,0,8,47,87,C5,54,96,18,02,C2,
1276639,0000019F,false,Rx,0,8,E1,E1,7D,05,00,6A,50,FE,
1276983,00000511,false,Rx,0,7,00,ED,26,82,0A,1C,04,00,
1279174,000001C7,false,Rx,0,4,AA,A0,FF,C0,00,00,00,00,
1281586,00000157,false,Rx,0,8,D5,BB,09,C4,FF,E0,00,80,
1281632,000001A1,false,Rx,0,8,B0,C5,70,0F,A5,8C,80,20,
1286541,00000155,false,Rx,0,8,47,87,C4,54,96,18,02,C1,
1286649,0000019F,false,Rx,0,8,E1,E1,7D,0A,00,6A,50,FE,
1289256,000001C7,false,Rx,0,4,AA,A0,FF,C0,00,00,00,00,
1291483,00000157,false,Rx,0,8,D5,0B,09,C4,FF,E0,00,80,
1291636,000001A1,false,Rx,0,8,B0,C5,70,0F,85,8C,80,20,
1292331,00000445,false,Rx,0,7,80,55,55,65,04,82,00,00,
1296475,00000155,false,Rx,0,8,47,87,C4,54,96,18,02,C2,
1296620,0000019F,false,Rx,0,8,E1,E1,7D,0F,00,6A,50,FE,
1299077,000001C7,false,Rx,0,4,AA,A0,FF,C0,00,00,00,00,
1301518,00000157,false,Rx,0,8,D5,5B,09,C4,FF,E0,00,80,
1301659,000001A1,false,Rx,0,8,B1,05,70,0F,85,8C,80,20,
1306486,00000423,false,Rx,0,8,0B,1D,00,02,B2,80,5D,D8,
1306495,00000155,false,Rx,0,8,47,87,C4,54,96,18,02,C2,
1306716,0000019F,false,Rx,0,8,E1,E1,7D,04,00,6A,50,FE,
1306982,00000424,false,Rx,0,8,11,40,56,C8,33,5E,AA,34,
1307169,00000425,false,Rx,0,8,2A,BA,44,9C,42,18,CD,0B,
1309150,000001C7,false,Rx,0,4,AA,A0,FF,C0,00,00,00,00,
1311314,00000157,false,Rx,0,8,D5,AB,09,C4,FF,E0,00,80,
1311560,00000426,false,Rx,0,8,00,60,01,00,53,18,00,40,
1311807,000001A1,false,Rx,0,8,B0,C5,70,0F,85,8C,80,20,
1316310,00000155,false,Rx,0,8,47,87,C5,54,96,18,02,C2,
1316635,0000019F,false,Rx,0,8,E1,E1,7D,09,00,6A,50,FE,
1318609,00000500,false,Rx,0,5,02,6B,B7,61,CF,00,00,00,
1319032,000001C7,false,Rx,0,4,AA,A0,FF,C0,00,00,00,00,
1321283,00000157,false,Rx,0,8,D5,FB,09,C4,FF,E0,00,80,
1321610,000001A1,false,Rx,0,8,B0,C5,70,0F,75,8C,80,20,
1326284,00000435,false,Rx,0,8,FF,FF,1E,0B,2E,10,00,00,
1326502,00000155,false,Rx,0,8,47,87,C6,54,96,18,02,C2,
1326776,0000019F,false,Rx,0,8,E1,E1,7D,0E,00,6A,50,FE,
1326981,00000419,false,Rx,0,6,5E,22,32,E6,46,00,00,00,
1329034,000001C7,false,Rx,0,4,AA,A0,FF,C0,00,00,00,00,
1331259,00000157,false,Rx,0,8,D5,4B,09,C4,FF,E0,00,80,
1331460,00000436,false,Rx,0,6,86,16,64,40,FF,DC,00,00,
1331686,000001A1,false,Rx,0,8,B0,C5,70,0F,A5,8C,80,20,
1336309,00000155,false,Rx,0,8,47,87,C5,54,96,18,02,C2,
1336635,0000019F,false,Rx,0,8,E1,E1,7D,03,00,6A,50,FE,
1339033,000001C7,false,Rx,0,4,AA,A0,FF,C0,00,00,00,00,
1341309,00000157,false,Rx,0,8,D5,9B,09,C4,FF,E0,00,80,
1341610,000001A1,false,Rx,0,8,B0,C5,70,0F,75,8C,80,20,
1346385,00000155,false,Rx,0,8,47,87,C5,54,96,18,02,C2,
1346635,0000019F,false,Rx,0,8,E1,E1,7D,08,00,6A,50,FE,
1349110,000004F7,false,Rx,0,8,00,1A,08,00,90,2C,06,F0,
1349283,000001C7,false,Rx,0,4,AA,A0,FF,C0,00,00,00,00,
1349537,00000428,false,Rx,0,8,00,00,00,7F,00,00,00,00,
1349716,0000042F,false,Rx,0,2,00,20,00,00,00,00,00,00,
1351333,00000157,false,Rx,0,8,D5,EB,09,C4,FF,E0,00,80,
1351610,000001A1,false,Rx,0,8,B0,C5,70,0F,55,8C,80,20,
1356385,00000155,false,Rx,0,8,47,87,C5,54,96,18,02,C2,
1356610,0000019F,false,Rx,0,8,E1,E1,7D,0D,00,6A,50,FE,
1359058,000001C7,false,Rx,0,4,AA,A0,FF,C0,00,00,00,00,
1361233,00000157,false,Rx,0,8,D5,3B,09,C4,FF,E0,00,80,
1361606,000001A1,false,Rx,0,8,B0,C5,5C,0F,85,8C,80,20,
1366377,00000155,false,Rx,0,8,47,87,C5,54,96,18,02,C2,
1366624,0000019F,false,Rx,0,8,E1,E1,7D,02,00,6A,50,FE,
1369061,000001C7,false,Rx,0,4,AA,A0,FF,C0,00,00,00,00,
1371361,00000157,false,Rx,0,8,D5,8B,09,C4,FF,E0,00,80,
1371611,000001A1,false,Rx,0,8,B0,C5,70,0F,85,8C,80,20,
1376381,00000155,false,Rx,0,8,47,87,C5,54,96,18,02,C2,
1376647,0000019F,false,Rx,0,8,E1,E1,7D,07,00,6A,50,FE,
1376894,00000511,false,Rx,0,7,00,2C,EF,3B,75,29,E7,00,
1379060,000001C7,false,Rx,0,4,AA,A0,FF,C0,00,00,00,00,
1381258,00000157,false,Rx,0,8,D5,DB,09,C4,FF,E0,00,80,
1381612,000001A1,false,Rx,0,8,B1,05,70,0F,45,8C,80,20,
1386310,00000155,false,Rx,0,8,47,87,C5,54,96,18,02,C2,
1386609,0000019F,false,Rx,0,8,E1,E1,7D,0C,00,6A,50,FE,
1389051,000001C7,false,Rx,0,4,AA,A0,FF,C0,00,00,00,00,
1391301,00000157,false,Rx,0,8,D5,2B,09,C4,FF,E0,00,80,
1391624,000001A1,false,Rx,0,8,B0,C5,70,0F,85,8C,80,20,
1392324,00000445,false,Rx,0,7,80,55,55,65,04,82,00,00,
1396310,00000155,false,Rx,0,8,47,87,C6,54,96,18,02,C2,
1396611,0000019F,false,Rx,0,8,E1,E1,7D,01,00,6A,50,FE,
1399084,000001C7,false,Rx,0,4,AA,A0,FF,C0,00,00,00,00,
1401234,00000157,false,Rx,0,8,D5,7B,09,C4,FF,E0,00,80,
1401609,000001A1,false,Rx,0,8,B0,C5,70,0F,85,8C,80,20,
1406159,00000423,false,Rx,0,8,0B,1D,00,02,5D,80,B2,D8,
1406410,00000155,false,Rx,0,8,47,87,C5,54,96,18,02,C2,
1406637,0000019F,false,Rx,0,8,E1,E1,7D,06,00,6A,50,FE,
1406856,00000424,false,Rx,0,8,11,40,56,C8,33,5E,AA,34,
1407084,00000425,false,Rx,0,8,2A,BA,44,9C,42,18,CD,0B,
1409084,000001C7,false,Rx,0,4,AA,A0,FF,C0,00,00,00,00,
1411309,00000157,false,Rx,0,8,D5,CB,09,C4,FF,E0,00,80,
1411560,00000426,false,Rx,0,8,00,60,01,00,53,18,00,40,
1411774,000001A1,false,Rx,0,8,B1,05,70,0F,55,8C,80,20,
1416309,00000155,false,Rx,0,8,47,87,C5,54,96,18,02,C2,
1416610,0000019F,false,Rx,0,8,E1,E1,7D,0B,00,6A,50,FE,
1418858,00000500,false,Rx,0,5,02,74,E7,4E,CC,00,00,00,
1419095,000001C7,false,Rx,0,4,AA,A0,FF,C0,00,00,00,00,
1421308,00000157,false,Rx,0,8,D5,1B,09,C4,FF,E0,00,80,
1421607,000001A1,false,Rx,0,8,B0,C5,70,0F,A5,8C,80,20,
1426284,00000435,false,Rx,0,8,FF,FF,1E,0B,2E,10,00,00,
1426504,00000155,false,Rx,0,8,47,87,C4,54,96,18,02,C2,
1426729,0000019F,false,Rx,0,8,E1,E1,7D,00,00,6A,50,FE,
1427002,00000419,false,Rx,0,6,5E,22,32,E6,46,00,00,00,
1429105,000001C7,false,Rx,0,4,AA,A0,FF,C0,00,00,00,00,
1431355,00000157,false,Rx,0,8,D5,6B,09,C4,FF,E0,00,80,
1431534,00000436,false,Rx,0,6,86,16,64,40,FF,DC,00,00,
1431760,000001A1,false,Rx,0,8,B0,C5,70,0F,85,8C,80,20,
1436342,00000155,false,Rx,0,8,47,87,C5,54,96,18,02,C1,
1436674,0000019F,false,Rx,0,8,E1,E1,7D,05,00,6A,50,FE,
1439364,000001C7,false,Rx,0,4,AA,A0,FF,C0,00,00,00,00,
1441486,00000157,false,Rx,0,8,D5,BB,09,C4,FF,E0,00,80,
1441628,000001A1,false,Rx,0,8,B1,05,70,0F,85,8C,80,20,
1446457,00000155,false,Rx,0,8,47,87,C5,54,96,18,02,C2,
1446664,0000019F,false,Rx,0,8,E1,E1,7D,0A,00,6A,50,FE,
1449227,000004F7,false,Rx,0,8,00,1A,08,00,90,2C,06,F0,
1449320,000001C7,false,Rx,0,4,AA,A0,FF,C0,00,00,00,00,
1449652,00000428,false,Rx,0,8,00,00,00,7F,00,00,00,00,
1449774,0000042F,false,Rx,0,2,00,20,00,00,00,00,00,00,
1451389,00000157,false,Rx,0,8,D5,0B,09,C4,FF,E0,00,80,
1451689,000001A1,false,Rx,0,8,B1,05,70,0F,B5,8C,80,20,
1456391,00000155,false,Rx,0,8,47,87,C6,54,96,18,02,C2,
1456691,0000019F,false,Rx,0,8,E1,E1,7D,0F,00,6A,50,FE,
1459153,000001C7,false,Rx,0,4,AA,A0,FF,C0,00,00,00,00,
1461444,00000157,false,Rx,0,8,D5,5B,09,C4,FF,E0,00,80,
1461642,000001A1,false,Rx,0,8,B0,C5,5C,0F,A5,8C,80,20,
1466349,00000155,false,Rx,0,8,47,87,C5,54,96,18,02,C2,
1466742,0000019F,false,Rx,0,8,E1,E1,7D,04,00,6A,50,FE,
1469301,000001C7,false,Rx,0,4,AA,A0,FF,C0,00,00,00,00,
1471508,00000157,false,Rx,0,8,D5,AB,09,C4,FF,E0,00,80,
1471619,000001A1,false,Rx,0,8,B0,C5,70,0F,85,8C,80,20,
1476629,00000155,false,Rx,0,8,47,87,C5,54,96,18,02,C2,
1476638,0000019F,false,Rx,0,8,E1,E1,7D,09,00,6A,50,FE,
1476966,00000511,false,Rx,0,7,00,6B,B8,F4,E0,36,CA,00,
1479149,000001C7,false,Rx,0,4,AA,A0,FF,C0,00,00,00,00,
1481585,00000157,false,Rx,0,8,D5,FB,09,C4,FF,E0,00,80,
1481629,000001A1,false,Rx,0,8,B1,05,70,0F,B5,8C,80,20,
1486609,00000155,false,Rx,0,8,47,87,C4,54,96,18,02,C2,
1486618,0000019F,false,Rx,0,8,E1,E1,7D,0E,00,6A,50,FE,
1489390,000001C7,false,Rx,0,4,AA,A0,FF,C0,00,00,00,00,
1491431,00000157,false,Rx,0,8,D5,4B,09,C4,FF,E0,00,80,
1491639,000001A1,false,Rx,0,8,B0,85,70,0F,B5,8C,80,20,
1492439,00000445,false,Rx,0,7,80,55,AA,65,04,82,00,00,
1496394,00000155,false,Rx,0,8,47,87,C4,54,96,18,02,C2,
1496606,0000019F,false,Rx,0,8,E1,E1,7D,03,00,6A,50,FE,
1499392,000001C7,false,Rx,0,4,AA,A0,FF,C0,00,00,00,00,
1501328,00000157,false,Rx,0,8,D5,9B,09,C4,FF,E0,00,80,
1501699,000001A1,false,Rx,0,8,B0,C5,70,0F,85,8C,80,20,
1506306,00000423,false,Rx,0,8,0B,1D,00,02,5D,80,B2,D8,
1506491,00000155,false,Rx,0,8,47,87,C5,54,96,18,02,C2,
1506807,0000019F,false,Rx,0,8,E1,E1,7D,08,00,6A,50,FE,
1506933,00000424,false,Rx,0,8,11,40,56,C8,33,5E,55,34,
1507320,00000425,false,Rx,0,8,2A,BA,44,9C,42,18,CD,0B,
1509295,000001C7,false,Rx,0,4,AA,A0,FF,C0,00,00,00,00,
1511590,00000157,false,Rx,0,8,D5,EB,09,C4,FF,E0,00,80,
1511599,00000426,false,Rx,0,8,00,60,01,00,53,18,00,40,
1511811,000001A1,false,Rx,0,8,B1,05,70,0F,A5,8C,80,20,
1516458,00000155,false,Rx,0,8,47,87,C5,54,96,18,02,C2,
1516614,0000019F,false,Rx,0,8,E1,E1,7D,0D,00,6A,50,FE,
1518752,00000500,false,Rx,0,5,02,92,2A,EB,60,00,00,00,
1519256,000001C7,false,Rx,0,4,AA,A0,FF,C0,00,00,00,00,
1521487,00000157,false,Rx,0,8,D5,3B,09,C4,FF,E0,00,80,
1521629,000001A1,false,Rx,0,8,B0,C5,5C,0F,A5,8C,80,20,
1526199,00000435,false,Rx,0,8,FF,FF,1E,0B,2E,10,00,00,
1526460,00000155,false,Rx,0,8,47,87,C6,54,96,18,02,C2,
1526657,0000019F,false,Rx,0,8,E1,E1,7D,02,00,6A,50,FE,
1526957,00000419,false,Rx,0,6,5E,22,32,E6,46,00,00,00,
1529367,000001C7,false,Rx,0,4,AA,A0,FF,C0,00,00,00,00,
1531294,00000157,false,Rx,0,8,D5,8B,09,C4,FF,E0,00,80,
1531470,00000436,false,Rx,0,6,86,16,64,40,FF,DC,00,00,
1531708,000001A1,false,Rx,0,8,B0,C5,70,0F,85,8C,80,20,
1536338,00000155,false,Rx,0,8,47,87,C5,54,96,18,02,C2,
1536625,0000019F,false,Rx,0,8,E1,E1,7D,07,00,6A,50,FE,
1538846,0000069F,false,Rx,0,4,71,30,28,2F,00,00,00,00,
1539236,000001C7,false,Rx,0,4,AA,A0,FF,C0,00,00,00,00,
1541515,00000157,false,Rx,0,8,D5,DB,09,C4,FF,E0,00,80,
1541672,000001A1,false,Rx,0,8,B1,05,70,0F,A5,8C,80,20,
1546545,00000155,false,Rx,0,8,47,87,C5,54,96,18,02,C2,
1546644,0000019F,false,Rx,0,8,E1,E1,7D,0C,00,6A,50,FE,
1549369,000004F7,false,Rx,0,8,00,1A,08,00,90,2C,06,F0,
1549378,000001C7,false,Rx,0,4,AA,A0,FF,C0,00,00,00,00,
1549694,00000428,false,Rx,0,8,00,00,00,7F,00,00,00,00,
1549814,0000042F,false,Rx,0,2,00,20,00,00,00,00,00,00,
1551443,00000157,false,Rx,0,8,D5,2B,09,C4,FF,E0,00,80,
1551626,000001A1,false,Rx,0,8,B0,C5,5C,0F,A5,8C,80,20,
1556452,00000155,false,Rx,0,8,47,87,C5,54,96,18,02,C2,
1556629,0000019F,false,Rx,0,8,E1,E1,7D,01,00,6A,50,FE,
1559294,000001C7,false,Rx,0,4,AA,A0,FF,C0,00,00,00,00,
1561323,00000157,false,Rx,0,8,D5,7B,09,C4,FF,E0,00,80,
1561613,000001A1,false,Rx,0,8,B0,C5,70,0F,55,8C,80,20,
1566368,00000155,false,Rx,0,8,47,87,C5,54,96,18,02,C2,
1566640,0000019F,false,Rx,0,8,E1,E1,7D,06,00,6A,50,FE,
1569136,000001C7,false,Rx,0,4,AA,A0,FF,C0,00,00,00,00,
1571335,00000157,false,Rx,0,8,D5,CB,09,C4,FF,E0,00,80,
1571638,000001A1,false,Rx,0,8,B1,05,70,0F,85,8C,80,20,
1576361,00000155,false,Rx,0,8,47,87,C5,54,96,18,02,C2,
1576637,0000019F,false,Rx,0,8,E1,E1,7D,0B,00,6A,50,FE,
1576908,00000511,false,Rx,0,7,00,AA,81,AD,4B,43,AD,00,
1579162,000001C7,false,Rx,0,4,AA,A0,FF,C0,00,00,00,00,
1581260,00000157,false,Rx,0,8,D5,1B,09,C4,FF,E0,00,80,
1581612,000001A1,false,Rx,0,8,B0,C5,70,0F,85,8C,80,20,
1586286,00000155,false,Rx,0,8,47,87,C6,54,96,18,02,C2,
1586638,0000019F,false,Rx,0,8,E1,E1,7D,00,00,6A,50,FE,
1589161,000001C7,false,Rx,0,4,AA,A0,FF,C0,00,00,00,00,
1591236,00000157,false,Rx,0,8,D5,6B,09,C4,FF,E0,00,80,
1591613,000001A1,false,Rx,0,8,B1,05,70,0F,55,8C,80,20,
1592311,00000445,false,Rx,0,7,80,55,AA,65,04,82,00,00,
1596311,00000155,false,Rx,0,8,47,87,C5,54,96,18,02,C2,
1596637,0000019F,false,Rx,0,8,E1,E1,7D,05,00,6A,50,FE,
1599160,000001C7,false,Rx,0,4,AA,A0,FF,C0,00,00,00,00,
1601261,00000157,false,Rx,0,8,D5,BB,09,C4,FF,E0,00,80,
1601612,000001A1,false,Rx,0,8,B0,C5,70,0F,85,8C,80,20,
1606264,00000423,false,Rx,0,8,0B,1D,00,02,5D,80,B2,D8,
1606485,00000155,false,Rx,0,8,47,87,C5,54,96,18,02,C2,
1606714,0000019F,false,Rx,0,8,E1,E1,7D,0A,00,6A,50,FE,
1606957,00000424,false,Rx,0,8,11,40,56,C8,33,5E,55,34,
1607161,00000425,false,Rx,0,8,2A,BA,44,9C,42,18,CD,0B,
1609161,000001C7,false,Rx,0,4,AA,A0,FF,C0,00,00,00,00,
1611236,00000157,false,Rx,0,8,D5,0B,09,C4,FF,E0,00,80,
1611462,00000426,false,Rx,0,8,00,60,01,00,53,18,00,40,
1611709,000001A1,false,Rx,0,8,B0,C5,70,0F,75,8C,80,20,
1616318,00000155,false,Rx,0,8,47,87,C5,54,96,18,02,C2,
1616608,0000019F,false,Rx,0,8,E1,E1,7D,0F,00,6A,50,FE,
1618652,00000500,false,Rx,0,5,02,76,88,0B,74,00,00,00,
1619149,000001C7,false,Rx,0,4,AA,A0,FF,C0,00,00,00,00,
1621252,00000157,false,Rx,0,8,D5,5B,09,C4,FF,E0,00,80,
1621626,000001A1,false,Rx,0,8,B1,05,70,0F,55,8C,80,20,
1626284,00000435,false,Rx,0,8,FF,FF,1E,0B,2E,10,00,00,
1626501,00000155,false,Rx,0,8,47,87,C5,54,96,18,02,C2,
1626763,0000019F,false,Rx,0,8,E1,E1,7D,04,00,6A,50,FE,
1626992,00000419,false,Rx,0,6,5E,22,32,E6,46,00,00,00,
1629152,000001C7,false,Rx,0,4,AA,A0,FF,C0,00,00,00,00,
1631273,00000157,false,Rx,0,8,D5,AB,09,C4,FF,E0,00,80,
1631506,00000436,false,Rx,0,6,86,16,64,40,FF,DC,00,00,
1631735,000001A1,false,Rx,0,8,B0,C5,70,0F,85,8C,80,20,
1636347,00000155,false,Rx,0,8,47,87,C5,54,96,18,02,C2,
1636651,0000019F,false,Rx,0,8,E1,E1,7D,09,00,6A,50,FE,
1639189,000001C7,false,Rx,0,4,AA,A0,FF,C0,00,00,00,00,
1641327,00000157,false,Rx,0,8,D5,FB,09,C4,FF,E0,00,80,
1641628,000001A1,false,Rx,0,8,B0,C5,70,0F,85,8C,80,20,
1646400,00000155,false,Rx,0,8,47,87,C5,54,96,18,02,C2,
1646645,0000019F,false,Rx,0,8,E1,E1,7D,0E,00,6A,50,FE,
1649247,000004F7,false,Rx,0,8,00,1A,08,00,90,2C,06,F0,
1649419,000001C7,false,Rx,0,4,AA,A0,FF,C0,00,00,00,00,
1649764,00000428,false,Rx,0,8,00,00,00,7F,00,00,00,00,
1649835,0000042F,false,Rx,0,2,00,20,00,00,00,00,00,00,
1651254,00000157,false,Rx,0,8,D5,4B,09,C4,FF,E0,00,80,
1651625,000001A1,false,Rx,0,8,B1,05,70,0F,75,8C,80,20,
1656331,00000155,false,Rx,0,8,47,87,C6,54,96,18,02,C2,
1656629,0000019F,false,Rx,0,8,E1,E1,7D,03,00,6A,50,FE,
1659180,000001C7,false,Rx,0,4,AA,A0,FF,C0,00,00,00,00,
1661277,00000157,false,Rx,0,8,D5,9B,09,C4,FF,E0,00,80,
1661603,000001A1,false,Rx,0,8,B0,C5,70,0F,A5,8C,80,20,
1666372,00000155,false,Rx,0,8,47,87,C5,54,96,18,02,C2,
1666670,0000019F,false,Rx,0,8,E1,E1,7D,08,00,6A,50,FE,
1669217,000001C7,false,Rx,0,4,AA,A0,FF,C0,00,00,00,00,
1671293,00000157,false,Rx,0,8,D5,EB,09,C4,FF,E0,00,80,
1671606,000001A1,false,Rx,0,8,B0,C5,70,0F,85,8C,80,20,
1676402,00000155,false,Rx,0,8,47,87,C5,54,96,18,02,C2,
1676677,0000019F,false,Rx,0,8,E1,E1,7D,0D,00,6A,50,FE,
1676947,00000511,false,Rx,0,7,00,E9,4A,66,B6,50,90,00,
1679224,000001C7,false,Rx,0,4,AA,A0,FF,C0,00,00,00,00,
1681274,00000157,false,Rx,0,8,D5,3B,09,C4,FF,E0,00,80,
1681650,000001A1,false,Rx,0,8,B1,05,5C,0F,85,8C,80,20,
1686396,00000155,false,Rx,0,8,47,87,C4,54,96,18,02,C2,
1686678,0000019F,false,Rx,0,8,E1,E1,7D,02,00,6A,50,FE,
1689243,000001C7,false,Rx,0,4,AA,A0,FF,C0,00,00,00,00,
1691305,00000157,false,Rx,0,8,D5,8B,09,C4,FF,E0,00,80,
1691605,000001A1,false,Rx,0,8,B1,05,70,0F,A5,8C,80,20,
1692328,00000445,false,Rx,0,7,80,55,AA,65,04,82,00,00,
1696314,00000155,false,Rx,0,8,47,87,C5,54,96,18,02,C2,
1696638,0000019F,false,Rx,0,8,E1,E1,7D,07,00,6A,50,FE,
1699211,000001C7,false,Rx,0,4,AA,A0,FF,C0,00,00,00,00,
1701339,00000157,false,Rx,0,8,D5,DB,09,C4,FF,E0,00,80,
1701636,000001A1,false,Rx,0,8,B0,C5,70,0F,85,8C,80,20,
1706255,00000423,false,Rx,0,8,0B,1D,00,02,5D,80,B2,D8,
1706470,00000155,false,Rx,0,8,47,87,C5,54,96,18,02,C2,
1706695,0000019F,false,Rx,0,8,E1,E1,7D,0C,00,6A,50,FE,
1706944,00000424,false,Rx,0,8,11,40,56,C8,33,5E,55,34,
1707144,00000425,false,Rx,0,8,2A,BA,44,9C,42,18,CD,0B,
1709212,000001C7,false,Rx,0,4,AA,A0,FF,C0,00,00,00,00,
1711306,00000157,false,Rx,0,8,D5,2B,09,C4,FF,E0,00,80,
1711555,00000426,false,Rx,0,8,00,60,01,00,53,18,00,40,
1711769,000001A1,false,Rx,0,8,B0,C5,5C,0F,85,8C,80,20,
1716301,00000155,false,Rx,0,8,47,87,C6,54,96,18,02,C2,
1716620,0000019F,false,Rx,0,8,E1,E1,7D,01,00,6A,50,FE,
1718976,00000500,false,Rx,0,5,02,0A,A9,75,3F,00,00,00,
1719202,000001C7,false,Rx,0,4,AA,A0,FF,C0,00,00,00,00,
1721314,00000157,false,Rx,0,8,D5,7B,09,C4,FF,E0,00,80,
1721604,000001A1,false,Rx,0,8,B0,C5,70,0F,C5,8C,80,20,
1726184,00000435,false,Rx,0,8,FF,FF,1E,0B,2E,10,00,00,
1726406,00000155,false,Rx,0,8,47,87,C6,54,96,18,02,C2,
1726675,0000019F,false,Rx,0,8,E1,E1,7D,06,00,6A,50,FE,
1726903,00000419,false,Rx,0,6,5E,22,32,E6,46,00,00,00,
1729242,000001C7,false,Rx,0,4,AA,A0,FF,C0,00,00,00,00,
1731287,00000157,false,Rx,0,8,D5,CB,09,C4,FF,E0,00,80,
1731455,00000436,false,Rx,0,6,86,16,64,40,FF,DC,00,00,
1731708,000001A1,false,Rx,0,8,B0,C5,70,0F,A5,8C,80,20,
1736313,00000155,false,Rx,0,8,47,87,C5,54,96,18,02,C2,
1736637,0000019F,false,Rx,0,8,E1,E1,7D,0B,00,6A,50,FE,
1739237,000001C7,false,Rx,0,4,AA,A0,FF,C0,00,00,00,00,
1741336,00000157,false,Rx,0,8,D5,1B,09,C4,FF,E0,00,80,
1741631,000001A1,false,Rx,0,8,B0,C5,5C,0F,85,8C,80,20,
1746363,00000155,false,Rx,0,8,47,87,C4,54,96,18,02,C2,
1746643,0000019F,false,Rx,0,8,E1,E1,7D,00,00,6A,50,FE,
1749312,000004F7,false,Rx,0,8,00,1A,08,00,90,2C,06,F0,
1749507,000001C7,false,Rx,0,4,AA,A0,FF,C0,00,00,00,00,
1749772,00000428,false,Rx,0,8,00,00,00,7F,00,00,00,00,
1749927,0000042F,false,Rx,0,2,00,20,00,00,00,00,00,00,
1751339,00000157,false,Rx,0,8,D5,6B,09,C4,FF,E0,00,80,
1751632,000001A1,false,Rx,0,8,B1,05,70,0F,B5,8C,80,20,
1756363,00000155,false,Rx,0,8,47,87,C5,54,96,18,02,C3,
1756633,0000019F,false,Rx,0,8,E1,E1,7D,05,00,6A,50,FE,
1759233,000001C7,false,Rx,0,4,AA,A0,FF,C0,00,00,00,00,
1761337,00000157,false,Rx,0,8,D5,BB,09,C4,FF,E0,00,80,
1761658,000001A1,false,Rx,0,8,B0,C5,5C,0F,B5,8C,80,20,
1766354,00000155,false,Rx,0,8,47,87,C5,54,96,18,02,C3,
1766626,0000019F,false,Rx,0,8,E1,E1,7D,0A,00,6A,50,FE,
1769257,000001C7,false,Rx,0,4,AA,A0,FF,C0,00,00,00,00,
1771312,00000157,false,Rx,0,8,D5,0B,09,C4,FF,E0,00,80,
1771634,000001A1,false,Rx,0,8,B0,C5,70,0F,85,8C,80,20,
1776365,00000155,false,Rx,0,8,47,87,C5,54,96,18,02,C3,
1776651,0000019F,false,Rx,0,8,E1,E1,7D,0F,00,6A,50,FE,
1776905,00000511,false,Rx,0,7,00,28,13,1F,21,5D,73,00,
1779257,000001C7,false,Rx,0,4,AA,A0,FF,C0,00,00,00,00,
1781322,00000157,false,Rx,0,8,D5,5B,09,C4,FF,E0,00,80,
1781632,000001A1,false,Rx,0,8,B1,05,70,0F,A5,8C,80,20,
1786290,00000155,false,Rx,0,8,47,87,C6,54,96,18,02,C3,
1786634,0000019F,false,Rx,0,8,E1,E1,7D,04,00,6A,50,FE,
1789264,000001C7,false,Rx,0,4,AA,A0,FF,C0,00,00,00,00,
1791264,00000157,false,Rx,0,8,D5,AB,09,C4,FF,E0,00,80,
1791649,000001A1,false,Rx,0,8,B0,C5,70,0F,85,8C,80,20,
1792304,00000445,false,Rx,0,7,80,55,AA,65,04,82,00,00,
1796291,00000155,false,Rx,0,8,47,87,C5,54,96,18,02,C3,
1796606,0000019F,false,Rx,0,8,E1,E1,7D,09,00,6A,50,FE,
1799264,000001C7,false,Rx,0,4,AA,A0,FF,C0,00,00,00,00,
1801336,00000157,false,Rx,0,8,D5,FB,09,C4,FF,E0,00,80,
1801631,000001A1,false,Rx,0,8,B0,C5,5C,0F,75,8C,80,20,
1806213,00000423,false,Rx,0,8,0B,1D,00,02,5D,80,B2,D8,
1806407,00000155,false,Rx,0,8,47,87,C5,54,96,18,02,C3,
1806665,0000019F,false,Rx,0,8,E1,E1,7D,0E,00,6A,50,FE,
1806879,00000424,false,Rx,0,8,11,40,56,C8,33,5E,55,34,
1807112,00000425,false,Rx,0,8,2A,BA,44,9C,42,18,CD,0B,
1809258,000001C7,false,Rx,0,4,AA,A0,FF,C0,00,00,00,00,
1811340,00000157,false,Rx,0,8,D5,4B,09,C4,FF,E0,00,80,
1811584,00000426,false,Rx,0,8,00,60,01,00,53,18,00,40,
1811803,000001A1,false,Rx,0,8,B0,C5,70,0F,85,8C,80,20,
1816308,00000155,false,Rx,0,8,47,87,C5,54,96,18,02,C3,
1816639,0000019F,false,Rx,0,8,E1,E1,7D,03,00,6A,50,FE,
1818785,00000500,false,Rx,0,5,02,E1,FC,B7,BD,00,00,00,
1819256,000001C7,false,Rx,0,4,AA,A0,FF,C0,00,00,00,00,
1821335,00000157,false,Rx,0,8,D5,9B,09,C4,FF,E0,00,80,
1821618,000001A1,false,Rx,0,8,B0,C5,70,0F,75,8C,80,20,
1826241,00000435,false,Rx,0,8,FF,FF,1E,0B,2E,10,00,00,
1826455,00000155,false,Rx,0,8,47,87,C5,54,96,18,02,C3,
1826683,0000019F,false,Rx,0,8,E1,E1,7D,08,00,6A,50,FE,
1826875,00000419,false,Rx,0,6,5E,22,32,E6,46,00,00,00,
1829283,000001C7,false,Rx,0,4,AA,A0,FF,C0,00,00,00,00,
1831231,00000157,false,Rx,0,8,D5,EB,09,C4,FF,E0,00,80,
1831429,00000436,false,Rx,0,6,86,16,64,40,FF,DC,00,00,
1831664,000001A1,false,Rx,0,8,B0,C5,5C,0F,55,8C,80,20,
1836314,00000155,false,Rx,0,8,47,87,C5,54,96,18,02,C3,
1836631,0000019F,false,Rx,0,8,E1,E1,7D,0D,00,6A,50,FE,
1839282,000001C7,false,Rx,0,4,AA,A0,FF,C0,00,00,00,00,
1841281,00000157,false,Rx,0,8,D5,3B,09,C4,FF,E0,00,80,
1841630,000001A1,false,Rx,0,8,B0,C5,70,0F,85,8C,80,20,
1846415,00000155,false,Rx,0,8,47,87,C6,54,96,18,02,C3,
1846630,0000019F,false,Rx,0,8,E1,E1,7D,02,00,6A,50,FE,
1849355,000004F7,false,Rx,0,8,00,1A,08,00,90,2C,06,F0,
1849550,000001C7,false,Rx,0,4,AA,A0,FF,C0,00,00,00,00,
1849847,00000428,false,Rx,0,8,00,00,00,7F,00,00,00,00,
1849971,0000042F,false,Rx,0,2,00,20,00,00,00,00,00,00,
1851252,00000157,false,Rx,0,8,D5,8B,09,C4,FF,E0,00,80,
1851624,000001A1,false,Rx,0,8,B0,C5,70,0F,55,8C,80,20,
1856304,00000155,false,Rx,0,8,47,87,C6,54,96,18,02,C3,
1856621,0000019F,false,Rx,0,8,E1,E1,7D,07,00,6A,50,FE,
1859280,000001C7,false,Rx,0,4,AA,A0,FF,C0,00,00,00,00,
1861328,00000157,false,Rx,0,8,D5,DB,09,C4,FF,E0,00,80,
1861622,000001A1,false,Rx,0,8,B1,05,70,0F,75,8C,80,20,
1866330,00000155,false,Rx,0,8,47,87,C5,54,96,18,02,C3,
1866629,0000019F,false,Rx,0,8,E1,E1,7D,0C,00,6A,50,FE,
1869278,000001C7,false,Rx,0,4,AA,A0,FF,C0,00,00,00,00,
1871250,00000157,false,Rx,0,8,D5,2B,09,C4,FF,E0,00,80,
1871622,000001A1,false,Rx,0,8,B0,C5,70,0F,85,8C,80,20,
1876351,00000155,false,Rx,0,8,47,87,C5,54,96,18,02,C3,
1876622,0000019F,false,Rx,0,8,E1,E1,7D,01,00,6A,50,FE,
1876895,00000511,false,Rx,0,7,00,67,DC,D8,8C,6A,56,00,
1879299,000001C7,false,Rx,0,4,AA,A0,FF,C0,00,00,00,00,
1881301,00000157,false,Rx,0,8,D5,7B,09,C4,FF,E0,00,80,
1881621,000001A1,false,Rx,0,8,B0,C5,70,0F,75,8C,80,20,
1886358,00000155,false,Rx,0,8,47,87,C4,54,96,18,02,C3,
1886620,0000019F,false,Rx,0,8,E1,E1,7D,06,00,6A,50,FE,
1889300,000001C7,false,Rx,0,4,AA,A0,FF,C0,00,00,00,00,
1891275,00000157,false,Rx,0,8,D5,CB,09,C4,FF,E0,00,80,
1891621,000001A1,false,Rx,0,8,B1,05,70,0F,75,8C,80,20,
1892271,00000445,false,Rx,0,7,80,55,AA,65,04,82,00,00,
1896275,00000155,false,Rx,0,8,47,87,C5,54,96,18,02,C3,
1896622,0000019F,false,Rx,0,8,E1,E1,7D,0B,00,6A,50,FE,
1899304,000001C7,false,Rx,0,4,AA,A0,FF,C0,00,00,00,00,
1901225,00000157,false,Rx,0,8,D5,1B,09,C4,FF,E0,00,80,
1901623,000001A1,false,Rx,0,8,B0,C5,70,0F,A5,8C,80,20,
1906252,00000423,false,Rx,0,8,0B,1D,00,02,B2,80,5D,D8,
1906470,00000155,false,Rx,0,8,47,87,C5,54,96,18,02,C3,
1906694,0000019F,false,Rx,0,8,E1,E1,7D,00,00,6A,50,FE,
1906919,00000424,false,Rx,0,8,11,40,56,C8,33,5E,55,34,
1907143,00000425,false,Rx,0,8,2A,BA,44,9C,42,18,CD,0B,
1909322,000001C7,false,Rx,0,4,AA,A0,FF,C0,00,00,00,00,
1911250,00000157,false,Rx,0,8,D5,6B,09,C4,FF,E0,00,80,
1911495,00000426,false,Rx,0,8,00,60,01,00,53,18,00,40,
1911762,000001A1,false,Rx,0,8,B0,C5,70,0F,85,8C,80,20,
1916276,00000155,false,Rx,0,8,47,87,C6,54,96,18,02,C3,
1916620,0000019F,false,Rx,0,8,E1,E1,7D,05,00,6A,50,FE,
1918768,00000500,false,Rx,0,5,02,BD,CE,C9,E7,00,00,00,
1919314,000001C7,false,Rx,0,4,AA,A0,FF,C0,00,00,00,00,
1921273,00000157,false,Rx,0,8,D5,BB,09,C4,FF,E0,00,80,
1921621,000001A1,false,Rx,0,8,B1,05,5C,0F,85,8C,80,20,
1926232,00000435,false,Rx,0,8,FF,FF,1E,0B,2E,10,00,00,
1926445,00000155,false,Rx,0,8,47,87,C5,54,96,18,02,C3,
1926672,0000019F,false,Rx,0,8,E1,E1,7D,0A,00,6A,50,FE,
1926870,00000419,false,Rx,0,6,5E,22,32,E6,46,00,00,00,
1929326,000001C7,false,Rx,0,4,AA,A0,FF,C0,00,00,00,00,
1931347,00000157,false,Rx,0,8,D5,0B,09,C4,FF,E0,00,80,
1931520,00000436,false,Rx,0,6,86,16,64,40,FF,DC,00,00,
1931764,000001A1,false,Rx,0,8,B0,C5,70,0F,C5,8C,80,20,
1936280,00000155,false,Rx,0,8,47,87,C4,54,96,18,02,C3,
1936623,0000019F,false,Rx,0,8,E1,E1,7D,0F,00,6A,50,FE,
1939328,000001C7,false,Rx,0,4,AA,A0,FF,C0,00,00,00,00,
1941327,00000157,false,Rx,0,8,D5,5B,09,C4,FF,E0,00,80,
1941622,000001A1,false,Rx,0,8,B0,C5,5C,0F,A5,8C,80,20,
1946353,00000155,false,Rx,0,8,47,87,C4,54,96,18,02,C3,
1946621,0000019F,false,Rx,0,8,E1,E1,7D,04,00,6A,50,FE,
1949402,000004F7,false,Rx,0,8,00,1A,08,00,90,2C,06,F0,
1949572,000001C7,false,Rx,0,4,AA,A0,FF,C0,00,00,00,00,
1949821,00000428,false,Rx,0,8,00,00,00,7F,00,00,00,00,
1949998,0000042F,false,Rx,0,2,00,20,00,00,00,00,00,00,
1951299,00000157,false,Rx,0,8,D5,AB,09,C4,FF,E0,00,80,
1951621,000001A1,false,Rx,0,8,B0,C5,5C,0F,85,8C,80,20,
1956351,00000155,false,Rx,0,8,47,87,C5,54,96,18,02,C3,
1956622,0000019F,false,Rx,0,8,E1,E1,7D,09,00,6A,50,FE,
1959325,000001C7,false,Rx,0,4,AA,A0,FF,C0,00,00,00,00,
1961325,00000157,false,Rx,0,8,D5,FB,09,C4,FF,E0,00,80,
1961619,000001A1,false,Rx,0,8,B1,05,70,0F,C5,8C,80,20,
1966354,00000155,false,Rx,0,8,47,87,C5,54,96,18,02,C3,
1966620,0000019F,false,Rx,0,8,E1,E1,7D,0E,00,6A,50,FE,
1969324,000001C7,false,Rx,0,4,AA,A0,FF,C0,00,00,00,00,
1971323,00000157,false,Rx,0,8,D5,4B,09,C4,FF,E0,00,80,
1971620,000001A1,false,Rx,0,8,B0,C5,5C,0F,B5,8C,80,20,
1976350,00000155,false,Rx,0,8,47,87,C6,54,96,18,02,C3,
1976619,0000019F,false,Rx,0,8,E1,E1,7D,03,00,6A,50,FE,
1976894,00000511,false,Rx,0,7,00,A6,A5,91,F7,77,39,00,
1979346,000001C7,false,Rx,0,4,AA,A0,FF,C0,00,00,00,00,
1981221,00000157,false,Rx,0,8,D5,9B,09,C4,FF,E0,00,80,
1981621,000001A1,false,Rx,0,8,B0,C5,70,0F,85,8C,80,20,
1986302,00000155,false,Rx,0,8,47,87,C6,54,96,18,02,C3,
1986619,0000019F,false,Rx,0,8,E1,E1,7D,08,00,6A,50,FE,
1989347,000001C7,false,Rx,0,4,AA,A0,FF,C0,00,00,00,00,
1991272,00000157,false,Rx,0,8,D5,EB,09,C4,FF,E0,00,80,
1991619,000001A1,false,Rx,0,8,B1,05,5C,0F,C5,8C,80,20,
1992269,00000445,false,Rx,0,7,80,55,55,65,04,82,00,00,
1996292,00000155,false,Rx,0,8,47,87,C5,54,96,18,02,C3,
1996620,0000019F,false,Rx,0,8,E1,E1,7D,0D,00,6A,50,FE,
1999346,000001C7,false,Rx,0,4,AA,A0,FF,C0,00,00,00,00,
2001196,00000157,false,Rx,0,8,D5,3B,09,C4,FF,E0,00,80,
2001625,000001A1,false,Rx,0,8,B0,C5,70,0F,B5,8C,80,20,
2006174,00000423,false,Rx,0,8,0B,1D,00,02,B2,80,5D,D8,
2006394,00000155,false,Rx,0,8,47,87,C5,54,96,18,02,C3,
2006644,0000019F,false,Rx,0,8,E1,E1,7D,02,00,6A,50,FE,
2006868,00000424,false,Rx,0,8,11,40,56,C8,33,5E,AA,34,
2007094,00000425,false,Rx,0,8,2A,BA,44,9C,42,18,CD,0B,
2009372,000001C7,false,Rx,0,4,AA,A0,FF,C0,00,00,00,00,
2011296,00000157,false,Rx,0,8,D5,8B,09,C4,FF,E0,00,80,
2011544,00000426,false,Rx,0,8,00,60,01,00,53,18,00,40,
2011762,000001A1,false,Rx,0,8,B0,C5,70,0F,75,8C,80,20,
2016274,00000155,false,Rx,0,8,47,87,C5,54,96,18,02,C3,
2016619,0000019F,false,Rx,0,8,E1,E1,7D,07,00,6A,50,FE,
2018995,00000500,false,Rx,0,5,02,D9,9B,58,92,00,00,00,
2019369,000001C7,false,Rx,0,4,AA,A0,FF,C0,00,00,00,00,
2021223,00000157,false,Rx,0,8,D5,DB,09,C4,FF,E0,00,80,
2021620,000001A1,false,Rx,0,8,B1,05,70,0F,A5,8C,80,20,
2026223,00000435,false,Rx,0,8,FF,FF,1E,0B,2E,10,00,00,
2026445,00000155,false,Rx,0,8,47,87,C5,54,96,18,02,C3,
2026694,0000019F,false,Rx,0,8,E1,E1,7D,0C,00,6A,50,FE,
2026893,00000419,false,Rx,0,6,5E,22,32,E6,46,00,00,00,
2029372,000001C7,false,Rx,0,4,AA,A0,FF,C0,00,00,00,00,
2031296,00000157,false,Rx,0,8,D5,2B,09,C4,FF,E0,00,80,
2031496,00000436,false,Rx,0,6,86,16,64,40,FF,DC,00,00,
2031763,000001A1,false,Rx,0,8,B0,C5,5C,0F,A5,8C,80,20,
2036273,00000155,false,Rx,0,8,47,87,C5,54,96,18,02,C3,
2036620,0000019F,false,Rx,0,8,E1,E1,7D,01,00,6A,50,FE,
2039371,000001C7,false,Rx,0,4,AA,A0,FF,C0,00,00,00,00,
2041248,00000157,false,Rx,0,8,D5,7B,09,C4,FF,E0,00,80,
2041619,000001A1,false,Rx,0,8,B0,C5,70,0F,75,8C,80,20,
2046372,00000155,false,Rx,0,8,47,87,C6,54,96,18,02,C3,
2046619,0000019F,false,Rx,0,8,E1,E1,7D,06,00,6A,50,FE,
2049446,000004F7,false,Rx,0,8,00,1A,08,00,90,2C,06,F0,
2049620,000001C7,false,Rx,0,4,AA,A0,FF,C0,00,00,00,00,
2049870,00000428,false,Rx,0,8,00,00,00,7F,00,00,00,00,
2050043,0000042F,false,Rx,0,2,00,20,00,00,00,00,00,00,
2051244,00000157,false,Rx,0,8,D5,CB,09,C4,FF,E0,00,80,
2051621,000001A1,false,Rx,0,8,B0,C5,70,0F,85,8C,80,20,
2056294,00000155,false,Rx,0,8,47,87,C5,54,96,18,02,C3,
2056618,0000019F,false,Rx,0,8,E1,E1,7D,0B,00,6A,50,FE,
2059395,000001C7,false,Rx,0,4,AA,A0,FF,C0,00,00,00,00,
2061266,00000157,false,Rx,0,8,D5,1B,09,C4,FF,E0,00,80,
2061623,000001A1,false,Rx,0,8,B0,C5,5C,0F,75,8C,80,20,
2066300,00000155,false,Rx,0,8,47,87,C4,54,96,18,02,C3,
2066620,0000019F,false,Rx,0,8,E1,E1,7D,00,00,6A,50,FE,
2069399,000001C7,false,Rx,0,4,AA,A0,FF,C0,00,00,00,00,
2071275,00000157,false,Rx,0,8,D5,6B,09,C4,FF,E0,00,80,
2071622,000001A1,false,Rx,0,8,B1,05,70,0F,55,8C,80,20,
2076324,00000155,false,Rx,0,8,47,87,C5,54,96,18,02,C3,
2076623,0000019F,false,Rx,0,8,E1,E1,7D,05,00,6A,50,FE,
2076897,00000511,false,Rx,0,7,00,E5,6E,4A,62,84,1C,00,
2079398,000001C7,false,Rx,0,4,AA,A0,FF,C0,00,00,00,00,
2081298,00000157,false,Rx,0,8,D5,BB,09,C4,FF,E0,00,80,
2081622,000001A1,false,Rx,0,8,B0,C5,5C,0F,85,8C,80,20,
2086326,00000155,false,Rx,0,8,47,87,C5,54,96,18,02,C3,
2086623,0000019F,false,Rx,0,8,E1,E1,7D,0A,00,6A,50,FE,
2089459,000001C7,false,Rx,0,4,AA,A0,FF,C0,00,00,00,00,
2091266,00000157,false,Rx,0,8,D5,0B,09,C4,FF,E0,00,80,
2091628,000001A1,false,Rx,0,8,B0,C5,70,0F,55,8C,80,20,
2092275,00000445,false,Rx,0,7,80,55,55,65,04,82,00,00,
2096276,00000155,false,Rx,0,8,47,87,C5,54,96,18,02,C3,
2096623,0000019F,false,Rx,0,8,E1,E1,7D,0F,00,6A,50,FE,
2099424,000001C7,false,Rx,0,4,AA,A0,FF,C0,00,00,00,00,
2101298,00000157,false,Rx,0,8,D5,5B,09,C4,FF,E0,00,80,
2101622,000001A1,false,Rx,0,8,B1,05,5C,0F,55,8C,80,20,
2106152,00000423,false,Rx,0,8,0B,1D,00,02,B2,80,5D,D8,
2106373,00000155,false,Rx,0,8,47,87,C6,54,96,18,02,C3,
2106622,00000424,false,Rx,0,8,11,40,56,C8,33,5E,AA,34,
2106848,0000019F,false,Rx,0,8,E1,E1,7D,04,00,6A,50,FE,
2107073,00000425,false,Rx,0,8,2A,BA,44,9C,42,1A,CD,0B,
2109424,000001C7,false,Rx,0,4,AA,A0,FF,C0,00,00,00,00,
2111299,00000157,false,Rx,0,8,D5,AB,09,C4,FF,E0,00,80,
2111548,00000426,false,Rx,0,8,00,60,01,00,53,18,00,40,
2111765,000001A1,false,Rx,0,8,B0,C5,70,0F,A5,8C,80,20,
2116305,00000155,false,Rx,0,8,47,87,C6,54,96,18,02,C3,
2116652,0000019F,false,Rx,0,8,E1,E1,7D,09,00,6A,50,FE,
2118830,00000500,false,Rx,0,5,02,DD,0B,88,CD,00,00,00,
2119453,000001C7,false,Rx,0,4,AA,A0,FF,C0,00,00,00,00,
2121347,00000157,false,Rx,0,8,D5,FB,09,C4,FF,E0,00,80,
2121713,000001A1,false,Rx,0,8,B0,C5,5C,0F,85,8C,80,20,
2126190,00000435,false,Rx,0,8,FF,FF,1E,0B,2E,10,00,00,
2126370,00000155,false,Rx,0,8,47,87,C5,54,96,18,02,C3,
2126695,0000019F,false,Rx,0,8,E1,E1,7D,0E,00,6A,50,FE,
2127022,00000419,false,Rx,0,6,5E,22,32,E6,46,00,00,00,
2129671,000001C7,false,Rx,0,4,AA,A0,FF,C0,00,00,00,00,
2131374,00000157,false,Rx,0,8,D5,4B,09,C4,FF,E0,00,80,
2131477,00000436,false,Rx,0,6,86,16,64,40,FF,DC,00,00,
2131680,000001A1,false,Rx,0,8,B1,05,70,0F,75,8C,80,20,
2136531,00000155,false,Rx,0,8,47,87,C5,54,96,18,02,C3,
2136652,0000019F,false,Rx,0,8,E1,E1,7D,03,00,6A,50,FE,
2139474,000001C7,false,Rx,0,4,AA,A0,FF,C0,00,00,00,00,
2141367,00000157,false,Rx,0,8,D5,9B,09,C4,FF,E0,00,80,
2141688,000001A1,false,Rx,0,8,B0,C5,5C,0F,A5,8C,80,20,
2146822,0000019F,false,Rx,0,8,E1,E1,7D,08,00,6A,50,FE,
2146849,00000155,false,Rx,0,8,47,87,C5,54,96,18,02,C3,
2149684,000004F7,false,Rx,0,8,00,1A,08,00,90,2C,06,F0,
2149698,000001C7,false,Rx,0,4,AA,A0,FF,C0,00,00,00,00,
2150114,00000428,false,Rx,0,8,00,00,00,7F,00,00,00,00,
2150152,0000042F,false,Rx,0,2,00,20,00,00,00,00,00,00,
2151462,00000157,false,Rx,0,8,D5,EB,09,C4,FF,E0,00,80,
2151617,000001A1,false,Rx,0,8,B0,85,70,0F,A5,8C,80,20,
2156475,00000155,false,Rx,0,8,47,87,C5,54,96,18,02,C3,
2156688,0000019F,false,Rx,0,8,E1,E1,7D,0D,00,6A,50,FE,
2159457,000001C7,false,Rx,0,4,AA,A0,FF,C0,00,00,00,00,
2161275,00000157,false,Rx,0,8,D5,3B,09,C4,FF,E0,00,80,
2161704,000001A1,false,Rx,0,8,B1,05,5C,0F,75,8C,80,20,
2166375,00000155,false,Rx,0,8,47,87,C6,54,96,18,02,C3,
2166640,0000019F,false,Rx,0,8,E1,E1,7D,02,00,6A,50,FE,
2169489,000001C7,false,Rx,0,4,AA,A0,FF,C0,00,00,00,00,
2171242,00000157,false,Rx,0,8,D5,8B,09,C4,FF,E0,00,80,
2171642,000001A1,false,Rx,0,8,B1,05,70,0F,A5,8C,80,20,
2176492,00000155,false,Rx,0,8,47,87,C6,54,96,18,02,C3,
2176718,0000019F,false,Rx,0,8,E1,E1,7D,07,00,6A,50,FE,
2176974,00000511,false,Rx,0,7,00,24,37,03,CD,91,FF,00,
2179639,000001C7,false,Rx,0,4,AA,A0,FF,C0,00,00,00,00,
2181366,00000157,false,Rx,0,8,D5,DB,09,C4,FF,E0,00,80,
2181700,000001A1,false,Rx,0,8,B0,C5,5C,0F,A5,8C,80,20,
2186544,00000155,false,Rx,0,8,47,87,C5,54,96,18,02,C3,
2186636,0000019F,false,Rx,0,8,E1,E1,7D,0C,00,6A,50,FE,
2189645,000001C7,false,Rx,0,4,AA,A0,FF,C0,00,00,00,00,
2191543,00000157,false,Rx,0,8,D5,2B,09,C4,FF,E0,00,80,
2191629,000001A1,false,Rx,0,8,B0,C5,70,0F,85,8C,80,20,
2192440,00000445,false,Rx,0,7,80,55,55,65,04,82,00,00,
2196540,00000155,false,Rx,0,8,47,87,C5,54,96,18,02,C3,
2196633,0000019F,false,Rx,0,8,E1,E1,7D,01,00,6A,50,FE,
2199755,000001C7,false,Rx,0,4,AA,A0,FF,C0,00,00,00,00,
2201468,00000157,false,Rx,0,8,D5,7B,09,C4,FF,E0,00,80,
2201637,000001A1,false,Rx,0,8,B1,05,70,0F,B5,8C,80,20,
2206252,00000423,false,Rx,0,8,0B,1D,00,02,B2,80,5D,D8,
2206392,00000155,false,Rx,0,8,47,87,C4,54,96,18,02,C3,
2206819,00000424,false,Rx,0,8,11,40,56,C8,33,5E,AA,34,
2206865,0000019F,false,Rx,0,8,E1,E1,7D,06,00,6A,50,FE,
2207167,00000425,false,Rx,0,8,2A,BA,44,9C,42,18,CD,0B,
2209766,000001C7,false,Rx,0,4,AA,A0,FF,C0,00,00,00,00,
2211327,00000157,false,Rx,0,8,D5,CB,09,C4,FF,E0,00,80,
2211525,00000426,false,Rx,0,8,00,60,01,00,53,18,00,40,
2211772,000001A1,false,Rx,0,8,B0,C5,70,0F,A5,8C,80,20,
2216540,00000155,false,Rx,0,8,47,87,C5,54,96,18,02,C3,
2216634,0000019F,false,Rx,0,8,E1,E1,7D,0B,00,6A,50,FE,
2219123,00000500,false,Rx,0,5,02,C2,FE,17,9F,00,00,00,
2219667,000001C7,false,Rx,0,4,AA,A0,FF,C0,00,00,00,00,
2221524,00000157,false,Rx,0,8,D5,1B,09,C4,FF,E0,00,80,
2221633,000001A1,false,Rx,0,8,B0,C5,70,0F,85,8C,80,20,
2226527,00000435,false,Rx,0,8,FF,FF,1E,0B,2E,10,00,00,
2226537,00000155,false,Rx,0,8,47,87,C5,54,96,18,02,C3,
2226718,0000019F,false,Rx,0,8,E1,E1,7D,00,00,6A,50,FE,
2226939,00000419,false,Rx,0,6,5E,22,32,E6,46,00,00,00,
2229779,000001C7,false,Rx,0,4,AA,A0,FF,C0,00,00,00,00,
2231495,00000157,false,Rx,0,8,D5,6B,09,C4,FF,E0,00,80,
2231505,00000436,false,Rx,0,6,86,16,64,40,FF,DC,00,00,
2231679,000001A1,false,Rx,0,8,B1,05,70,0F,A5,8C,80,20,
2236452,00000155,false,Rx,0,8,47,87,C6,54,96,18,02,C3,
2236635,0000019F,false,Rx,0,8,E1,E1,7D,05,00,6A,50,FE,
2239807,000001C7,false,Rx,0,4,AA,A0,FF,C0,00,00,00,00,
2241452,00000157,false,Rx,0,8,D5,BB,09,C4,FF,E0,00,80,
2241646,000001A1,false,Rx,0,8,B0,C5,5C,0F,85,8C,80,20,
2246670,00000155,false,Rx,0,8,47,87,C6,54,96,18,02,C3,
2246680,0000019F,false,Rx,0,8,E1,E1,7D,0A,00,6A,50,FE,
2249687,000004F7,false,Rx,0,8,00,1A,08,00,90,2C,06,F0,
2249785,000001C7,false,Rx,0,4,AA,A0,FF,C0,00,00,00,00,
2250108,00000428,false,Rx,0,8,00,00,00,7F,00,00,00,00,
2250216,0000042F,false,Rx,0,2,00,20,00,00,00,00,00,00,
2251572,00000157,false,Rx,0,8,D5,0B,09,C4,FF,E0,00,80,
2251650,000001A1,false,Rx,0,8,B0,C5,70,0F,85,8C,80,20,
2256571,00000155,false,Rx,0,8,47,87,C5,54,96,18,02,C3,
2256647,0000019F,false,Rx,0,8,E1,E1,7D,0F,00,6A,50,FE,
2259810,000001C7,false,Rx,0,4,AA,A0,FF,C0,00,00,00,00,
2261548,00000157,false,Rx,0,8,D5,5B,09,C4,FF,E0,00,80,
2261636,000001A1,false,Rx,0,8,B1,05,70,0F,85,8C,80,20,
2266574,00000155,false,Rx,0,8,47,87,C4,54,96,18,02,C3,
2266650,0000019F,false,Rx,0,8,E1,E1,7D,04,00,6A,50,FE,
2269798,000001C7,false,Rx,0,4,AA,A0,FF,C0,00,00,00,00,
2271471,00000157,false,Rx,0,8,D5,AB,09,C4,FF,E0,00,80,
2271640,000001A1,false,Rx,0,8,B0,C5,70,0F,75,8C,80,20,
2276570,00000155,false,Rx,0,8,47,87,C4,54,96,18,02,C3,
2276643,0000019F,false,Rx,0,8,E1,E1,7D,09,00,6A,50,FE,
2277132,00000511,false,Rx,0,7,00,63,00,BC,38,9E,E2,00,
2279829,000001C7,false,Rx,0,4,AA,A0,FF,C0,00,00,00,00,
2281570,00000157,false,Rx,0,8,D5,FB,09,C4,FF,E0,00,80,
2281646,000001A1,false,Rx,0,8,B0,C5,70,0F,55,8C,80,20,
2286621,00000155,false,Rx,0,8,47,87,C5,54,96,18,02,C3,
2286629,0000019F,false,Rx,0,8,E1,E1,7D,0E,00,6A,50,FE,
2289817,000001C7,false,Rx,0,4,AA,A0,FF,C0,00,00,00,00,
2291528,00000157,false,Rx,0,8,D5,4B,09,C4,FF,E0,00,80,
2291637,000001A1,false,Rx,0,8,B0,C5,5C,0F,85,8C,80,20,
2292547,00000445,false,Rx,0,7,80,55,55,65,04,82,00,00,
2296521,00000155,false,Rx,0,8,47,87,C5,54,96,18,02,C3,
2296637,0000019F,false,Rx,0,8,E1,E1,7D,03,00,6A,50,FE,
2299823,000001C7,false,Rx,0,4,AA,A0,FF,C0,00,00,00,00,
2301580,00000157,false,Rx,0,8,D5,9B,09,C4,FF,E0,00,80,
2301631,000001A1,false,Rx,0,8,B0,C5,70,0F,75,8C,80,20,
2306508,00000423,false,Rx,0,8,0B,1D,00,02,B2,80,5D,D8,
2306518,00000155,false,Rx,0,8,47,87,C6,54,96,18,02,C3,
2306701,0000019F,false,Rx,0,8,E1,E1,7D,08,00,6A,50,FE,
2306966,00000424,false,Rx,0,8,11,40,56,C8,33,5E,AA,34,
2307145,00000425,false,Rx,0,8,2A,BA,44,9C,42,1A,CD,0B,
2309698,000001C7,false,Rx,0,4,AA,A0,FF,C0,00,00,00,00,
2311303,00000157,false,Rx,0,8,D5,EB,09,C4,FF,E0,00,80,
2311521,00000426,false,Rx,0,8,00,60,01,00,53,18,00,40,
2311785,000001A1,false,Rx,0,8,B1,05,70,0F,55,8C,80,20,
2316270,00000155,false,Rx,0,8,47,87,C5,54,96,18,02,C3,
2316644,0000019F,false,Rx,0,8,E1,E1,7D,0D,00,6A,50,FE,
2319143,00000500,false,Rx,0,5,02,32,3A,0F,CA,00,00,00,
2319596,000001C7,false,Rx,0,4,AA,A0,FF,C0,00,00,00,00,
2321243,00000157,false,Rx,0,8,D5,3B,09,C4,FF,E0,00,80,
2321644,000001A1,false,Rx,0,8,B0,C5,5C,0F,85,8C,80,20,
2326292,00000435,false,Rx,0,8,FF,FF,1E,0B,2E,10,00,00,
2326494,00000155,false,Rx,0,8,47,87,C5,54,96,18,02,C3,
2326784,0000019F,false,Rx,0,8,E1,E1,7D,02,00,6A,50,FE,
2327015,00000419,false,Rx,0,6,5E,22,32,E6,46,00,00,00,
2329593,000001C7,false,Rx,0,4,AA,A0,FF,C0,00,00,00,00,
2331267,00000157,false,Rx,0,8,D5,8B,09,C4,FF,E0,00,80,
2331469,00000436,false,Rx,0,6,86,16,64,40,FF,DC,00,00,
2331705,000001A1,false,Rx,0,8,B0,C5,70,0F,75,8C,80,20,
2336293,00000155,false,Rx,0,8,47,87,C5,54,96,18,02,C3,
2336645,0000019F,false,Rx,0,8,E1,E1,7D,07,00,6A,50,FE,
2339592,000001C7,false,Rx,0,4,AA,A0,FF,C0,00,00,00,00,
2341292,00000157,false,Rx,0,8,D5,DB,09,C4,FF,E0,00,80,
2341644,000001A1,false,Rx,0,8,B1,05,70,0F,55,8C,80,20,
2346342,00000155,false,Rx,0,8,47,87,C5,54,96,18,02,C3,
2346645,0000019F,false,Rx,0,8,E1,E1,7D,0C,00,6A,50,FE,
2349668,000004F7,false,Rx,0,8,00,1A,08,00,90,2C,06,F0,
2349841,000001C7,false,Rx,0,4,AA,A0,FF,C0,00,00,00,00,
2350094,00000428,false,Rx,0,8,00,00,00,7F,00,00,00,00,
2350272,0000042F,false,Rx,0,2,00,20,00,00,00,00,00,00,
2351241,00000157,false,Rx,0,8,D5,2B,09,C4,FF,E0,00,80,
2351644,000001A1,false,Rx,0,8,B0,C5,70,0F,A5,8C,80,20,
2356342,00000155,false,Rx,0,8,47,87,C6,54,96,18,02,C3,
2356644,0000019F,false,Rx,0,8,E1,E1,7D,01,00,6A,50,FE,
2359579,000001C7,false,Rx,0,4,AA,A0,FF,C0,00,00,00,00,
2361242,00000157,false,Rx,0,8,D5,7B,09,C4,FF,E0,00,80,
2361644,000001A1,false,Rx,0,8,B0,C5,70,0F,75,8C,80,20,
2366334,00000155,false,Rx,0,8,47,87,C6,54,96,18,02,C3,
2366631,0000019F,false,Rx,0,8,E1,E1,7D,06,00,6A,50,FE,
2369583,000001C7,false,Rx,0,4,AA,A0,FF,C0,00,00,00,00,
2371344,00000157,false,Rx,0,8,D5,CB,09,C4,FF,E0,00,80,
2371695,000001A1,false,Rx,0,8,B1,05,70,0F,75,8C,80,20,
2376346,00000155,false,Rx,0,8,47,87,C6,54,96,18,02,C3,
2376636,0000019F,false,Rx,0,8,E1,E1,7D,0B,00,6A,50,FE,
2376908,00000511,false,Rx,0,7,00,A2,C9,75,A3,AB,C5,00,
2379564,000001C7,false,Rx,0,4,AA,A0,FF,C0,00,00,00,00,
2381308,00000157,false,Rx,0,8,D5,1B,09,C4,FF,E0,00,80,
2381633,000001A1,false,Rx,0,8,B0,C5,5C,0F,C5,8C,80,20,
2386305,00000155,false,Rx,0,8,47,87,C5,54,96,18,02,C3,
2386683,0000019F,false,Rx,0,8,E1,E1,7D,00,00,6A,50,FE,
2389601,000001C7,false,Rx,0,4,AA,A0,FF,C0,00,00,00,00,
2391268,00000157,false,Rx,0,8,D5,6B,09,C4,FF,E0,00,80,
2391680,000001A1,false,Rx,0,8,B0,C5,70,0F,85,8C,80,20,
2392295,00000445,false,Rx,0,7,80,55,55,65,04,82,00,00,
2396310,00000155,false,Rx,0,8,47,87,C5,54,96,18,02,C3,
2396688,0000019F,false,Rx,0,8,E1,E1,7D,05,00,6A,50,FE,
2399593,000001C7,false,Rx,0,4,AA,A0,FF,C0,00,00,00,00,
2401357,00000157,false,Rx,0,8,D5,BB,09,C4,FF,E0,00,80,
2401682,000001A1,false,Rx,0,8,B1,05,5C,0F,85,8C,80,20,
2406225,00000423,false,Rx,0,8,0B,1D,00,02,5D,80,B2,D8,
2406446,00000155,false,Rx,0,8,47,87,C4,54,96,18,02,C3,
2406669,00000424,false,Rx,0,8,11,40,56,C8,33,5E,AA,34,
2406893,0000019F,false,Rx,0,8,E1,E1,7D,0A,00,6A,50,FE,
2407118,00000425,false,Rx,0,8,2A,BA,44,9C,42,1A,CD,0B,
2409620,000001C7,false,Rx,0,4,AA,A0,FF,C0,00,00,00,00,
2411254,00000157,false,Rx,0,8,D5,0B,09,C4,FF,E0,00,80,
2411507,00000426,false,Rx,0,8,00,60,01,00,53,18,00,40,
2411695,000001A1,false,Rx,0,8,B1,05,70,0F,C5,8C,80,20,
2416330,00000155,false,Rx,0,8,47,87,C5,54,96,18,02,C3,
2416681,0000019F,false,Rx,0,8,E1,E1,7D,0F,00,6A,50,FE,
2418980,00000500,false,Rx,0,5,02,80,4F,F2,D4,00,00,00,
2419594,000001C7,false,Rx,0,4,AA,A0,FF,C0,00,00,00,00,
2421249,00000157,false,Rx,0,8,D5,5B,09,C4,FF,E0,00,80,
2421681,000001A1,false,Rx,0,8,B0,C5,70,0F,A5,8C,80,20,
2426208,00000435,false,Rx,0,8,FF,FF,1E,0B,2E,10,00,00,
2426432,00000155,false,Rx,0,8,47,87,C5,54,96,18,02,C3,
2426684,0000019F,false,Rx,0,8,E1,E1,7D,04,00,6A,50,FE,
2426953,00000419,false,Rx,0,6,5E,22,32,E6,46,00,00,00,
2429588,000001C7,false,Rx,0,4,AA,A0,FF,C0,00,00,00,00,
2431326,00000157,false,Rx,0,8,D5,AB,09,C4,FF,E0,00,80,
2431522,00000436,false,Rx,0,6,86,16,64,40,FF,DC,00,00,
2431747,000001A1,false,Rx,0,8,B0,C5,70,0F,85,8C,80,20,
2436301,00000155,false,Rx,0,8,47,87,C6,54,96,18,02,C3,
2436668,0000019F,false,Rx,0,8,E1,E1,7D,09,00,6A,50,FE,
2439659,000001C7,false,Rx,0,4,AA,A0,FF,C0,00,00,00,00,
2441254,00000157,false,Rx,0,8,D5,FB,09,C4,FF,E0,00,80,
2441682,000001A1,false,Rx,0,8,B1,05,70,0F,C5,8C,80,20,
2446395,00000155,false,Rx,0,8,47,87,C5,54,96,18,02,C3,
2446682,0000019F,false,Rx,0,8,E1,E1,7D,0E,00,6A,50,FE,
2449704,000004F7,false,Rx,0,8,00,1A,08,00,90,2C,06,F0,
2449903,000001C7,false,Rx,0,4,AA,A0,FF,C0,00,00,00,00,
2450181,00000428,false,Rx,0,8,00,00,00,7F,00,00,00,00,
2450261,0000042F,false,Rx,0,2,00,20,00,00,00,00,00,00,
2451259,00000157,false,Rx,0,8,D5,4B,09,C4,FF,E0,00,80,
2451698,000001A1,false,Rx,0,8,B0,C5,70,0F,A5,8C,80,20,
2456310,00000155,false,Rx,0,8,47,87,C5,54,96,18,02,C3,
2456632,0000019F,false,Rx,0,8,E1,E1,7D,03,00,6A,50,FE,
2459672,000001C7,false,Rx,0,4,AA,A0,FF,C0,00,00,00,00,
2461281,00000157,false,Rx,0,8,D5,9B,09,C4,FF,E0,00,80,
2461683,000001A1,false,Rx,0,8,B0,C5,70,0F,85,8C,80,20,
2466331,00000155,false,Rx,0,8,47,87,C5,54,96,18,02,C3,
2466683,0000019F,false,Rx,0,8,E1,E1,7D,08,00,6A,50,FE,
2469657,000001C7,false,Rx,0,4,AA,A0,FF,C0,00,00,00,00,
2471339,00000157,false,Rx,0,8,D5,EB,09,C4,FF,E0,00,80,
2471666,000001A1,false,Rx,0,8,B1,05,70,0F,C5,8C,80,20,
2476383,00000155,false,Rx,0,8,47,87,C5,54,96,18,02,C3,
2476688,0000019F,false,Rx,0,8,E1,E1,7D,0D,00,6A,50,FE,
2476955,00000511,false,Rx,0,7,00,E1,92,2E,0E,B8,A8,00,
2479660,000001C7,false,Rx,0,4,AA,A0,FF,C0,00,00,00,00,
2481332,00000157,false,Rx,0,8,D5,3B,09,C4,FF,E0,00,80,
2481682,000001A1,false,Rx,0,8,B0,C5,70,0F,A5,8C,80,20,
2486381,00000155,false,Rx,0,8,47,87,C5,54,96,18,02,C3,
2486684,0000019F,false,Rx,0,8,E1,E1,7D,02,00,6A,50,FE,
2489647,000001C7,false,Rx,0,4,AA,A0,FF,C0,00,00,00,00,
2491285,00000157,false,Rx,0,8,D5,8B,09,C4,FF,E0,00,80,
2491663,000001A1,false,Rx,0,8,B0,C5,70,0F,75,8C,80,20,
2492285,00000445,false,Rx,0,7,80,55,AA,65,04,82,00,00,
2496516,00000155,false,Rx,0,8,47,87,C6,54,96,18,02,C3,
2496674,0000019F,false,Rx,0,8,E1,E1,7D,07,00,6A,50,FE,
2499814,000001C7,false,Rx,0,4,AA,A0,FF,C0,00,00,00,00,
2501472,00000157,false,Rx,0,8,D5,DB,09,C4,FF,E0,00,80,
2501641,000001A1,false,Rx,0,8,B0,C5,5C,0F,A5,8C,80,20,
2506476,00000423,false,Rx,0,8,0B,1D,00,02,5D,80,B2,D8,
2506482,00000155,false,Rx,0,8,47,87,C6,54,96,18,02,C3,
2506780,0000019F,false,Rx,0,8,E1,E1,7D,0C,00,6A,50,FE,
2507011,00000424,false,Rx,0,8,11,40,56,C8,33,5E,55,34,
2507237,00000425,false,Rx,0,8,2A,BA,44,9C,42,18,CD,0B,
2509636,000001C7,false,Rx,0,4,AA,A0,FF,C0,00,00,00,00,
2511217,00000157,false,Rx,0,8,D5,2B,09,C4,FF,E0,00,80,
2511433,00000426,false,Rx,0,8,00,60,01,00,53,18,00,40,
2511688,000001A1,false,Rx,0,8,B0,C5,70,0F,85,8C,80,20,
2516421,00000155,false,Rx,0,8,47,87,C5,54,96,18,02,C3,
2516686,0000019F,false,Rx,0,8,E1,E1,7D,01,00,6A,50,FE,
2519019,00000500,false,Rx,0,5,02,3B,79,56,71,00,00,00,
2519711,000001C7,false,Rx,0,4,AA,A0,FF,C0,00,00,00,00,
2521465,00000157,false,Rx,0,8,D5,7B,09,C4,FF,E0,00,80,
2521698,000001A1,false,Rx,0,8,B0,C5,5C,0F,75,8C,80,20,
2526446,00000435,false,Rx,0,8,FF,FF,1E,0B,2E,10,00,00,
2526453,00000155,false,Rx,0,8,47,87,C4,54,96,18,02,C3,
2526709,0000019F,false,Rx,0,8,E1,E1,7D,06,00,6A,50,FE,
2526916,00000419,false,Rx,0,6,5E,22,32,E6,46,00,00,00,
2529841,000001C7,false,Rx,0,4,AA,A0,FF,C0,00,00,00,00,
2531397,00000157,false,Rx,0,8,D5,CB,09,C4,FF,E0,00,80,
2531433,00000436,false,Rx,0,6,86,16,64,40,FF,DC,00,00,
2531686,000001A1,false,Rx,0,8,B0,C5,70,0F,85,8C,80,20,
2536430,00000155,false,Rx,0,8,47,87,C4,54,96,18,02,C3,
2536716,0000019F,false,Rx,0,8,E1,E1,7D,0B,00,6A,50,FE,
2539275,0000069F,false,Rx,0,4,71,30,28,2F,00,00,00,00,
2539695,000001C7,false,Rx,0,4,AA,A0,FF,C0,00,00,00,00,
2541522,00000157,false,Rx,0,8,D5,1B,09,C4,FF,E0,00,80,
2541677,000001A1,false,Rx,0,8,B0,C5,70,0F,75,8C,80,20,
2546595,00000155,false,Rx,0,8,47,87,C5,54,96,18,02,C3,
2546641,0000019F,false,Rx,0,8,E1,E1,7D,00,00,6A,50,FE,
2549898,000004F7,false,Rx,0,8,00,1A,08,00,90,2C,06,F0,
2549939,000001C7,false,Rx,0,4,AA,A0,FF,C0,00,00,00,00,
2550264,00000428,false,Rx,0,8,00,00,00,7F,00,00,00,00,
2550419,0000042F,false,Rx,0,2,00,20,00,00,00,00,00,00,
2551545,00000157,false,Rx,0,8,D5,6B,09,C4,FF,E0,00,80,
2551656,000001A1,false,Rx,0,8,B1,05,70,0F,55,8C,80,20,
2556597,00000155,false,Rx,0,8,47,87,C5,54,96,18,02,C3,
2556649,0000019F,false,Rx,0,8,E1,E1,7D,05,00,6A,50,FE,
2559718,000001C7,false,Rx,0,4,AA,A0,FF,C0,00,00,00,00,
2561314,00000157,false,Rx,0,8,D5,BB,09,C4,FF,E0,00,80,
2561678,000001A1,false,Rx,0,8,B0,C5,5C,0F,85,8C,80,20,
2566348,00000155,false,Rx,0,8,47,87,C6,54,96,18,02,C3,
2566683,0000019F,false,Rx,0,8,E1,E1,7D,0A,00,6A,50,FE,
2569706,000001C7,false,Rx,0,4,AA,A0,FF,C0,00,00,00,00,
2571363,00000157,false,Rx,0,8,D5,0B,09,C4,FF,E0,00,80,
2571682,000001A1,false,Rx,0,8,B0,C5,70,0F,55,8C,80,20,
2576381,00000155,false,Rx,0,8,47,87,C5,54,96,18,02,C3,
2576684,0000019F,false,Rx,0,8,E1,E1,7D,0F,00,6A,50,FE,
2576981,00000511,false,Rx,0,7,00,20,5B,E7,79,C5,8B,00,
2579697,000001C7,false,Rx,0,4,AA,A0,FF,C0,00,00,00,00,
2581249,00000157,false,Rx,0,8,D5,5B,09,C4,FF,E0,00,80,
2581686,000001A1,false,Rx,0,8,B1,05,70,0F,55,8C,80,20,
2586306,00000155,false,Rx,0,8,47,87,C5,54,96,18,02,C3,
2586684,0000019F,false,Rx,0,8,E1,E1,7D,04,00,6A,50,FE,
2589730,000001C7,false,Rx,0,4,AA,A0,FF,C0,00,00,00,00,
2591275,00000157,false,Rx,0,8,D5,AB,09,C4,FF,E0,00,80,
2591651,000001A1,false,Rx,0,8,B0,C5,70,0F,A5,8C,80,20,
2592305,00000445,false,Rx,0,7,80,55,AA,65,04,82,00,00,
2596306,00000155,false,Rx,0,8,47,87,C4,54,96,18,02,C3,
2596678,0000019F,false,Rx,0,8,E1,E1,7D,09,00,6A,50,FE,
2599702,000001C7,false,Rx,0,4,AA,A0,FF,C0,00,00,00,00,
2601305,00000157,false,Rx,0,8,D5,FB,09,C4,FF,E0,00,80,
2601687,000001A1,false,Rx,0,8,B0,C5,70,0F,85,8C,80,20,
2606274,00000423,false,Rx,0,8,0B,1D,00,02,5D,80,B2,D8,
2606502,00000155,false,Rx,0,8,47,87,C5,54,96,18,02,C3,
2606730,0000019F,false,Rx,0,8,E1,E1,7D,0E,00,6A,50,FE,
2606975,00000424,false,Rx,0,8,11,40,56,C8,33,5E,55,34,
2607177,00000425,false,Rx,0,8,2A,BA,44,9C,42,18,CD,0B,
2609731,000001C7,false,Rx,0,4,AA,A0,FF,C0,00,00,00,00,
2611356,00000157,false,Rx,0,8,D5,4B,09,C4,FF,E0,00,80,
2611578,00000426,false,Rx,0,8,00,60,01,00,53,18,00,40,
2611817,000001A1,false,Rx,0,8,B1,05,70,0F,75,8C,80,20,
2616299,00000155,false,Rx,0,8,47,87,C5,54,96,18,02,C3,
2616656,0000019F,false,Rx,0,8,E1,E1,7D,03,00,6A,50,FE,
2619277,00000500,false,Rx,0,5,02,82,08,22,BE,00,00,00,
2619685,000001C7,false,Rx,0,4,AA,A0,FF,C0,00,00,00,00,
2621259,00000157,false,Rx,0,8,D5,9B,09,C4,FF,E0,00,80,
2621682,000001A1,false,Rx,0,8,B1,05,70,0F,A5,8C,80,20,
2626260,00000435,false,Rx,0,8,FF,FF,1E,0B,2E,10,00,00,
2626486,00000155,false,Rx,0,8,47,87,C6,54,96,18,02,C3,
2626711,0000019F,false,Rx,0,8,E1,E1,7D,08,00,6A,50,FE,
2626956,00000419,false,Rx,0,6,5E,22,32,E6,46,00,00,00,
2629697,000001C7,false,Rx,0,4,AA,A0,FF,C0,00,00,00,00,
2631256,00000157,false,Rx,0,8,D5,EB,09,C4,FF,E0,00,80,
2631457,00000436,false,Rx,0,6,86,16,64,40,FF,DC,00,00,
2631692,000001A1,false,Rx,0,8,B0,C5,70,0F,85,8C,80,20,
2636310,00000155,false,Rx,0,8,47,87,C5,54,96,18,02,C3,
2636685,0000019F,false,Rx,0,8,E1,E1,7D,0D,00,6A,50,FE,
2639689,000001C7,false,Rx,0,4,AA,A0,FF,C0,00,00,00,00,
2641256,00000157,false,Rx,0,8,D5,3B,09,C4,FF,E0,00,80,
2641628,000001A1,false,Rx,0,8,B1,05,70,0F,75,8C,80,20,
2646440,00000155,false,Rx,0,8,47,87,C5,54,96,18,02,C3,
2646661,0000019F,false,Rx,0,8,E1,E1,7D,02,00,6A,50,FE,
2649795,000004F7,false,Rx,0,8,00,1A,08,00,90,2C,06,F0,
2649992,000001C7,false,Rx,0,4,AA,A0,FF,C0,00,00,00,00,
2650271,00000428,false,Rx,0,8,00,00,00,7F,00,00,00,00,
2650390,0000042F,false,Rx,0,2,00,20,00,00,00,00,00,00,
2651294,00000157,false,Rx,0,8,D5,8B,09,C4,FF,E0,00,80,
2651646,000001A1,false,Rx,0,8,B1,05,70,0F,B5,8C,80,20,
2656302,00000155,false,Rx,0,8,47,87,C4,54,96,18,02,C3,
2656651,0000019F,false,Rx,0,8,E1,E1,7D,07,00,6A,50,FE,
2659719,000001C7,false,Rx,0,4,AA,A0,FF,C0,00,00,00,00,
2661216,00000157,false,Rx,0,8,D5,DB,09,C4,FF,E0,00,80,
2661642,000001A1,false,Rx,0,8,B0,85,70,0F,A5,8C,80,20,
2666298,00000155,false,Rx,0,8,47,87,C5,54,96,18,02,C3,
2666638,0000019F,false,Rx,0,8,E1,E1,7D,0C,00,6A,50,FE,
2669722,000001C7,false,Rx,0,4,AA,A0,FF,C0,00,00,00,00,
2671292,00000157,false,Rx,0,8,D5,2B,09,C4,FF,E0,00,80,
2671637,000001A1,false,Rx,0,8,B0,C5,70,0F,85,8C,80,20,
2676312,00000155,false,Rx,0,8,47,87,C5,54,96,18,02,C3,
2676635,0000019F,false,Rx,0,8,E1,E1,7D,01,00,6A,50,FE,
2676932,00000511,false,Rx,0,7,00,5F,24,A0,E4,D2,6E,00,
2679780,000001C7,false,Rx,0,4,AA,A0,FF,C0,00,00,00,00,
2681276,00000157,false,Rx,0,8,D5,7B,09,C4,FF,E0,00,80,
2681635,000001A1,false,Rx,0,8,B1,05,70,0F,C5,8C,80,20,
2686308,00000155,false,Rx,0,8,47,87,C5,54,96,18,02,C2,
2686634,0000019F,false,Rx,0,8,E1,E1,7D,06,00,6A,50,FE,
2689775,000001C7,false,Rx,0,4,AA,A0,FF,C0,00,00,00,00,
2691211,00000157,false,Rx,0,8,D5,CB,09,C4,FF,E0,00,80,
2691635,000001A1,false,Rx,0,8,B0,C5,5C,0F,B5,8C,80,20,
2692259,00000445,false,Rx,0,7,80,55,AA,65,04,82,00,00,
2696263,00000155,false,Rx,0,8,47,87,C6,54,96,18,02,C2,
2696638,0000019F,false,Rx,0,8,E1,E1,7D,0B,00,6A,50,FE,
2699781,000001C7,false,Rx,0,4,AA,A0,FF,C0,00,00,00,00,
2701262,00000157,false,Rx,0,8,D5,1B,09,C4,FF,E0,00,80,
2701635,000001A1,false,Rx,0,8,B0,C5,70,0F,85,8C,80,20,
2706143,00000423,false,Rx,0,8,0B,1D,00,02,5D,80,B2,D8,
2706384,00000155,false,Rx,0,8,47,87,C5,54,96,18,02,C2,
2706614,00000424,false,Rx,0,8,11,40,56,C8,33,5E,55,34,
2706831,0000019F,false,Rx,0,8,E1,E1,7D,00,00,6A,50,FE,
2707054,00000425,false,Rx,0,8,2A,BA,44,9C,42,1A,CD,0B,
2709776,000001C7,false,Rx,0,4,AA,A0,FF,C0,00,00,00,00,
2711306,00000157,false,Rx,0,8,D5,6B,09,C4,FF,E0,00,80,
2711551,00000426,false,Rx,0,8,00,60,01,00,53,18,00,40,
2711770,000001A1,false,Rx,0,8,B1,05,70,0F,B5,8C,80,20,
2716262,00000155,false,Rx,0,8,47,87,C5,54,96,18,02,C2,
2716635,0000019F,false,Rx,0,8,E1,E1,7D,05,00,6A,50,FE,
2719037,00000500,false,Rx,0,5,02,17,8C,A0,DF,00,00,00,
2719776,000001C7,false,Rx,0,4,AA,A0,FF,C0,00,00,00,00,
2721207,00000157,false,Rx,0,8,D5,BB,09,C4,FF,E0,00,80,
2721635,000001A1,false,Rx,0,8,B0,C5,70,0F,A5,8C,80,20,
2726209,00000435,false,Rx,0,8,FF,FF,1E,0B,2E,10,00,00,
2726429,00000155,false,Rx,0,8,47,87,C4,54,96,18,02,C2,
2726653,0000019F,false,Rx,0,8,E1,E1,7D,0A,00,6A,50,FE,
2726907,00000419,false,Rx,0,6,5E,22,32,E6,46,00,00,00,
2729780,000001C7,false,Rx,0,4,AA,A0,FF,C0,00,00,00,00,
2731260,00000157,false,Rx,0,8,D5,0B,09,C4,FF,E0,00,80,
2731459,00000436,false,Rx,0,6,86,16,64,40,FF,DC,00,00,
2731687,000001A1,false,Rx,0,8,B0,C5,70,0F,55,8C,80,20,
2736260,00000155,false,Rx,0,8,47,87,C5,54,96,18,02,C2,
2736657,0000019F,false,Rx,0,8,E1,E1,7D,0F,00,6A,50,FE,
2739779,000001C7,false,Rx,0,4,AA,A0,FF,C0,00,00,00,00,
2741309,00000157,false,Rx,0,8,D5,5B,09,C4,FF,E0,00,80,
2741634,000001A1,false,Rx,0,8,B0,C5,70,0F,85,8C,80,20,
2746336,00000155,false,Rx,0,8,47,87,C5,54,96,18,02,C2,
2746635,0000019F,false,Rx,0,8,E1,E1,7D,04,00,6A,50,FE,
2749836,000004F7,false,Rx,0,8,00,1A,08,00,90,2C,06,F0,
2749984,000001C7,false,Rx,0,4,AA,A0,FF,C0,00,00,00,00,
2750236,00000428,false,Rx,0,8,00,00,00,7F,00,00,00,00,
2750415,0000042F,false,Rx,0,2,00,20,00,00,00,00,00,00,
2751306,00000157,false,Rx,0,8,D5,AB,09,C4,FF,E0,00,80,
2751633,000001A1,false,Rx,0,8,B0,C5,70,0F,85,8C,80,20,
2756338,00000155,false,Rx,0,8,47,87,C6,54,96,18,02,C2,
2756637,0000019F,false,Rx,0,8,E1,E1,7D,09,00,6A,50,FE,
2759780,000001C7,false,Rx,0,4,AA,A0,FF,C0,00,00,00,00,
2761286,00000157,false,Rx,0,8,D5,FB,09,C4,FF,E0,00,80,
2761638,000001A1,false,Rx,0,8,B0,C5,70,0F,75,8C,80,20,
2766338,00000155,false,Rx,0,8,47,87,C6,54,96,18,02,C1,
2766635,0000019F,false,Rx,0,8,E1,E1,7D,0E,00,6A,50,FE,
2769781,000001C7,false,Rx,0,4,AA,A0,FF,C0,00,00,00,00,
2771212,00000157,false,Rx,0,8,D5,4B,09,C4,FF,E0,00,80,
2771637,000001A1,false,Rx,0,8,B0,C5,70,0F,85,8C,80,20,
2776313,00000155,false,Rx,0,8,47,87,C5,54,96,18,02,C1,
2776636,0000019F,false,Rx,0,8,E1,E1,7D,03,00,6A,50,FE,
2776942,00000511,false,Rx,0,7,00,9E,ED,59,4F,DF,51,00,
2779780,000001C7,false,Rx,0,4,AA,A0,FF,C0,00,00,00,00,
2781261,00000157,false,Rx,0,8,D5,9B,09,C4,FF,E0,00,80,
2781636,000001A1,false,Rx,0,8,B0,C5,70,0F,85,8C,80,20,
2786262,00000155,false,Rx,0,8,47,87,C4,54,96,18,02,C2,
2786636,0000019F,false,Rx,0,8,E1,E1,7D,08,00,6A,50,FE,
2789780,000001C7,false,Rx,0,4,AA,A0,FF,C0,00,00,00,00,
2791185,00000157,false,Rx,0,8,D5,EB,09,C4,FF,E0,00,80,
2791636,000001A1,false,Rx,0,8,B1,05,70,0F,75,8C,80,20,
2792233,00000445,false,Rx,0,7,80,55,AA,65,04,82,00,00,
2796269,00000155,false,Rx,0,8,47,87,C5,54,96,18,02,C1,
2796638,0000019F,false,Rx,0,8,E1,E1,7D,0D,00,6A,50,FE,
2799780,000001C7,false,Rx,0,4,AA,A0,FF,C0,00,00,00,00,
2801236,00000157,false,Rx,0,8,D5,3B,09,C4,FF,E0,00,80,
2801637,000001A1,false,Rx,0,8,B0,C5,70,0F,85,8C,80,20,
2806218,00000423,false,Rx,0,8,0B,1D,00,02,5D,80,B2,D8,
2806437,00000155,false,Rx,0,8,47,87,C5,54,96,18,02,C2,
2806664,0000019F,false,Rx,0,8,E1,E1,7D,02,00,6A,50,FE,
2806909,00000424,false,Rx,0,8,11,40,56,C8,33,5E,55,34,
2807111,00000425,false,Rx,0,8,2A,BA,44,9C,42,18,CD,0B,
2809790,000001C7,false,Rx,0,4,AA,A0,FF,C0,00,00,00,00,
2811275,00000157,false,Rx,0,8,D5,8B,09,C4,FF,E0,00,80,
2811489,00000426,false,Rx,0,8,00,60,01,00,53,18,00,40,
2811715,000001A1,false,Rx,0,8,B0,C5,70,0F,75,8C,80,20,
2816269,00000155,false,Rx,0,8,47,87,C5,54,96,18,02,C2,
2816639,0000019F,false,Rx,0,8,E1,E1,7D,07,00,6A,50,FE,
2819067,00000500,false,Rx,0,5,02,24,17,66,FC,00,00,00,
2819812,000001C7,false,Rx,0,4,AA,A0,FF,C0,00,00,00,00,
2821187,00000157,false,Rx,0,8,D5,DB,09,C4,FF,E0,00,80,
2821639,000001A1,false,Rx,0,8,B1,05,5C,0F,55,8C,80,20,
2826244,00000435,false,Rx,0,8,FF,FF,1E,0B,2E,10,00,00,
2826464,00000155,false,Rx,0,8,47,87,C6,54,96,18,02,C2,
2826691,0000019F,false,Rx,0,8,E1,E1,7D,0C,00,6A,50,FE,
2826909,00000419,false,Rx,0,6,5E,22,32,E6,46,00,00,00,
2829819,000001C7,false,Rx,0,4,AA,A0,FF,C0,00,00,00,00,
2831215,00000157,false,Rx,0,8,D5,2B,09,C4,FF,E0,00,80,
2831410,00000436,false,Rx,0,6,86,16,64,40,FF,DC,00,00,
2831639,000001A1,false,Rx,0,8,B0,C5,70,0F,85,8C,80,20,
2836264,00000155,false,Rx,0,8,47,87,C5,54,96,18,02,C1,
2836638,0000019F,false,Rx,0,8,E1,E1,7D,01,00,6A,50,FE,
2839816,000001C7,false,Rx,0,4,AA,A0,FF,C0,00,00,00,00,
2841317,00000157,false,Rx,0,8,D5,7B,09,C4,FF,E0,00,80,
2841642,000001A1,false,Rx,0,8,B0,C5,70,0F,85,8C,80,20,
2846368,00000155,false,Rx,0,8,47,87,C4,54,96,18,02,C1,
2846630,0000019F,false,Rx,0,8,E1,E1,7D,06,00,6A,50,FE,
2849913,000004F7,false,Rx,0,8,00,1A,08,00,90,2C,06,F0,
2850063,000001C7,false,Rx,0,4,AA,A0,FF,C0,00,00,00,00,
2850316,00000428,false,Rx,0,8,00,00,00,7F,00,00,00,00,
2850495,0000042F,false,Rx,0,2,00,20,00,00,00,00,00,00,
2851261,00000157,false,Rx,0,8,D5,CB,09,C4,FF,E0,00,80,
2851637,000001A1,false,Rx,0,8,B1,05,70,0F,85,8C,80,20,
2856288,00000155,false,Rx,0,8,47,87,C4,54,96,18,02,C2,
2856636,0000019F,false,Rx,0,8,E1,E1,7D,0B,00,6A,50,FE,
2859814,000001C7,false,Rx,0,4,AA,A0,FF,C0,00,00,00,00,
2861283,00000157,false,Rx,0,8,D5,1B,09,C4,FF,E0,00,80,
2861632,000001A1,false,Rx,0,8,B1,05,5C,0F,A5,8C,80,20,
2866290,00000155,false,Rx,0,8,47,87,C4,54,96,18,02,C2,
2866637,0000019F,false,Rx,0,8,E1,E1,7D,00,00,6A,50,FE,
2869839,000001C7,false,Rx,0,4,AA,A0,FF,C0,00,00,00,00,
2871207,00000157,false,Rx,0,8,D5,6B,09,C4,FF,E0,00,80,
2871630,000001A1,false,Rx,0,8,B0,C5,70,0F,85,8C,80,20,
2876339,00000155,false,Rx,0,8,47,87,C5,54,96,18,02,C2,
2876637,0000019F,false,Rx,0,8,E1,E1,7D,05,00,6A,50,FE,
2876931,00000511,false,Rx,0,7,00,DD,B6,12,BA,EC,34,00,
2879839,000001C7,false,Rx,0,4,AA,A0,FF,C0,00,00,00,00,
2881261,00000157,false,Rx,0,8,D5,BB,09,C4,FF,E0,00,80,
2881637,000001A1,false,Rx,0,8,B1,05,70,0F,85,8C,80,20,
2886313,00000155,false,Rx,0,8,47,87,C6,54,96,18,02,C2,
2886637,0000019F,false,Rx,0,8,E1,E1,7D,0A,00,6A,50,FE,
2889839,000001C7,false,Rx,0,4,AA,A0,FF,C0,00,00,00,00,
2891186,00000157,false,Rx,0,8,D5,0B,09,C4,FF,E0,00,80,
2891640,000001A1,false,Rx,0,8,B1,05,70,0F,B5,8C,80,20,
2892234,00000445,false,Rx,0,7,80,55,AA,65,04,82,00,00,
2896236,00000155,false,Rx,0,8,47,87,C6,54,96,18,02,C1,
2896630,0000019F,false,Rx,0,8,E1,E1,7D,0F,00,6A,50,FE,
2899856,000001C7,false,Rx,0,4,AA,A0,FF,C0,00,00,00,00,
2901255,00000157,false,Rx,0,8,D5,5B,09,C4,FF,E0,00,80,
2901634,000001A1,false,Rx,0,8,B0,C5,70,0F,85,8C,80,20,
2906136,00000423,false,Rx,0,8,0B,1D,00,02,B2,80,5D,D8,
2906360,00000155,false,Rx,0,8,47,87,C5,54,96,18,02,C2,
2906628,00000424,false,Rx,0,8,11,40,56,C8,33,5E,55,34,
2906868,0000019F,false,Rx,0,8,E1,E1,7D,04,00,6A,50,FE,
2907098,00000425,false,Rx,0,8,2A,BA,44,9C,42,18,CD,0B,
2909893,000001C7,false,Rx,0,4,AA,A0,FF,C0,00,00,00,00,
2911268,00000157,false,Rx,0,8,D5,AB,09,C4,FF,E0,00,80,
2911495,00000426,false,Rx,0,8,00,60,01,00,53,18,00,40,
2911748,000001A1,false,Rx,0,8,B0,C5,70,0F,A5,8C,80,20,
2916296,00000155,false,Rx,0,8,47,87,C5,54,96,18,02,C2,
2916671,0000019F,false,Rx,0,8,E1,E1,7D,09,00,6A,50,FE,
2919420,00000500,false,Rx,0,5,02,3C,3B,FA,D1,00,00,00,
2919886,000001C7,false,Rx,0,4,AA,A0,FF,C0,00,00,00,00,
2921308,00000157,false,Rx,0,8,D5,FB,09,C4,FF,E0,00,80,
2921657,000001A1,false,Rx,0,8,B0,C5,70,0F,85,8C,80,20,
2926378,00000435,false,Rx,0,8,FF,FF,1E,0B,2E,10,00,00,
2926426,00000155,false,Rx,0,8,47,87,C4,54,96,18,02,C2,
2926775,0000019F,false,Rx,0,8,E1,E1,7D,0E,00,6A,50,FE,
2926929,00000419,false,Rx,0,6,5E,22,32,E6,46,00,00,00,
2930022,000001C7,false,Rx,0,4,AA,A0,FF,C0,00,00,00,00,
2931402,00000157,false,Rx,0,8,D5,4B,09,C4,FF,E0,00,80,
2931497,00000436,false,Rx,0,6,86,16,64,40,FF,DC,00,00,
2931682,000001A1,false,Rx,0,8,B1,05,70,0F,B5,8C,80,20,
2936521,00000155,false,Rx,0,8,47,87,C5,54,96,18,02,C2,
2936668,0000019F,false,Rx,0,8,E1,E1,7D,03,00,6A,50,FE,
2939961,000001C7,false,Rx,0,4,AA,A0,FF,C0,00,00,00,00,
2941542,00000157,false,Rx,0,8,D5,9B,09,C4,FF,E0,00,80,
2941678,000001A1,false,Rx,0,8,B0,C5,70,0F,85,8C,80,20,
2946600,00000155,false,Rx,0,8,47,87,C5,54,96,18,02,C2,
2946630,0000019F,false,Rx,0,8,E1,E1,7D,08,00,6A,50,FE,
2950193,000004F7,false,Rx,0,8,00,1A,08,00,90,2C,06,F0,
2950208,000001C7,false,Rx,0,4,AA,A0,FF,C0,00,00,00,00,
2950448,00000428,false,Rx,0,8,00,00,00,7F,00,00,00,00,
2950589,0000042F,false,Rx,0,2,00,20,00,00,00,00,00,00,
2951521,00000157,false,Rx,0,8,D5,EB,09,C4,FF,E0,00,80,
2951646,000001A1,false,Rx,0,8,B0,C5,70,0F,A5,8C,80,20,
2956573,00000155,false,Rx,0,8,47,87,C6,54,96,18,02,C1,
2956719,0000019F,false,Rx,0,8,E1,E1,7D,0D,00,6A,50,FE,
2959944,000001C7,false,Rx,0,4,AA,A0,FF,C0,00,00,00,00,
2961554,00000157,false,Rx,0,8,D5,3B,09,C4,FF,E0,00,80,
2961710,000001A1,false,Rx,0,8,B1,05,70,0F,C5,8C,80,20,
2966496,00000155,false,Rx,0,8,47,87,C5,54,96,18,02,C2,
2966688,0000019F,false,Rx,0,8,E1,E1,7D,02,00,6A,50,FE,
2970155,000001C7,false,Rx,0,4,AA,A0,FF,C0,00,00,00,00,
2971379,00000157,false,Rx,0,8,D5,8B,09,C4,FF,E0,00,80,
2971706,000001A1,false,Rx,0,8,B0,C5,70,0F,85,8C,80,20,
2976484,00000155,false,Rx,0,8,47,87,C4,54,96,18,02,C2,
2976699,0000019F,false,Rx,0,8,E1,E1,7D,07,00,6A,50,FE,
2977102,00000511,false,Rx,0,7,00,1C,7F,CB,25,F9,17,00,
2979925,000001C7,false,Rx,0,4,AA,A0,FF,C0,00,00,00,00,
2981452,00000157,false,Rx,0,8,D5,DB,09,C4,FF,E0,00,80,
2981675,000001A1,false,Rx,0,8,B0,C5,5C,0F,A5,8C,80,20,
2986291,00000155,false,Rx,0,8,47,87,C5,54,96,18,02,C2,
2986727,0000019F,false,Rx,0,8,E1,E1,7D,0C,00,6A,50,FE,
2990093,000001C7,false,Rx,0,4,AA,A0,FF,C0,00,00,00,00,
2991552,00000157,false,Rx,0,8,D5,2B,09,C4,FF,E0,00,80,
2991635,000001A1,false,Rx,0,8,B1,05,70,0F,C5,8C,80,20,
2992477,00000445,false,Rx,0,7,80,55,55,65,04,82,00,00,
2996502,00000155,false,Rx,0,8,47,87,C5,54,96,18,02,C2,
2996683,0000019F,false,Rx,0,8,E1,E1,7D,01,00,6A,50,FE,
3000118,000001C7,false,Rx,0,4,AA,A0,FF,C0,00,00,00,00,
3001531,00000157,false,Rx,0,8,D5,7B,09,C4,FF,E0,00,80,
3001691,000001A1,false,Rx,0,8,B1,05,70,0F,85,8C,80,20,
3006504,00000423,false,Rx,0,8,0B,1D,00,02,B2,80,5D,D8,
3006513,00000155,false,Rx,0,8,47,87,C5,54,96,18,02,C1,
3006795,0000019F,false,Rx,0,8,E1,E1,7D,06,00,6A,50,FE,
3006983,00000424,false,Rx,0,8,11,40,56,C8,33,5E,AA,34,
3007211,00000425,false,Rx,0,8,2A,BA,44,9C,42,18,CD,0B,
3010180,000001C7,false,Rx,0,4,AA,A0,FF,C0,00,00,00,00,
3011427,00000157,false,Rx,0,8,D5,CB,09,C4,FF,E0,00,80,
3011535,00000426,false,Rx,0,8,00,60,01,00,53,18,00,40,
3011855,000001A1,false,Rx,0,8,B0,C5,70,0F,85,8C,80,20,
3016430,00000155,false,Rx,0,8,47,87,C6,54,96,18,02,C1,
3016684,0000019F,false,Rx,0,8,E1,E1,7D,0B,00,6A,50,FE,
3019386,00000500,false,Rx,0,5,02,69,61,C2,50,00,00,00,
3020077,000001C7,false,Rx,0,4,AA,A0,FF,C0,00,00,00,00,
3021535,00000157,false,Rx,0,8,D5,1B,09,C4,FF,E0,00,80,
3021695,000001A1,false,Rx,0,8,B1,05,5C,0F,B5,8C,80,20,
3026504,00000435,false,Rx,0,8,FF,FF,1E,0B,2E,10,00,00,
3026514,00000155,false,Rx,0,8,47,87,C6,54,96,18,02,C2,
3026734,0000019F,false,Rx,0,8,E1,E1,7D,00,00,6A,50,FE,
3026979,00000419,false,Rx,0,6,5E,22,32,E6,46,00,00,00,
3030030,000001C7,false,Rx,0,4,AA,A0,FF,C0,00,00,00,00,
3031504,00000157,false,Rx,0,8,D5,6B,09,C4,FF,E0,00,80,
3031515,00000436,false,Rx,0,6,86,16,64,40,FF,DC,00,00,
3031688,000001A1,false,Rx,0,8,B1,05,70,0F,A5,8C,80,20,
3036528,00000155,false,Rx,0,8,47,87,C5,54,96,18,02,C2,
3036689,0000019F,false,Rx,0,8,E1,E1,7D,05,00,6A,50,FE,
3040027,000001C7,false,Rx,0,4,AA,A0,FF,C0,00,00,00,00,
3041477,00000157,false,Rx,0,8,D5,BB,09,C4,FF,E0,00,80,
3041684,000001A1,false,Rx,0,8,B0,85,5C,0F,55,8C,80,20,
3046539,00000155,false,Rx,0,8,47,87,C4,54,96,18,02,C2,
3046718,0000019F,false,Rx,0,8,E1,E1,7D,0A,00,6A,50,FE,
3050279,000004F7,false,Rx,0,8,00,1A,08,00,90,2C,06,F0,
3050290,000001C7,false,Rx,0,4,AA,A0,FF,C0,00,00,00,00,
3050486,00000428,false,Rx,0,8,00,00,00,7F,00,00,00,00,
3050689,0000042F,false,Rx,0,2,00,20,00,00,00,00,00,00,
3051402,00000157,false,Rx,0,8,D5,0B,09,C4,FF,E0,00,80,
3051634,000001A1,false,Rx,0,8,B0,C5,70,0F,B5,8C,80,20,
3056488,00000155,false,Rx,0,8,47,87,C4,54,96,18,02,C2,
3056657,0000019F,false,Rx,0,8,E1,E1,7D,0F,00,6A,50,FE,
3059978,000001C7,false,Rx,0,4,AA,A0,FF,C0,00,00,00,00,
3061287,00000157,false,Rx,0,8,D5,5B,09,C4,FF,E0,00,80,
3061611,000001A1,false,Rx,0,8,B1,05,70,0F,85,8C,80,20,
3066334,00000155,false,Rx,0,8,47,87,C5,54,96,18,02,C1,
3066611,0000019F,false,Rx,0,8,E1,E1,7D,04,00,6A,50,FE,
3070011,000001C7,false,Rx,0,4,AA,A0,FF,C0,00,00,00,00,
3071261,00000157,false,Rx,0,8,D5,AB,09,C4,FF,E0,00,80,
3071613,000001A1,false,Rx,0,8,B0,C5,70,0F,55,8C,80,20,
3076361,00000155,false,Rx,0,8,47,87,C6,54,96,18,02,C2,
3076613,0000019F,false,Rx,0,8,E1,E1,7D,09,00,6A,50,FE,
3076860,00000511,false,Rx,0,7,00,5B,48,84,90,06,FA,00,
3080010,000001C7,false,Rx,0,4,AA,A0,FF,C0,00,00,00,00,
3081310,00000157,false,Rx,0,8,D5,FB,09,C4,FF,E0,00,80,
3081577,000001A1,false,Rx,0,8,B0,C5,70,0F,A5,8C,80,20,
3086361,00000155,false,Rx,0,8,47,87,C6,54,96,18,02,C2,
3086614,0000019F,false,Rx,0,8,E1,E1,7D,0E,00,6A,50,FE,
3089975,000001C7,false,Rx,0,4,AA,A0,FF,C0,00,00,00,00,
3091259,00000157,false,Rx,0,8,D5,4B,09,C4,FF,E0,00,80,
3091613,000001A1,false,Rx,0,8,B1,05,70,0F,85,8C,80,20,
3092238,00000445,false,Rx,0,7,80,55,55,65,04,82,00,00,
3096286,00000155,false,Rx,0,8,47,87,C5,54,96,18,02,C2,
3096614,0000019F,false,Rx,0,8,E1,E1,7D,03,00,6A,50,FE,
3100036,000001C7,false,Rx,0,4,AA,A0,FF,C0,00,00,00,00,
3101261,00000157,false,Rx,0,8,D5,9B,09,C4,FF,E0,00,80,
3101613,000001A1,false,Rx,0,8,B0,C5,70,0F,45,8C,80,20,
3106185,00000423,false,Rx,0,8,0B,1D,00,02,B2,80,5D,D8,
3106438,00000155,false,Rx,0,8,47,87,C4,54,96,18,02,C1,
3106641,0000019F,false,Rx,0,8,E1,E1,7D,08,00,6A,50,FE,
3106845,00000424,false,Rx,0,8,11,40,56,C8,33,5E,AA,34,
3107112,00000425,false,Rx,0,8,2A,BA,44,9C,42,18,CD,0B,
3110038,000001C7,false,Rx,0,4,AA,A0,FF,C0,00,00,00,00,
3111226,00000157,false,Rx,0,8,D5,EB,09,C4,FF,E0,00,80,
3111488,00000426,false,Rx,0,8,00,60,01,00,53,18,00,40,
3111746,000001A1,false,Rx,0,8,B0,C5,70,0F,85,8C,80,20,
3116268,00000155,false,Rx,0,8,47,87,C5,54,96,18,02,C2,
3116561,0000019F,false,Rx,0,8,E1,E1,7D,0D,00,6A,50,FE,
3119163,00000500,false,Rx,0,5,02,67,59,45,7C,00,00,00,
3119996,000001C7,false,Rx,0,4,AA,A0,FF,C0,00,00,00,00,
3121267,00000157,false,Rx,0,8,D5,3B,09,C4,FF,E0,00,80,
3121572,000001A1,false,Rx,0,8,B0,C5,5C,0F,85,8C,80,20,
3126181,00000435,false,Rx,0,8,FF,FF,1E,0B,2E,10,00,00,
3126401,00000155,false,Rx,0,8,47,87,C5,54,96,18,02,C1,
3126628,0000019F,false,Rx,0,8,E1,E1,7D,02,00,6A,50,FE,
3126847,00000419,false,Rx,0,6,5E,22,32,E6,46,00,00,00,
3130022,000001C7,false,Rx,0,4,AA,A0,FF,C0,00,00,00,00,
3131266,00000157,false,Rx,0,8,D5,8B,09,C4,FF,E0,00,80,
3131464,00000436,false,Rx,0,6,86,16,64,40,FF,DC,00,00,
3131690,000001A1,false,Rx,0,8,B0,C5,70,0F,55,8C,80,20,
3136274,00000155,false,Rx,0,8,47,87,C4,54,96,18,02,C2,
3136575,0000019F,false,Rx,0,8,E1,E1,7D,07,00,6A,50,FE,
3140025,000001C7,false,Rx,0,4,AA,A0,FF,C0,00,00,00,00,
3141299,00000157,false,Rx,0,8,D5,DB,09,C4,FF,E0,00,80,
3141575,000001A1,false,Rx,0,8,B1,05,70,0F,A5,8C,80,20,
3146450,00000155,false,Rx,0,8,47,87,C6,54,96,18,02,C2,
3146678,0000019F,false,Rx,0,8,E1,E1,7D,0C,00,6A,50,FE,
3150099,000004F7,false,Rx,0,8,00,1A,08,00,90,2C,06,F0,
3150276,000001C7,false,Rx,0,4,AA,A0,FF,C0,00,00,00,00,
3150503,00000428,false,Rx,0,8,00,00,00,7F,00,00,00,00,
3150681,0000042F,false,Rx,0,2,00,20,00,00,00,00,00,00,
3151246,00000157,false,Rx,0,8,D5,2B,09,C4,FF,E0,00,80,
3151575,000001A1,false,Rx,0,8,B0,C5,70,0F,85,8C,80,20,
3156324,00000155,false,Rx,0,8,47,87,C6,54,96,18,02,C2,
3156574,0000019F,false,Rx,0,8,E1,E1,7D,01,00,6A,50,FE,
3160025,000001C7,false,Rx,0,4,AA,A0,FF,C0,00,00,00,00,
3161224,00000157,false,Rx,0,8,D5,7B,09,C4,FF,E0,00,80,
3161577,000001A1,false,Rx,0,8,B0,C5,70,0F,75,8C,80,20,
3166325,00000155,false,Rx,0,8,47,87,C5,54,96,18,02,C2,
3166577,0000019F,false,Rx,0,8,E1,E1,7D,06,00,6A,50,FE,
3170025,000001C7,false,Rx,0,4,AA,A0,FF,C0,00,00,00,00,
3171226,00000157,false,Rx,0,8,D5,CB,09,C4,FF,E0,00,80,
3171575,000001A1,false,Rx,0,8,B1,05,70,0F,A5,8C,80,20,
3176327,00000155,false,Rx,0,8,47,87,C4,54,96,18,02,C2,
3176569,0000019F,false,Rx,0,8,E1,E1,7D,0B,00,6A,50,FE,
3176843,00000511,false,Rx,0,7,00,9A,11,3D,FB,13,DD,00,
3180073,000001C7,false,Rx,0,4,AA,A0,FF,C0,00,00,00,00,
3181241,00000157,false,Rx,0,8,D5,1B,09,C4,FF,E0,00,80,
3181560,000001A1,false,Rx,0,8,B0,C5,70,0F,A5,8C,80,20,
3186288,00000155,false,Rx,0,8,47,87,C4,54,96,18,02,C2,
3186601,0000019F,false,Rx,0,8,E1,E1,7D,00,00,6A,50,FE,
3190300,000001C7,false,Rx,0,4,AA,A0,FF,C0,00,00,00,00,
3191369,00000157,false,Rx,0,8,D5,6B,09,C4,FF,E0,00,80,
3191591,000001A1,false,Rx,0,8,B0,C5,5C,0F,85,8C,80,20,
3192384,00000445,false,Rx,0,7,80,55,55,65,04,82,00,00,
3196413,00000155,false,Rx,0,8,47,87,C5,54,96,18,02,C1,
3196590,0000019F,false,Rx,0,8,E1,E1,7D,05,00,6A,50,FE,
3200054,000001C7,false,Rx,0,4,AA,A0,FF,C0,00,00,00,00,
3201575,00000157,false,Rx,0,8,D5,BB,09,C4,FF,E0,00,80,
3201585,000001A1,false,Rx,0,8,B1,05,70,0F,A5,8C,80,20,
3206426,00000423,false,Rx,0,8,0B,1D,00,02,B2,80,5D,D8,
3206435,00000155,false,Rx,0,8,47,87,C5,54,96,18,02,C1,
3206692,0000019F,false,Rx,0,8,E1,E1,7D,0A,00,6A,50,FE,
3206912,00000424,false,Rx,0,8,11,40,56,C8,33,5E,AA,34,
3207178,00000425,false,Rx,0,8,2A,BA,44,9C,42,18,CD,0B,
3207368,000004AE,false,Rx,0,8,D2,B2,3C,A0,92,5A,88,84,
3207534,00000659,false,Rx,0,4,26,00,03,36,00,00,00,00,
3207670,000004AF,false,Rx,0,5,65,3B,4B,3A,40,00,00,00,
3210195,000001C7,false,Rx,0,4,AA,A0,FF,C0,00,00,00,00,
3211392,00000157,false,Rx,0,8,D5,0B,09,C4,FF,E0,00,80,
3211539,00000426,false,Rx,0,8,00,60,01,00,53,18,00,40,
3211780,000001A1,false,Rx,0,8,B1,05,70,0F,A5,8C,80,20,
3216288,00000155,false,Rx,0,8,47,87,C6,54,96,18,02,C2,
3216642,0000019F,false,Rx,0,8,E1,E1,7D,0F,00,6A,50,FE,
3219756,00000500,false,Rx,0,5,02,9B,8D,A1,5A,00,00,00,
3220134,000001C7,false,Rx,0,4,AA,A0,FF,C0,00,00,00,00,
3221425,00000157,false,Rx,0,8,D5,5B,09,C4,FF,E0,00,80,
3221606,000001A1,false,Rx,0,8,B0,C5,70,0F,A5,8C,80,20,
3226211,00000435,false,Rx,0,8,FF,FF,1E,0B,2E,10,00,00,
3226460,00000155,false,Rx,0,8,47,87,C5,54,96,18,02,C2,
3226744,0000019F,false,Rx,0,8,E1,E1,7D,04,00,6A,50,FE,
3227004,00000419,false,Rx,0,6,5E,22,32,E6,46,00,00,00,
3230325,000001C7,false,Rx,0,4,AA,A0,FF,C0,00,00,00,00,
3231503,00000157,false,Rx,0,8,D5,AB,09,C4,FF,E0,00,80,
3231512,00000436,false,Rx,0,6,86,16,64,40,FF,DC,00,00,
3231699,000001A1,false,Rx,0,8,B1,05,70,0F,C5,8C,80,20,
3236527,00000155,false,Rx,0,8,47,87,C4,54,96,18,02,C2,
3236572,0000019F,false,Rx,0,8,E1,E1,7D,09,00,6A,50,FE,
3240191,000001C7,false,Rx,0,4,AA,A0,FF,C0,00,00,00,00,
3241454,00000157,false,Rx,0,8,D5,FB,09,C4,FF,E0,00,80,
3241622,000001A1,false,Rx,0,8,B1,05,70,0F,85,8C,80,20,
3246611,00000155,false,Rx,0,8,47,87,C5,54,96,18,02,C2,
3246621,0000019F,false,Rx,0,8,E1,E1,7D,0E,00,6A,50,FE,
3250360,000004F7,false,Rx,0,8,00,1A,08,00,90,2C,06,F0,
3250368,000001C7,false,Rx,0,4,AA,A0,FF,C0,00,00,00,00,
3250653,00000428,false,Rx,0,8,00,00,00,7F,00,00,00,00,
3250695,0000042F,false,Rx,0,2,00,20,00,00,00,00,00,00,
3251354,00000157,false,Rx,0,8,D5,4B,09,C4,FF,E0,00,80,
3251608,000001A1,false,Rx,0,8,B0,C5,70,0F,85,8C,80,20,
3256442,00000155,false,Rx,0,8,47,87,C5,54,96,18,02,C2,
3256581,0000019F,false,Rx,0,8,E1,E1,7D,03,00,6A,50,FE,
3260216,000001C7,false,Rx,0,4,AA,A0,FF,C0,00,00,00,00,
3261236,00000157,false,Rx,0,8,D5,9B,09,C4,FF,E0,00,80,
3261647,000001A1,false,Rx,0,8,B0,C5,70,0F,B5,8C,80,20,
3266536,00000155,false,Rx,0,8,47,87,C5,54,96,18,02,C1,
3266565,0000019F,false,Rx,0,8,E1,E1,7D,08,00,6A,50,FE,
3270092,000001C7,false,Rx,0,4,AA,A0,FF,C0,00,00,00,00,
3271355,00000157,false,Rx,0,8,D5,EB,09,C4,FF,E0,00,80,
3271558,000001A1,false,Rx,0,8,B0,C5,70,0F,85,8C,80,20,
3276471,00000155,false,Rx,0,8,47,87,C6,54,96,18,02,C2,
3276564,0000019F,false,Rx,0,8,E1,E1,7D,0D,00,6A,50,FE,
3277006,00000511,false,Rx,0,7,00,D9,DA,F6,66,20,C0,00,
3280076,000001C7,false,Rx,0,4,AA,A0,FF,C0,00,00,00,00,
3281478,00000157,false,Rx,0,8,D5,3B,09,C4,FF,E0,00,80,
3281568,000001A1,false,Rx,0,8,B0,C5,5C,0F,85,8C,80,20,
3286560,00000155,false,Rx,0,8,47,87,C6,54,96,18,02,C2,
3286569,0000019F,false,Rx,0,8,E1,E1,7D,02,00,6A,50,FE,
3290197,000001C7,false,Rx,0,4,AA,A0,FF,C0,00,00,00,00,
3291361,00000157,false,Rx,0,8,D5,8B,09,C4,FF,E0,00,80,
3291582,000001A1,false,Rx,0,8,B0,C5,5C,0F,A5,8C,80,20,
3292452,00000445,false,Rx,0,7,80,55,55,65,04,82,00,00,
3296327,00000155,false,Rx,0,8,47,87,C5,54,96,18,02,C2,
3296656,0000019F,false,Rx,0,8,E1,E1,7D,07,00,6A,50,FE,
3300196,000001C7,false,Rx,0,4,AA,A0,FF,C0,00,00,00,00,
3301480,00000157,false,Rx,0,8,D5,DB,09,C4,FF,E0,00,80,
3301648,000001A1,false,Rx,0,8,B1,05,70,0F,85,8C,80,20,
3306407,00000423,false,Rx,0,8,0B,1D,00,02,B2,80,5D,D8,
3306427,00000155,false,Rx,0,8,47,87,C4,54,96,18,02,C2,
3306644,0000019F,false,Rx,0,8,E1,E1,7D,0C,00,6A,50,FE,
3306872,00000424,false,Rx,0,8,11,40,56,C8,33,5E,AA,34,
3307095,00000425,false,Rx,0,8,2A,BA,44,9C,42,18,CD,0B,
3310078,000001C7,false,Rx,0,4,AA,A0,FF,C0,00,00,00,00,
3311271,00000157,false,Rx,0,8,D5,2B,09,C4,FF,E0,00,80,
3311492,00000426,false,Rx,0,8,00,60,01,00,53,18,00,40,
3311721,000001A1,false,Rx,0,8,B0,C5,70,0F,55,8C,80,20,
3316292,00000155,false,Rx,0,8,47,87,C4,54,96,18,02,C2,
3316617,0000019F,false,Rx,0,8,E1,E1,7D,01,00,6A,50,FE,
3319288,00000500,false,Rx,0,5,02,B0,1A,E1,22,00,00,00,
3320112,000001C7,false,Rx,0,4,AA,A0,FF,C0,00,00,00,00,
3321287,00000157,false,Rx,0,8,D5,7B,09,C4,FF,E0,00,80,
3321617,000001A1,false,Rx,0,8,B0,C5,5C,0F,85,8C,80,20,
3326270,00000435,false,Rx,0,8,FF,FF,1E,0B,2E,10,00,00,
3326490,00000155,false,Rx,0,8,47,87,C6,54,96,18,02,C2,
3326720,0000019F,false,Rx,0,8,E1,E1,7D,06,00,6A,50,FE,
3326962,00000419,false,Rx,0,6,5E,22,32,E6,46,00,00,00,
3330114,000001C7,false,Rx,0,4,AA,A0,FF,C0,00,00,00,00,
3331337,00000157,false,Rx,0,8,D5,CB,09,C4,FF,E0,00,80,
3331521,00000436,false,Rx,0,6,86,16,64,40,FF,DC,00,00,
3331770,000001A1,false,Rx,0,8,B0,C5,70,0F,85,8C,80,20,
3336288,00000155,false,Rx,0,8,47,87,C5,54,96,18,02,C2,
3336615,0000019F,false,Rx,0,8,E1,E1,7D,0B,00,6A,50,FE,
3340112,000001C7,false,Rx,0,4,AA,A0,FF,C0,00,00,00,00,
3341313,00000157,false,Rx,0,8,D5,1B,09,C4,FF,E0,00,80,
3341615,000001A1,false,Rx,0,8,B0,C5,5C,0F,55,8C,80,20,
3346371,00000155,false,Rx,0,8,47,87,C6,54,96,18,02,C2,
3346616,0000019F,false,Rx,0,8,E1,E1,7D,00,00,6A,50,FE,
3350187,000004F7,false,Rx,0,8,00,1A,08,00,90,2C,06,F0,
3350366,000001C7,false,Rx,0,4,AA,A0,FF,C0,00,00,00,00,
3350668,00000428,false,Rx,0,8,00,00,00,7F,00,00,00,00,
3350830,0000042F,false,Rx,0,2,00,20,00,00,00,00,00,00,
3351288,00000157,false,Rx,0,8,D5,6B,09,C4,FF,E0,00,80,
3351573,000001A1,false,Rx,0,8,B0,C5,70,0F,85,8C,80,20,
3356362,00000155,false,Rx,0,8,47,87,C5,54,96,18,02,C2,
3356616,0000019F,false,Rx,0,8,E1,E1,7D,05,00,6A,50,FE,
3360140,000001C7,false,Rx,0,4,AA,A0,FF,C0,00,00,00,00,
3361340,00000157,false,Rx,0,8,D5,BB,09,C4,FF,E0,00,80,
3361616,000001A1,false,Rx,0,8,B0,C5,5C,0F,85,8C,80,20,
3366362,00000155,false,Rx,0,8,47,87,C5,54,96,18,02,C2,
3366616,0000019F,false,Rx,0,8,E1,E1,7D,0A,00,6A,50,FE,
3370096,000001C7,false,Rx,0,4,AA,A0,FF,C0,00,00,00,00,
3371191,00000157,false,Rx,0,8,D5,0B,09,C4,FF,E0,00,80,
3371566,000001A1,false,Rx,0,8,B0,C5,70,0F,55,8C,80,20,
3376350,00000155,false,Rx,0,8,47,87,C4,54,96,18,02,C2,
3376617,0000019F,false,Rx,0,8,E1,E1,7D,0F,00,6A,50,FE,
3376852,00000511,false,Rx,0,7,00,18,A3,AF,D1,2D,A3,00,
3380139,000001C7,false,Rx,0,4,AA,A0,FF,C0,00,00,00,00,
3381338,00000157,false,Rx,0,8,D5,5B,09,C4,FF,E0,00,80,
3381617,000001A1,false,Rx,0,8,B0,C5,5C,0F,85,8C,80,20,
3386287,00000155,false,Rx,0,8,47,87,C5,54,96,18,02,C2,
3386615,0000019F,false,Rx,0,8,E1,E1,7D,04,00,6A,50,FE,
3390140,000001C7,false,Rx,0,4,AA,A0,FF,C0,00,00,00,00,
3391289,00000157,false,Rx,0,8,D5,AB,09,C4,FF,E0,00,80,
3391570,000001A1,false,Rx,0,8,B0,C5,70,0F,85,8C,80,20,
3392230,00000445,false,Rx,0,7,80,55,55,65,04,82,00,00,
3396283,00000155,false,Rx,0,8,47,87,C5,54,96,18,02,C2,
3396626,0000019F,false,Rx,0,8,E1,E1,7D,09,00,6A,50,FE,
3400163,000001C7,false,Rx,0,4,AA,A0,FF,C0,00,00,00,00,
3401314,00000157,false,Rx,0,8,D5,FB,09,C4,FF,E0,00,80,
3401618,000001A1,false,Rx,0,8,B0,C5,5C,0F,85,8C,80,20,
3406213,00000423,false,Rx,0,8,0B,1D,00,02,5D,80,B2,D8,
3406441,00000155,false,Rx,0,8,47,87,C6,54,96,18,02,C2,
3406630,0000019F,false,Rx,0,8,E1,E1,7D,0E,00,6A,50,FE,
3406887,00000424,false,Rx,0,8,11,40,56,C8,33,5E,AA,34,
3407116,00000425,false,Rx,0,8,2A,BA,44,9C,42,18,CD,0B,
3410155,000001C7,false,Rx,0,4,AA,A0,FF,C0,00,00,00,00,
3411329,00000157,false,Rx,0,8,D5,4B,09,C4,FF,E0,00,80,
3411578,00000426,false,Rx,0,8,00,60,01,00,53,18,00,40,
3411820,000001A1,false,Rx,0,8,B0,C5,70,0F,A5,8C,80,20,
3416288,00000155,false,Rx,0,8,47,87,C6,54,96,18,02,C2,
3416616,0000019F,false,Rx,0,8,E1,E1,7D,03,00,6A,50,FE,
3419302,00000500,false,Rx,0,5,02,4C,BD,4C,28,00,00,00,
3420163,000001C7,false,Rx,0,4,AA,A0,FF,C0,00,00,00,00,
3421312,00000157,false,Rx,0,8,D5,9B,09,C4,FF,E0,00,80,
3421618,000001A1,false,Rx,0,8,B0,C5,70,0F,A5,8C,80,20,
3426263,00000435,false,Rx,0,8,FF,FF,1E,0B,2E,10,00,00,
3426494,00000155,false,Rx,0,8,47,87,C5,54,96,18,02,C2,
3426722,0000019F,false,Rx,0,8,E1,E1,7D,08,00,6A,50,FE,
