Time Stamp,ID,Extended,Dir,Bus,LEN,D1,D2,D3,D4,D5,D6,D7,D8
317310434,00000156,false,Rx,0,6,FF,FF,FF,05,FF,40,00,00,
317310655,00000196,false,Rx,0,8,00,64,02,FF,A0,FF,2B,00,
317310882,0000019F,false,Rx,0,8,00,00,7D,0E,00,6A,88,4E,
317311086,000001A1,false,Rx,0,6,00,05,88,26,00,00,00,00,
317314173,000001C7,false,Rx,0,4,AA,A0,FF,C0,00,00,00,00,
317315260,00000157,false,Rx,0,7,D5,16,09,C4,00,00,00,00,
317315546,00000423,false,Rx,0,8,07,1E,FF,FD,B2,A0,B2,C1,
317316870,00000155,false,Rx,0,8,03,87,CE,54,9C,40,02,C3,
317320538,00000156,false,Rx,0,6,FF,FF,FF,05,FF,40,00,00,
317320590,00000196,false,Rx,0,8,00,64,02,FF,A0,FF,2B,00,
317320889,0000019F,false,Rx,0,8,00,00,7D,03,00,6A,88,4E,
317321056,000001A1,false,Rx,0,6,00,05,88,26,00,00,00,00,
317324071,000001C7,false,Rx,0,4,AA,A0,FF,C0,00,00,00,00,
317325547,00000155,false,Rx,0,8,03,87,CE,54,9C,40,02,C3,
317326209,00000157,false,Rx,0,7,D5,66,09,C4,00,00,00,00,
317330405,00000196,false,Rx,0,8,00,64,02,FF,A0,FF,2B,00,
317330634,00000156,false,Rx,0,6,FF,FF,FF,05,FF,40,00,00,
317330859,0000019F,false,Rx,0,8,00,00,7D,08,00,6A,88,4E,
317331060,000001A1,false,Rx,0,6,00,05,88,26,00,00,00,00,
317331252,00000435,false,Rx,0,4,FF,FF,1E,00,00,00,00,00,
317333957,000001C7,false,Rx,0,4,AA,A0,FF,C0,00,00,00,00,
317334504,00000155,false,Rx,0,8,03,87,CE,54,9C,40,02,C3,
317335208,00000157,false,Rx,0,7,D5,B6,09,C4,00,00,00,00,
317340329,00000156,false,Rx,0,6,FF,FF,FF,05,FF,40,00,00,
317340508,00000196,false,Rx,0,8,00,64,02,FF,A0,FF,2B,00,
317340788,0000019F,false,Rx,0,8,00,00,7D,0D,00,6A,88,4E,
317340955,000001A1,false,Rx,0,6,00,05,8A,26,00,00,00,00,
317341205,00000426,false,Rx,0,8,00,10,02,01,04,16,00,40,
317343985,000004F7,false,Rx,0,8,00,1F,08,00,B0,48,06,F0,
317344203,000001C7,false,Rx,0,4,AA,A0,FF,C0,00,00,00,00,
317346202,00000157,false,Rx,0,7,D5,06,09,C4,00,00,00,00,
317346429,00000155,false,Rx,0,8,03,87,CE,54,9C,40,02,C3,
317349068,00000428,false,Rx,0,8,00,00,00,7F,00,00,00,00,
317349145,0000042F,false,Rx,0,2,00,20,00,00,00,00,00,00,
317350353,00000156,false,Rx,0,6,FF,FF,FF,05,FF,40,00,00,
317350582,00000196,false,Rx,0,8,00,64,02,FF,A0,FF,2B,00,
317350834,0000019F,false,Rx,0,8,00,00,7D,02,00,6A,88,4E,
317351036,000001A1,false,Rx,0,6,00,05,8A,26,00,00,00,00,
317351257,00000436,false,Rx,0,6,00,2F,08,B1,FF,DC,00,00,
317353909,000001C7,false,Rx,0,4,AA,A0,FF,C0,00,00,00,00,
317355304,00000155,false,Rx,0,8,03,87,CE,54,9C,40,02,C3,
317355530,00000157,false,Rx,0,7,D5,56,09,C4,00,00,00,00,
317360405,00000196,false,Rx,0,8,00,64,02,FF,A0,FF,2B,00,
317360606,00000156,false,Rx,0,6,FF,FF,FF,05,FF,40,00,00,
317360858,0000019F,false,Rx,0,8,00,00,7D,07,00,6A,88,4E,
317361060,000001A1,false,Rx,0,6,00,05,88,26,00,00,00,00,
317363968,000001C7,false,Rx,0,4,AA,A0,FF,C0,00,00,00,00,
317364244,00000155,false,Rx,0,8,03,87,CE,54,9C,40,02,C3,
317366092,00000157,false,Rx,0,7,D5,A6,09,C4,00,00,00,00,
317370405,00000196,false,Rx,0,8,00,64,02,FF,A0,FF,2B,00,
317370607,00000156,false,Rx,0,6,FF,FF,FF,05,FF,40,00,00,
317370862,0000019F,false,Rx,0,8,00,00,7D,0C,00,6A,88,4E,
317371041,000001A1,false,Rx,0,6,00,05,88,26,00,00,00,00,
317373983,000001C7,false,Rx,0,4,AA,A0,FF,C0,00,00,00,00,
317375214,00000157,false,Rx,0,7,D5,F6,09,C4,00,00,00,00,
317376130,00000155,false,Rx,0,8,03,87,CE,54,9C,40,02,C3,
3331,00000156,false,Rx,0,6,FF,FF,FF,05,FF,40,00,00,
3556,00000196,false,Rx,0,8,00,64,02,FF,A0,FF,2B,00,
3808,0000019F,false,Rx,0,8,00,00,7D,01,00,6A,88,4E,
4010,000001A1,false,Rx,0,6,00,05,88,26,00,00,00,00,
4256,00000422,false,Rx,0,8,00,00,3B,4F,00,A8,01,3B,
4380,0000042C,false,Rx,0,5,00,00,3F,40,DB,00,00,00,
4578,00000511,false,Rx,0,7,04,C3,63,4B,71,1D,9A,00,
6933,000001C7,false,Rx,0,4,AA,A0,FF,C0,00,00,00,00,
7982,00000155,false,Rx,0,8,03,87,CE,54,9C,40,02,C3,
9085,00000157,false,Rx,0,7,D5,46,09,C4,00,00,00,00,
13290,00000156,false,Rx,0,6,FF,FF,FF,05,FF,40,00,00,
13511,00000196,false,Rx,0,8,00,64,02,FF,A0,FF,2B,00,
13761,0000019F,false,Rx,0,8,00,00,7D,06,00,6A,88,4E,
13961,000001A1,false,Rx,0,6,00,05,88,26,00,00,00,00,
16908,00000155,false,Rx,0,8,03,87,CE,54,9C,40,02,C3,
17075,000001C7,false,Rx,0,4,AA,A0,FF,C0,00,00,00,00,
18257,00000157,false,Rx,0,7,D5,96,09,C4,00,00,00,00,
23367,00000196,false,Rx,0,8,00,64,02,FF,A0,FF,2B,00,
23558,00000156,false,Rx,0,6,FF,FF,FF,05,FF,40,00,00,
23814,0000019F,false,Rx,0,8,00,00,7D,0B,00,6A,88,4E,
23989,000001A1,false,Rx,0,6,00,05,8A,26,00,00,00,00,
26836,00000424,false,Rx,0,8,11,40,02,10,3D,64,55,3E,
26986,000001C7,false,Rx,0,4,AA,A0,FF,C0,00,00,00,00,
27205,00000425,false,Rx,0,8,11,BB,44,9C,42,1A,CD,0C,
27383,000004AF,false,Rx,0,5,65,3B,4B,3A,40,00,00,00,
28807,00000155,false,Rx,0,8,03,87,CE,54,9C,40,02,C3,
29034,00000157,false,Rx,0,7,D5,E6,09,C4,00,00,00,00,
33357,00000196,false,Rx,0,8,00,64,02,FF,A0,FF,2B,00,
33573,00000156,false,Rx,0,6,FF,FF,FF,05,FF,40,00,00,
33796,0000019F,false,Rx,0,8,00,00,7D,00,00,6A,88,4E,
33992,000001A1,false,Rx,0,6,00,05,8A,26,00,00,00,00,
36928,000001C7,false,Rx,0,4,AA,A0,FF,C0,00,00,00,00,
37727,00000155,false,Rx,0,8,03,87,CE,54,9C,40,02,C3,
38276,00000157,false,Rx,0,7,D5,36,09,C4,00,00,00,00,
38529,00000423,false,Rx,0,8,07,1E,FF,FD,B2,A0,B2,C1,
43283,00000156,false,Rx,0,6,FF,FF,FF,05,FF,40,00,00,
43510,00000196,false,Rx,0,8,00,64,02,FF,A0,FF,2B,00,
43762,0000019F,false,Rx,0,8,00,00,7D,05,00,6A,88,4E,
43964,000001A1,false,Rx,0,6,00,05,8A,26,00,00,00,00,
46632,00000155,false,Rx,0,8,03,87,CE,54,9C,40,02,C3,
46933,000001C7,false,Rx,0,4,AA,A0,FF,C0,00,00,00,00,
49032,00000157,false,Rx,0,7,D5,86,09,C4,00,00,00,00,
53308,00000156,false,Rx,0,6,FF,FF,FF,05,FF,40,00,00,
53535,00000196,false,Rx,0,8,00,64,02,FF,A0,FF,2B,00,
53786,0000019F,false,Rx,0,8,00,00,7D,0A,00,6A,88,4E,
53988,000001A1,false,Rx,0,6,00,05,8A,26,00,00,00,00,
54140,00000435,false,Rx,0,4,FF,FF,1E,00,00,00,00,00,
56933,000001C7,false,Rx,0,4,AA,A0,FF,C0,00,00,00,00,
58279,00000157,false,Rx,0,7,D5,D6,09,C4,00,00,00,00,
58531,00000155,false,Rx,0,8,03,87,CE,54,9C,40,02,C3,
63336,00000156,false,Rx,0,6,FF,FF,FF,05,FF,40,00,00,
63584,00000196,false,Rx,0,8,00,64,02,FF,A0,FF,2B,00,
63816,0000019F,false,Rx,0,8,00,00,7D,0F,00,6A,88,4E,
64047,000001A1,false,Rx,0,6,00,05,88,26,00,00,00,00,
64258,00000426,false,Rx,0,8,00,10,02,01,04,16,00,40,
67044,000004F7,false,Rx,0,8,00,1F,08,00,B0,48,06,F0,
67201,000001C7,false,Rx,0,4,AA,A0,FF,C0,00,00,00,00,
67471,00000155,false,Rx,0,8,03,87,CE,54,9C,40,02,C3,
69228,00000157,false,Rx,0,7,D5,26,09,C4,00,00,00,00,
72036,00000428,false,Rx,0,8,00,00,00,7F,00,00,00,00,
72153,0000042F,false,Rx,0,2,00,20,00,00,00,00,00,00,
73366,00000196,false,Rx,0,8,00,64,02,FF,A0,FF,2B,00,
73561,00000156,false,Rx,0,6,FF,FF,FF,05,FF,40,00,00,
73783,0000019F,false,Rx,0,8,00,00,7D,04,00,6A,88,4E,
74004,000001A1,false,Rx,0,6,00,05,88,26,00,00,00,00,
74207,00000436,false,Rx,0,6,00,2F,08,B1,FF,DC,00,00,
76365,00000155,false,Rx,0,8,03,87,CE,54,9C,40,02,C3,
76936,000001C7,false,Rx,0,4,AA,A0,FF,C0,00,00,00,00,
78283,00000157,false,Rx,0,7,D5,76,09,C4,00,00,00,00,
83373,00000196,false,Rx,0,8,00,64,02,FF,A0,FF,2B,00,
83562,00000156,false,Rx,0,6,FF,FF,FF,05,FF,40,00,00,
83789,0000019F,false,Rx,0,8,00,00,7D,09,00,6A,88,4E,
83991,000001A1,false,Rx,0,6,00,05,88,26,00,00,00,00,
86962,000001C7,false,Rx,0,4,AA,A0,FF,C0,00,00,00,00,
88258,00000155,false,Rx,0,8,03,87,CE,54,9C,40,02,C3,
89039,00000157,false,Rx,0,7,D5,C6,09,C4,00,00,00,00,
93381,00000156,false,Rx,0,6,FF,FF,FF,05,FF,40,00,00,
93600,00000196,false,Rx,0,8,00,64,02,FF,A0,FF,2B,00,
93847,0000019F,false,Rx,0,8,00,00,7D,0E,00,6A,88,4E,
94043,000001A1,false,Rx,0,6,00,05,88,26,00,00,00,00,
96977,000001C7,false,Rx,0,4,AA,A0,FF,C0,00,00,00,00,
97206,00000155,false,Rx,0,8,03,87,CE,54,9C,40,02,C3,
98257,00000157,false,Rx,0,7,D5,16,09,C4,00,00,00,00,
103308,00000156,false,Rx,0,6,FF,FF,FF,05,FF,40,00,00,
103560,00000196,false,Rx,0,8,00,64,02,FF,A0,FF,2B,00,
103787,0000019F,false,Rx,0,8,00,00,7D,03,00,6A,88,4E,
103988,000001A1,false,Rx,0,6,00,05,88,26,00,00,00,00,
104232,00000422,false,Rx,0,8,00,00,3B,4F,00,A8,01,3B,
104408,0000042C,false,Rx,0,5,00,00,3F,40,DB,00,00,00,
104635,00000511,false,Rx,0,7,04,02,2C,04,DC,2A,7D,00,
106082,00000155,false,Rx,0,8,03,87,CE,54,9C,40,02,C3,
106953,000001C7,false,Rx,0,4,AA,A0,FF,C0,00,00,00,00,
109077,00000157,false,Rx,0,7,D5,66,09,C4,00,00,00,00,
113334,00000196,false,Rx,0,8,00,64,02,FF,A0,FF,2B,00,
113559,00000156,false,Rx,0,6,FF,FF,FF,05,FF,40,00,00,
113785,0000019F,false,Rx,0,8,00,00,7D,08,00,6A,88,4E,
113986,000001A1,false,Rx,0,6,00,05,88,26,00,00,00,00,
116965,000001C7,false,Rx,0,4,AA,A0,FF,C0,00,00,00,00,
117986,00000155,false,Rx,0,8,03,87,CE,54,9C,40,02,C3,
118294,00000157,false,Rx,0,7,D5,B6,09,C4,00,00,00,00,
123370,00000196,false,Rx,0,8,00,64,02,FF,A0,FF,2B,00,
123571,00000156,false,Rx,0,6,FF,FF,FF,05,FF,40,00,00,
123820,0000019F,false,Rx,0,8,00,00,7D,0D,00,6A,88,4E,
124015,000001A1,false,Rx,0,6,00,05,88,26,00,00,00,00,
126957,00000155,false,Rx,0,8,03,87,CE,54,9C,40,02,C3,
127067,000001C7,false,Rx,0,4,AA,A0,FF,C0,00,00,00,00,
127896,00000424,false,Rx,0,8,11,40,02,10,3D,64,AA,3E,
128119,00000425,false,Rx,0,8,11,BB,44,9C,42,1A,CD,0C,
128288,000004AF,false,Rx,0,5,65,3B,4B,3A,40,00,00,00,
129014,00000157,false,Rx,0,7,D5,06,09,C4,00,00,00,00,
133314,00000156,false,Rx,0,6,FF,FF,FF,05,FF,40,00,00,
133571,00000196,false,Rx,0,8,00,64,02,FF,A0,FF,2B,00,
133830,0000019F,false,Rx,0,8,00,00,7D,02,00,6A,88,4E,
134033,000001A1,false,Rx,0,6,00,05,88,26,00,00,00,00,
135858,00000155,false,Rx,0,8,03,87,CE,54,9C,40,02,C3,
137033,000001C7,false,Rx,0,4,AA,A0,FF,C0,00,00,00,00,
138273,00000157,false,Rx,0,7,D5,56,09,C4,00,00,00,00,
138534,00000423,false,Rx,0,8,07,1E,FF,FD,B2,A0,B2,C1,
143314,00000156,false,Rx,0,6,FF,FF,FF,05,FF,40,00,00,
143519,00000196,false,Rx,0,8,00,64,02,FF,A0,FF,2B,00,
143748,0000019F,false,Rx,0,8,00,00,7D,07,00,6A,88,4E,
143939,000001A1,false,Rx,0,6,00,05,88,26,00,00,00,00,
146958,000001C7,false,Rx,0,4,AA,A0,FF,C0,00,00,00,00,
147705,00000155,false,Rx,0,8,03,87,CE,54,9C,40,02,C3,
149046,00000157,false,Rx,0,7,D5,A6,09,C4,00,00,00,00,
153474,00000156,false,Rx,0,6,FF,FF,FF,05,FF,40,00,00,
153546,00000196,false,Rx,0,8,00,64,02,FF,A0,FF,2B,00,
153833,0000019F,false,Rx,0,8,00,00,7D,0C,00,6A,88,4E,
154054,000001A1,false,Rx,0,6,00,05,88,26,00,00,00,00,
154175,00000435,false,Rx,0,4,FF,FF,1E,00,00,00,00,00,
156909,00000155,false,Rx,0,8,03,87,CE,54,9C,40,02,C3,
156977,000001C7,false,Rx,0,4,AA,A0,FF,C0,00,00,00,00,
158218,00000157,false,Rx,0,7,D5,F6,09,C4,00,00,00,00,
163362,00000156,false,Rx,0,6,FF,FF,FF,05,FF,40,00,00,
163546,00000196,false,Rx,0,8,00,64,02,FF,A0,FF,2B,00,
163947,0000019F,false,Rx,0,8,00,00,7D,01,00,6A,88,4E,
163954,000001A1,false,Rx,0,6,00,05,88,26,00,00,00,00,
164262,00000426,false,Rx,0,8,00,10,02,01,04,16,00,40,
165622,00000155,false,Rx,0,8,03,87,CE,54,9C,40,02,C3,
167292,000004F7,false,Rx,0,8,00,1F,08,00,B0,48,06,F0,
167301,000001C7,false,Rx,0,4,AA,A0,FF,C0,00,00,00,00,
169423,00000157,false,Rx,0,7,D5,46,09,C4,00,00,00,00,
172329,00000428,false,Rx,0,8,00,00,00,7F,00,00,00,00,
172338,0000042F,false,Rx,0,2,00,20,00,00,00,00,00,00,
173468,00000156,false,Rx,0,6,FF,FF,FF,05,FF,40,00,00,
173619,00000196,false,Rx,0,8,00,64,02,FF,A0,FF,2B,00,
173882,0000019F,false,Rx,0,8,00,00,7D,06,00,6A,88,4E,
174040,000001A1,false,Rx,0,6,00,05,8A,26,00,00,00,00,
174283,00000436,false,Rx,0,6,00,2F,08,B1,FF,DC,00,00,
177148,000001C7,false,Rx,0,4,AA,A0,FF,C0,00,00,00,00,
177513,00000155,false,Rx,0,8,03,87,CE,54,9C,40,02,C3,
178257,00000157,false,Rx,0,7,D5,96,09,C4,00,00,00,00,
183506,00000156,false,Rx,0,6,FF,FF,FF,05,FF,40,00,00,
183571,00000196,false,Rx,0,8,00,64,02,FF,A0,FF,2B,00,
183867,0000019F,false,Rx,0,8,00,00,7D,0B,00,6A,88,4E,
184045,000001A1,false,Rx,0,6,00,05,8A,26,00,00,00,00,
186425,00000155,false,Rx,0,8,03,87,CE,54,9C,40,02,C3,
187241,000001C7,false,Rx,0,4,AA,A0,FF,C0,00,00,00,00,
189109,00000157,false,Rx,0,7,D5,E6,09,C4,00,00,00,00,
193527,00000156,false,Rx,0,6,FF,FF,FF,05,FF,40,00,00,
193590,00000196,false,Rx,0,8,00,64,02,FF,A0,FF,2B,00,
193899,0000019F,false,Rx,0,8,00,00,7D,00,00,6A,88,4E,
194058,000001A1,false,Rx,0,6,00,05,8A,26,00,00,00,00,
195424,00000155,false,Rx,0,8,03,87,CE,54,9C,40,02,C3,
197154,000001C7,false,Rx,0,4,AA,A0,FF,C0,00,00,00,00,
198363,00000157,false,Rx,0,7,D5,36,09,C4,00,00,00,00,
203406,00000196,false,Rx,0,8,00,64,02,FF,A0,FF,2B,00,
203582,00000156,false,Rx,0,6,FF,FF,FF,05,FF,40,00,00,
203838,0000019F,false,Rx,0,8,00,00,7D,05,00,6A,88,4E,
204013,000001A1,false,Rx,0,6,00,05,8A,26,00,00,00,00,
204379,00000422,false,Rx,0,8,00,00,3B,4F,00,A8,01,3B,
204393,0000042C,false,Rx,0,5,00,00,3F,40,DB,00,00,00,
204677,00000511,false,Rx,0,7,04,41,F5,BD,47,37,60,00,
206995,000001C7,false,Rx,0,4,AA,A0,FF,C0,00,00,00,00,
207210,00000155,false,Rx,0,8,03,87,CE,54,9C,40,02,C3,
209037,00000157,false,Rx,0,7,D5,86,09,C4,00,00,00,00,
213346,00000196,false,Rx,0,8,00,64,02,FF,A0,FF,2B,00,
213537,00000156,false,Rx,0,6,FF,FF,FF,05,FF,40,00,00,
213763,0000019F,false,Rx,0,8,00,00,7D,0A,00,6A,88,4E,
213966,000001A1,false,Rx,0,6,00,05,8A,26,00,00,00,00,
216086,00000155,false,Rx,0,8,03,87,CE,54,9C,40,02,C3,
216985,000001C7,false,Rx,0,4,AA,A0,FF,C0,00,00,00,00,
218237,00000157,false,Rx,0,7,D5,D6,09,C4,00,00,00,00,
223337,00000156,false,Rx,0,6,FF,FF,FF,05,FF,40,00,00,
223562,00000196,false,Rx,0,8,00,64,02,FF,A0,FF,2B,00,
223789,0000019F,false,Rx,0,8,00,00,7D,0F,00,6A,88,4E,
223991,000001A1,false,Rx,0,6,00,05,8A,26,00,00,00,00,
224984,00000155,false,Rx,0,8,03,87,CE,54,9C,40,02,C3,
225984,00000424,false,Rx,0,8,11,40,02,10,3D,64,55,3E,
226208,00000425,false,Rx,0,8,11,BB,44,9C,42,1A,CD,0C,
226385,000004AF,false,Rx,0,5,65,3B,4B,3A,40,00,00,00,
226988,000001C7,false,Rx,0,4,AA,A0,FF,C0,00,00,00,00,
229084,00000157,false,Rx,0,7,D5,26,09,C4,00,00,00,00,
233309,00000156,false,Rx,0,6,FF,FF,FF,05,FF,40,00,00,
233554,00000196,false,Rx,0,8,00,64,02,FF,A0,FF,2B,00,
233807,0000019F,false,Rx,0,8,00,00,7D,04,00,6A,88,4E,
234009,000001A1,false,Rx,0,6,00,05,8A,26,00,00,00,00,
236884,00000155,false,Rx,0,8,03,87,CE,54,9C,40,02,C3,
237061,000001C7,false,Rx,0,4,AA,A0,FF,C0,00,00,00,00,
238259,00000157,false,Rx,0,7,D5,76,09,C4,00,00,00,00,
238486,00000423,false,Rx,0,8,07,1E,FF,FD,B2,A0,B2,C1,
243336,00000196,false,Rx,0,8,00,64,02,FF,A0,FF,2B,00,
243536,00000156,false,Rx,0,6,FF,FF,FF,05,FF,40,00,00,
243788,0000019F,false,Rx,0,8,00,00,7D,09,00,6A,88,4E,
243965,000001A1,false,Rx,0,6,00,05,8A,26,00,00,00,00,
245811,00000155,false,Rx,0,8,03,87,CE,54,9C,40,02,C3,
246984,000001C7,false,Rx,0,4,AA,A0,FF,C0,00,00,00,00,
249135,00000157,false,Rx,0,7,D5,C6,09,C4,00,00,00,00,
253311,00000196,false,Rx,0,8,00,64,02,FF,A0,FF,2B,00,
253535,00000156,false,Rx,0,6,FF,FF,FF,05,FF,40,00,00,
253764,0000019F,false,Rx,0,8,00,00,7D,0E,00,6A,88,4E,
253965,000001A1,false,Rx,0,6,00,05,8A,26,00,00,00,00,
254142,00000435,false,Rx,0,4,FF,FF,1E,00,00,00,00,00,
254740,00000155,false,Rx,0,8,03,87,CE,54,9C,40,02,C3,
256982,000001C7,false,Rx,0,4,AA,A0,FF,C0,00,00,00,00,
258254,00000157,false,Rx,0,7,D5,16,09,C4,00,00,00,00,
263313,00000196,false,Rx,0,8,00,64,02,FF,A0,FF,2B,00,
263532,00000156,false,Rx,0,6,FF,FF,FF,05,FF,40,00,00,
263757,0000019F,false,Rx,0,8,00,00,7D,03,00,6A,88,4E,
263958,000001A1,false,Rx,0,6,00,05,8A,26,00,00,00,00,
264225,00000426,false,Rx,0,8,00,10,02,01,04,16,00,40,
266620,00000155,false,Rx,0,8,03,87,CE,54,9C,40,02,C3,
267071,000004F7,false,Rx,0,8,00,1F,08,00,B0,48,06,F0,
267243,000001C7,false,Rx,0,4,AA,A0,FF,C0,00,00,00,00,
269099,00000157,false,Rx,0,7,D5,66,09,C4,00,00,00,00,
272095,00000428,false,Rx,0,8,00,00,00,7F,00,00,00,00,
272208,0000042F,false,Rx,0,2,00,20,00,00,00,00,00,00,
273360,00000156,false,Rx,0,6,FF,FF,FF,05,FF,40,00,00,
273586,00000196,false,Rx,0,8,00,64,02,FF,A0,FF,2B,00,
273839,0000019F,false,Rx,0,8,00,00,7D,08,00,6A,88,4E,
274042,000001A1,false,Rx,0,6,00,05,8A,26,00,00,00,00,
274234,00000436,false,Rx,0,6,00,2F,08,B1,FF,DC,00,00,
275542,00000155,false,Rx,0,8,03,87,CE,54,9C,40,02,C3,
276996,000001C7,false,Rx,0,4,AA,A0,FF,C0,00,00,00,00,
278272,00000157,false,Rx,0,7,D5,B6,09,C4,00,00,00,00,
283361,00000156,false,Rx,0,6,FF,FF,FF,05,FF,40,00,00,
283607,00000196,false,Rx,0,8,00,64,02,FF,A0,FF,2B,00,
283830,0000019F,false,Rx,0,8,00,00,7D,0D,00,6A,88,4E,
284026,000001A1,false,Rx,0,6,00,05,8A,26,00,00,00,00,
284460,00000155,false,Rx,0,8,03,87,CE,54,9C,40,02,C3,
286999,000001C7,false,Rx,0,4,AA,A0,FF,C0,00,00,00,00,
289020,00000157,false,Rx,0,7,D5,06,09,C4,00,00,00,00,
293319,00000196,false,Rx,0,8,00,64,02,FF,A0,FF,2B,00,
293521,00000156,false,Rx,0,6,FF,FF,FF,05,FF,40,00,00,
293773,0000019F,false,Rx,0,8,00,00,7D,02,00,6A,88,4E,
293975,000001A1,false,Rx,0,6,00,05,88,26,00,00,00,00,
296360,00000155,false,Rx,0,8,03,87,CE,54,9C,40,02,C3,
297007,000001C7,false,Rx,0,4,AA,A0,FF,C0,00,00,00,00,
298210,00000157,false,Rx,0,7,D5,56,09,C4,00,00,00,00,
303321,00000196,false,Rx,0,8,00,64,02,FF,A0,FF,2B,00,
303521,00000156,false,Rx,0,6,FF,FF,FF,05,FF,40,00,00,
303774,0000019F,false,Rx,0,8,00,00,7D,07,00,6A,88,4E,
303975,000001A1,false,Rx,0,6,00,05,88,26,00,00,00,00,
304218,00000422,false,Rx,0,8,00,00,3B,4F,00,A8,01,3B,
304397,0000042C,false,Rx,0,5,00,00,3F,40,DB,00,00,00,
304598,00000511,false,Rx,0,7,04,80,BE,76,B2,44,43,00,
305266,00000155,false,Rx,0,8,03,87,CE,54,9C,40,02,C3,
306967,000001C7,false,Rx,0,4,AA,A0,FF,C0,00,00,00,00,
309069,00000157,false,Rx,0,7,D5,A6,09,C4,00,00,00,00,
313359,00000156,false,Rx,0,6,FF,FF,FF,05,FF,40,00,00,
313575,00000196,false,Rx,0,8,00,64,02,FF,A0,FF,2B,00,
313822,0000019F,false,Rx,0,8,00,00,7D,0C,00,6A,88,4E,
314018,000001A1,false,Rx,0,6,00,05,88,26,00,00,00,00,
314252,00000155,false,Rx,0,8,03,87,CE,54,9C,40,02,C3,
316955,000001C7,false,Rx,0,4,AA,A0,FF,C0,00,00,00,00,
318279,00000157,false,Rx,0,7,D5,F6,09,C4,00,00,00,00,
323374,00000156,false,Rx,0,6,FF,FF,FF,05,FF,40,00,00,
323624,00000196,false,Rx,0,8,00,64,02,FF,A0,FF,2B,00,
323848,0000019F,false,Rx,0,8,00,00,7D,01,00,6A,88,4E,
324049,000001A1,false,Rx,0,6,00,05,88,26,00,00,00,00,
324292,00000424,false,Rx,0,8,11,40,02,10,3D,64,AA,3E,
324518,00000425,false,Rx,0,8,11,BB,44,9C,42,1A,CD,0C,
324671,000004AF,false,Rx,0,5,65,3B,4B,3A,40,00,00,00,
326096,00000155,false,Rx,0,8,03,87,CE,54,9C,40,02,C3,
326994,000001C7,false,Rx,0,4,AA,A0,FF,C0,00,00,00,00,
328962,00000157,false,Rx,0,7,D5,46,09,C4,00,00,00,00,
333337,00000196,false,Rx,0,8,00,64,02,FF,A0,FF,2B,00,
333525,00000156,false,Rx,0,6,FF,FF,FF,05,FF,40,00,00,
333777,0000019F,false,Rx,0,8,00,00,7D,06,00,6A,88,4E,
333988,000001A1,false,Rx,0,6,00,05,88,26,00,00,00,00,
335016,00000155,false,Rx,0,8,03,87,CE,54,9C,40,02,C3,
336994,000001C7,false,Rx,0,4,AA,A0,FF,C0,00,00,00,00,
338319,00000157,false,Rx,0,7,D5,96,09,C4,00,00,00,00,
338545,00000423,false,Rx,0,8,07,1E,FF,FD,B2,A0,B2,C1,
343344,00000196,false,Rx,0,8,00,64,02,FF,A0,FF,2B,00,
343548,00000156,false,Rx,0,6,FF,FF,FF,05,FF,40,00,00,
343798,0000019F,false,Rx,0,8,00,00,7D,0B,00,6A,88,4E,
344015,00000155,false,Rx,0,8,03,87,CE,54,9C,40,02,C3,
344242,000001A1,false,Rx,0,6,00,05,88,26,00,00,00,00,
346954,000001C7,false,Rx,0,4,AA,A0,FF,C0,00,00,00,00,
349126,00000157,false,Rx,0,7,D5,E6,09,C4,00,00,00,00,
353302,00000196,false,Rx,0,8,00,64,02,FF,A0,FF,2B,00,
353500,00000156,false,Rx,0,6,FF,FF,FF,05,FF,40,00,00,
353749,0000019F,false,Rx,0,8,00,00,7D,00,00,6A,88,4E,
353971,000001A1,false,Rx,0,6,00,05,88,26,00,00,00,00,
354119,00000435,false,Rx,0,4,FF,FF,1E,00,00,00,00,00,
355807,00000155,false,Rx,0,8,03,87,CE,54,9C,40,02,C3,
356959,000001C7,false,Rx,0,4,AA,A0,FF,C0,00,00,00,00,
358232,00000157,false,Rx,0,7,D5,36,09,C4,00,00,00,00,
363359,00000156,false,Rx,0,6,FF,FF,FF,05,FF,40,00,00,
363654,00000196,false,Rx,0,8,00,64,02,FF,A0,FF,2B,00,
363877,0000019F,false,Rx,0,8,00,00,7D,05,00,6A,88,4E,
364081,000001A1,false,Rx,0,6,00,05,88,26,00,00,00,00,
364331,00000426,false,Rx,0,8,00,10,02,01,04,16,00,40,
364789,00000155,false,Rx,0,8,03,87,CE,54,9C,40,02,C3,
367293,000004F7,false,Rx,0,8,00,1F,08,00,B0,48,06,F0,
367299,000001C7,false,Rx,0,4,AA,A0,FF,C0,00,00,00,00,
369292,00000157,false,Rx,0,7,D5,86,09,C4,00,00,00,00,
372063,00000428,false,Rx,0,8,00,00,00,7F,00,00,00,00,
372205,0000042F,false,Rx,0,2,00,20,00,00,00,00,00,00,
373255,00000156,false,Rx,0,6,FF,FF,FF,05,FF,40,00,00,
373508,00000196,false,Rx,0,8,00,64,02,FF,A0,FF,2B,00,
373735,00000155,false,Rx,0,8,03,87,CE,54,9C,40,02,C3,
373962,0000019F,false,Rx,0,8,00,00,7D,0A,00,6A,88,4E,
374205,000001A1,false,Rx,0,6,00,05,88,26,00,00,00,00,
374382,00000436,false,Rx,0,6,00,2F,08,B1,FF,DC,00,00,
377066,000001C7,false,Rx,0,4,AA,A0,FF,C0,00,00,00,00,
378384,00000157,false,Rx,0,7,D5,D6,09,C4,00,00,00,00,
383541,00000196,false,Rx,0,8,00,64,02,FF,A0,FF,2B,00,
383547,00000156,false,Rx,0,6,FF,FF,FF,05,FF,40,00,00,
383826,0000019F,false,Rx,0,8,00,00,7D,0F,00,6A,88,4E,
384024,000001A1,false,Rx,0,6,00,05,88,26,00,00,00,00,
385815,00000155,false,Rx,0,8,03,87,CE,54,9C,40,02,C3,
387224,000001C7,false,Rx,0,4,AA,A0,FF,C0,00,00,00,00,
389272,00000157,false,Rx,0,7,D5,26,09,C4,00,00,00,00,
393507,00000196,false,Rx,0,8,00,64,02,FF,A0,FF,2B,00,
393512,00000156,false,Rx,0,6,FF,FF,FF,05,FF,40,00,00,
393813,0000019F,false,Rx,0,8,00,00,7D,04,00,6A,88,4E,
394014,000001A1,false,Rx,0,6,00,05,88,26,00,00,00,00,
394521,00000155,false,Rx,0,8,03,87,CE,54,9C,40,02,C3,
397133,000001C7,false,Rx,0,4,AA,A0,FF,C0,00,00,00,00,
398302,00000157,false,Rx,0,7,D5,76,09,C4,00,00,00,00,
403476,00000156,false,Rx,0,6,FF,FF,FF,05,FF,40,00,00,
403537,00000155,false,Rx,0,8,03,87,CE,54,9C,40,02,C3,
403938,00000196,false,Rx,0,8,00,64,02,FF,A0,FF,2B,00,
404040,0000019F,false,Rx,0,8,00,00,7D,09,00,6A,88,4E,
404292,000001A1,false,Rx,0,6,00,05,88,26,00,00,00,00,
404529,00000422,false,Rx,0,8,00,00,3B,4F,00,A8,01,3B,
404691,0000042C,false,Rx,0,5,00,00,3F,40,DB,00,00,00,
404930,00000511,false,Rx,0,7,04,BF,87,2F,1D,51,26,00,
407149,000001C7,false,Rx,0,4,AA,A0,FF,C0,00,00,00,00,
409137,00000157,false,Rx,0,7,D5,C6,09,C4,00,00,00,00,
413509,00000156,false,Rx,0,6,FF,FF,FF,05,FF,40,00,00,
413666,00000196,false,Rx,0,8,00,64,02,FF,A0,FF,2B,00,
413860,0000019F,false,Rx,0,8,00,00,7D,0E,00,6A,88,4E,
414099,000001A1,false,Rx,0,6,00,05,8A,26,00,00,00,00,
415283,00000155,false,Rx,0,8,03,87,CE,54,9C,40,02,C3,
417181,000001C7,false,Rx,0,4,AA,A0,FF,C0,00,00,00,00,
418382,00000157,false,Rx,0,7,D5,16,09,C4,00,00,00,00,
423458,00000196,false,Rx,0,8,00,64,02,FF,A0,FF,2B,00,
423502,00000156,false,Rx,0,6,FF,FF,FF,05,FF,40,00,00,
423817,0000019F,false,Rx,0,8,00,00,7D,03,00,6A,88,4E,
423952,000001A1,false,Rx,0,6,00,05,8A,26,00,00,00,00,
424365,00000155,false,Rx,0,8,03,87,CE,54,9C,40,02,C3,
425361,00000424,false,Rx,0,8,11,40,02,10,3D,64,55,3E,
425400,00000425,false,Rx,0,8,11,BB,44,9C,42,1A,CD,0C,
425664,000004AF,false,Rx,0,5,65,3B,4B,3A,40,00,00,00,
427137,000001C7,false,Rx,0,4,AA,A0,FF,C0,00,00,00,00,
429136,00000157,false,Rx,0,7,D5,66,09,C4,00,00,00,00,
433333,00000155,false,Rx,0,8,03,87,CE,54,9C,40,02,C3,
433351,00000196,false,Rx,0,8,00,64,02,FF,A0,FF,2B,00,
433596,00000156,false,Rx,0,6,FF,FF,FF,05,FF,40,00,00,
433898,0000019F,false,Rx,0,8,00,00,7D,08,00,6A,88,4E,
434043,000001A1,false,Rx,0,6,00,05,88,26,00,00,00,00,
437261,000001C7,false,Rx,0,4,AA,A0,FF,C0,00,00,00,00,
438378,00000157,false,Rx,0,7,D5,B6,09,C4,00,00,00,00,
438589,00000423,false,Rx,0,8,07,1E,FF,FD,5D,A0,B2,C1,
443592,00000156,false,Rx,0,6,FF,FF,FF,05,FF,40,00,00,
443601,00000196,false,Rx,0,8,00,64,02,FF,A0,FF,2B,00,
443859,0000019F,false,Rx,0,8,00,00,7D,0D,00,6A,88,4E,
444061,000001A1,false,Rx,0,6,00,05,88,26,00,00,00,00,
445275,00000155,false,Rx,0,8,03,87,CE,54,9C,40,02,C3,
447149,000001C7,false,Rx,0,4,AA,A0,FF,C0,00,00,00,00,
449104,00000157,false,Rx,0,7,D5,06,09,C4,00,00,00,00,
453415,00000156,false,Rx,0,6,FF,FF,FF,05,FF,40,00,00,
453514,00000196,false,Rx,0,8,00,64,02,FF,A0,FF,2B,00,
453778,0000019F,false,Rx,0,8,00,00,7D,02,00,6A,88,4E,
454009,00000155,false,Rx,0,8,03,87,CE,54,9C,40,02,C3,
454301,000001A1,false,Rx,0,6,00,05,88,26,00,00,00,00,
454361,00000435,false,Rx,0,4,FF,FF,1E,00,00,00,00,00,
457138,000001C7,false,Rx,0,4,AA,A0,FF,C0,00,00,00,00,
458213,00000157,false,Rx,0,7,D5,56,09,C4,00,00,00,00,
462849,00000155,false,Rx,0,8,03,87,CE,54,9C,40,02,C3,
463296,00000196,false,Rx,0,8,00,64,02,FF,A0,FF,2B,00,
463525,00000156,false,Rx,0,6,FF,FF,FF,05,FF,40,00,00,
463750,0000019F,false,Rx,0,8,00,00,7D,07,00,6A,88,4E,
463951,000001A1,false,Rx,0,6,00,05,88,26,00,00,00,00,
464220,00000426,false,Rx,0,8,00,10,02,01,04,16,00,40,
467072,000004F7,false,Rx,0,8,00,1F,08,00,B0,48,06,F0,
467246,000001C7,false,Rx,0,4,AA,A0,FF,C0,00,00,00,00,
469146,00000157,false,Rx,0,7,D5,A6,09,C4,00,00,00,00,
472072,00000428,false,Rx,0,8,00,00,00,7F,00,00,00,00,
472220,0000042F,false,Rx,0,2,00,20,00,00,00,00,00,00,
473287,00000196,false,Rx,0,8,00,64,02,FF,A0,FF,2B,00,
473508,00000156,false,Rx,0,6,FF,FF,FF,05,FF,40,00,00,
473731,0000019F,false,Rx,0,8,00,00,7D,0C,00,6A,88,4E,
473955,000001A1,false,Rx,0,6,00,05,88,26,00,00,00,00,
474161,00000436,false,Rx,0,6,00,2F,08,B1,FF,DC,00,00,
474745,00000155,false,Rx,0,8,03,87,CE,54,9C,40,02,C3,
476988,000001C7,false,Rx,0,4,AA,A0,FF,C0,00,00,00,00,
478295,00000157,false,Rx,0,7,D5,F6,09,C4,00,00,00,00,
483297,00000196,false,Rx,0,8,00,64,02,FF,A0,FF,2B,00,
483498,00000156,false,Rx,0,6,FF,FF,FF,05,FF,40,00,00,
483726,00000155,false,Rx,0,8,03,87,CE,54,9C,40,02,C3,
483978,0000019F,false,Rx,0,8,00,00,7D,01,00,6A,88,4E,
484220,000001A1,false,Rx,0,6,00,05,88,26,00,00,00,00,
486996,000001C7,false,Rx,0,4,AA,A0,FF,C0,00,00,00,00,
489071,00000157,false,Rx,0,7,D5,46,09,C4,00,00,00,00,
492571,00000155,false,Rx,0,8,03,87,CE,54,9C,40,02,C3,
493322,00000156,false,Rx,0,6,FF,FF,FF,05,FF,40,00,00,
493574,00000196,false,Rx,0,8,00,64,02,FF,A0,FF,2B,00,
493801,0000019F,false,Rx,0,8,00,00,7D,06,00,6A,88,4E,
494003,000001A1,false,Rx,0,6,00,05,88,26,00,00,00,00,
496996,000001C7,false,Rx,0,4,AA,A0,FF,C0,00,00,00,00,
498294,00000157,false,Rx,0,7,D5,96,09,C4,00,00,00,00,
503341,00000156,false,Rx,0,6,FF,FF,FF,05,FF,40,00,00,
503559,00000196,false,Rx,0,8,00,64,02,FF,A0,FF,2B,00,
503806,0000019F,false,Rx,0,8,00,00,7D,0B,00,6A,88,4E,
504002,000001A1,false,Rx,0,6,00,05,88,26,00,00,00,00,
504236,00000422,false,Rx,0,8,00,00,3B,4F,00,A8,01,3B,
504461,00000155,false,Rx,0,8,03,87,CE,54,9C,40,02,C3,
504660,0000042C,false,Rx,0,5,00,00,3F,40,DB,00,00,00,
504877,00000511,false,Rx,0,7,04,FE,50,E8,88,5E,09,00,
506981,000001C7,false,Rx,0,4,AA,A0,FF,C0,00,00,00,00,
509107,00000157,false,Rx,0,7,D5,E6,09,C4,00,00,00,00,
513333,00000196,false,Rx,0,8,00,64,02,FF,A0,FF,2B,00,
513552,00000155,false,Rx,0,8,03,87,CE,54,9C,40,02,C3,
513761,00000156,false,Rx,0,6,FF,FF,FF,05,FF,40,00,00,
514010,0000019F,false,Rx,0,8,00,00,7D,00,00,6A,88,4E,
514257,000001A1,false,Rx,0,6,00,05,88,26,00,00,00,00,
517035,000001C7,false,Rx,0,4,AA,A0,FF,C0,00,00,00,00,
518306,00000157,false,Rx,0,7,D5,36,09,C4,00,00,00,00,
522311,00000155,false,Rx,0,8,03,87,CE,54,9C,40,02,C3,
523328,00000196,false,Rx,0,8,00,64,02,FF,A0,FF,2B,00,
523510,00000156,false,Rx,0,6,FF,FF,FF,05,FF,40,00,00,
523723,0000019F,false,Rx,0,8,00,00,7D,05,00,6A,88,4E,
523961,000001A1,false,Rx,0,6,00,05,88,26,00,00,00,00,
524262,00000424,false,Rx,0,8,11,40,02,10,3D,64,AA,3E,
524444,00000425,false,Rx,0,8,11,BB,44,9C,42,1A,CD,0C,
524539,000004AF,false,Rx,0,5,65,3B,4B,3A,40,00,00,00,
527027,000001C7,false,Rx,0,4,AA,A0,FF,C0,00,00,00,00,
529079,00000157,false,Rx,0,7,D5,86,09,C4,00,00,00,00,
533460,00000196,false,Rx,0,8,00,64,02,FF,A0,FF,2B,00,
533661,00000156,false,Rx,0,6,FF,FF,FF,05,FF,40,00,00,
533888,0000019F,false,Rx,0,8,00,00,7D,0A,00,6A,88,4E,
534045,000001A1,false,Rx,0,6,00,05,88,26,00,00,00,00,
534333,00000155,false,Rx,0,8,03,87,CE,54,9C,40,02,C3,
537034,000001C7,false,Rx,0,4,AA,A0,FF,C0,00,00,00,00,
538224,00000157,false,Rx,0,7,D5,D6,09,C4,00,00,00,00,
538481,00000423,false,Rx,0,8,07,1E,FF,FD,5D,A0,B2,C1,
543135,00000155,false,Rx,0,8,03,87,CE,54,9C,40,02,C3,
543339,00000156,false,Rx,0,6,FF,FF,FF,05,FF,40,00,00,
543567,00000196,false,Rx,0,8,00,64,02,FF,A0,FF,2B,00,
543818,0000019F,false,Rx,0,8,00,00,7D,0F,00,6A,88,4E,
544020,000001A1,false,Rx,0,6,00,05,88,26,00,00,00,00,
547034,000001C7,false,Rx,0,4,AA,A0,FF,C0,00,00,00,00,
549209,00000157,false,Rx,0,7,D5,26,09,C4,00,00,00,00,
552055,00000155,false,Rx,0,8,03,87,CE,54,9C,40,02,C3,
553293,00000196,false,Rx,0,8,00,64,02,FF,A0,FF,2B,00,
553485,00000156,false,Rx,0,6,FF,FF,FF,05,FF,40,00,00,
553733,0000019F,false,Rx,0,8,00,00,7D,04,00,6A,88,4E,
553932,000001A1,false,Rx,0,6,00,05,88,26,00,00,00,00,
554103,00000435,false,Rx,0,4,FF,FF,1E,00,00,00,00,00,
556987,000001C7,false,Rx,0,4,AA,A0,FF,C0,00,00,00,00,
558286,00000157,false,Rx,0,7,D5,76,09,C4,00,00,00,00,
563300,00000196,false,Rx,0,8,00,64,02,FF,A0,FF,2B,00,
563509,00000156,false,Rx,0,6,FF,FF,FF,05,FF,40,00,00,
563759,0000019F,false,Rx,0,8,00,00,7D,09,00,6A,88,4E,
563987,00000155,false,Rx,0,8,03,87,CE,54,9C,40,02,C3,
564191,000001A1,false,Rx,0,6,00,05,88,26,00,00,00,00,
564429,00000426,false,Rx,0,8,00,10,02,01,04,16,00,40,
567068,000004F7,false,Rx,0,8,00,1F,08,00,B0,48,06,F0,
567342,000001C7,false,Rx,0,4,AA,A0,FF,C0,00,00,00,00,
569500,00000157,false,Rx,0,7,D5,C6,09,C4,00,00,00,00,
572097,00000428,false,Rx,0,8,00,00,00,7F,00,00,00,00,
572240,0000042F,false,Rx,0,2,00,20,00,00,00,00,00,00,
572870,00000155,false,Rx,0,8,03,87,CE,54,9C,40,02,C3,
573335,00000196,false,Rx,0,8,00,64,02,FF,A0,FF,2B,00,
573538,00000156,false,Rx,0,6,FF,FF,FF,05,FF,40,00,00,
573792,0000019F,false,Rx,0,8,00,00,7D,0E,00,6A,88,4E,
573980,000001A1,false,Rx,0,6,00,05,88,26,00,00,00,00,
574141,00000436,false,Rx,0,6,00,2F,08,B1,FF,DC,00,00,
576993,000001C7,false,Rx,0,4,AA,A0,FF,C0,00,00,00,00,
578239,00000157,false,Rx,0,7,D5,16,09,C4,00,00,00,00,
581777,00000155,false,Rx,0,8,03,87,CE,54,9C,40,02,C3,
583489,00000156,false,Rx,0,6,FF,FF,FF,05,FF,40,00,00,
583554,00000196,false,Rx,0,8,00,64,02,FF,A0,FF,2B,00,
583999,0000019F,false,Rx,0,8,00,00,7D,03,00,6A,88,4E,
584006,000001A1,false,Rx,0,6,00,05,8A,26,00,00,00,00,
587273,000001C7,false,Rx,0,4,AA,A0,FF,C0,00,00,00,00,
589325,00000157,false,Rx,0,7,D5,66,09,C4,00,00,00,00,
593391,00000156,false,Rx,0,6,FF,FF,FF,05,FF,40,00,00,
593542,00000196,false,Rx,0,8,00,64,02,FF,A0,FF,2B,00,
593912,00000155,false,Rx,0,8,03,87,CE,54,9C,40,02,C3,
594026,0000019F,false,Rx,0,8,00,00,7D,08,00,6A,88,4E,
594230,000001A1,false,Rx,0,6,00,05,8A,26,00,00,00,00,
597166,000001C7,false,Rx,0,4,AA,A0,FF,C0,00,00,00,00,
598316,00000157,false,Rx,0,7,D5,B6,09,C4,00,00,00,00,
602793,00000155,false,Rx,0,8,03,87,CE,54,9C,40,02,C3,
603526,00000196,false,Rx,0,8,00,64,02,FF,A0,FF,2B,00,
603535,00000156,false,Rx,0,6,FF,FF,FF,05,FF,40,00,00,
603763,0000019F,false,Rx,0,8,00,00,7D,0D,00,6A,88,4E,
603984,000001A1,false,Rx,0,6,00,05,8A,26,00,00,00,00,
604213,00000422,false,Rx,0,8,00,00,3B,4F,00,A8,01,3B,
604381,0000042C,false,Rx,0,5,00,00,3F,40,DB,00,00,00,
604620,00000511,false,Rx,0,7,04,3D,19,A1,F3,6B,EC,00,
607281,000001C7,false,Rx,0,4,AA,A0,FF,C0,00,00,00,00,
609297,00000157,false,Rx,0,7,D5,06,09,C4,00,00,00,00,
611651,00000155,false,Rx,0,8,03,87,CE,54,9C,40,02,C3,
613473,00000196,false,Rx,0,8,00,64,02,FF,A0,FF,2B,00,
613481,00000156,false,Rx,0,6,FF,FF,FF,05,FF,40,00,00,
613802,0000019F,false,Rx,0,8,00,00,7D,02,00,6A,88,4E,
613970,000001A1,false,Rx,0,6,00,05,8A,26,00,00,00,00,
617225,000001C7,false,Rx,0,4,AA,A0,FF,C0,00,00,00,00,
618434,00000157,false,Rx,0,7,D5,56,09,C4,00,00,00,00,
621633,00000424,false,Rx,0,8,11,40,02,10,3D,64,55,3E,
621643,00000425,false,Rx,0,8,11,BB,44,9C,42,1A,CD,0C,
621760,000004AF,false,Rx,0,5,65,3B,4B,3A,40,00,00,00,
623599,00000155,false,Rx,0,8,03,87,CE,54,9C,40,02,C3,
623608,00000156,false,Rx,0,6,FF,FF,FF,05,FF,40,00,00,
623837,00000196,false,Rx,0,8,00,64,02,FF,A0,FF,2B,00,
624116,0000019F,false,Rx,0,8,00,00,7D,07,00,6A,88,4E,
624237,000001A1,false,Rx,0,6,00,05,88,26,00,00,00,00,
627273,000001C7,false,Rx,0,4,AA,A0,FF,C0,00,00,00,00,
629303,00000157,false,Rx,0,7,D5,A6,09,C4,00,00,00,00,
632498,00000155,false,Rx,0,8,03,87,CE,54,9C,40,02,C3,
633601,00000156,false,Rx,0,6,FF,FF,FF,05,FF,40,00,00,
633609,00000196,false,Rx,0,8,00,64,02,FF,A0,FF,2B,00,
633900,0000019F,false,Rx,0,8,00,00,7D,0C,00,6A,88,4E,
634009,000001A1,false,Rx,0,6,00,05,88,26,00,00,00,00,
637251,000001C7,false,Rx,0,4,AA,A0,FF,C0,00,00,00,00,
638322,00000157,false,Rx,0,7,D5,F6,09,C4,00,00,00,00,
638550,00000423,false,Rx,0,8,07,1E,FF,FD,5D,A0,B2,C1,
641244,00000155,false,Rx,0,8,03,87,CE,54,9C,40,02,C3,
643347,00000196,false,Rx,0,8,00,64,02,FF,A0,FF,2B,00,
643460,00000156,false,Rx,0,6,FF,FF,FF,05,FF,40,00,00,
643891,0000019F,false,Rx,0,8,00,00,7D,01,00,6A,88,4E,
643908,000001A1,false,Rx,0,6,00,05,88,26,00,00,00,00,
647219,000001C7,false,Rx,0,4,AA,A0,FF,C0,00,00,00,00,
649292,00000157,false,Rx,0,7,D5,46,09,C4,00,00,00,00,
653113,00000155,false,Rx,0,8,03,87,CE,54,9C,40,02,C3,
653282,00000156,false,Rx,0,6,FF,FF,FF,05,FF,40,00,00,
653678,00000196,false,Rx,0,8,00,64,02,FF,A0,FF,2B,00,
653753,0000019F,false,Rx,0,8,00,00,7D,06,00,6A,88,4E,
654124,000001A1,false,Rx,0,6,00,05,88,26,00,00,00,00,
654130,00000435,false,Rx,0,4,FF,FF,1E,00,00,00,00,00,
657179,000001C7,false,Rx,0,4,AA,A0,FF,C0,00,00,00,00,
658251,00000157,false,Rx,0,7,D5,96,09,C4,00,00,00,00,
662043,00000155,false,Rx,0,8,03,87,CE,54,9C,40,02,C3,
663649,00000196,false,Rx,0,8,00,64,02,FF,A0,FF,2B,00,
663658,00000156,false,Rx,0,6,FF,FF,FF,05,FF,40,00,00,
663864,0000019F,false,Rx,0,8,00,00,7D,0B,00,6A,88,4E,
664080,000001A1,false,Rx,0,6,00,05,8A,26,00,00,00,00,
664347,00000426,false,Rx,0,8,00,10,02,01,04,16,00,40,
667354,000004F7,false,Rx,0,8,00,1F,08,00,B0,48,06,F0,
667364,000001C7,false,Rx,0,4,AA,A0,FF,C0,00,00,00,00,
669480,00000157,false,Rx,0,7,D5,E6,09,C4,00,00,00,00,
671153,00000155,false,Rx,0,8,03,87,CE,54,9C,40,02,C3,
672351,00000428,false,Rx,0,8,00,00,00,7F,00,00,00,00,
672360,0000042F,false,Rx,0,2,00,20,00,00,00,00,00,00,
673364,00000156,false,Rx,0,6,FF,FF,FF,05,FF,40,00,00,
673611,00000196,false,Rx,0,8,00,64,02,FF,A0,FF,2B,00,
673876,0000019F,false,Rx,0,8,00,00,7D,00,00,6A,88,4E,
674000,000001A1,false,Rx,0,6,00,05,8A,26,00,00,00,00,
674220,00000436,false,Rx,0,6,00,2F,08,B1,FF,DC,00,00,
677186,000001C7,false,Rx,0,4,AA,A0,FF,C0,00,00,00,00,
678252,00000157,false,Rx,0,7,D5,36,09,C4,00,00,00,00,
683052,00000155,false,Rx,0,8,03,87,CE,54,9C,40,02,C3,
683306,00000196,false,Rx,0,8,00,64,02,FF,A0,FF,2B,00,
683509,00000156,false,Rx,0,6,FF,FF,FF,05,FF,40,00,00,
683787,0000019F,false,Rx,0,8,00,00,7D,05,00,6A,88,4E,
683938,000001A1,false,Rx,0,6,00,05,8A,26,00,00,00,00,
687278,000001C7,false,Rx,0,4,AA,A0,FF,C0,00,00,00,00,
689209,00000157,false,Rx,0,7,D5,86,09,C4,00,00,00,00,
691927,00000155,false,Rx,0,8,03,87,CE,54,9C,40,02,C3,
693382,00000196,false,Rx,0,8,00,64,02,FF,A0,FF,2B,00,
693519,00000156,false,Rx,0,6,FF,FF,FF,05,FF,40,00,00,
693726,0000019F,false,Rx,0,8,00,00,7D,0A,00,6A,88,4E,
693927,000001A1,false,Rx,0,6,00,05,8A,26,00,00,00,00,
697226,000001C7,false,Rx,0,4,AA,A0,FF,C0,00,00,00,00,
698061,0000069F,false,Rx,0,4,88,73,00,2F,00,00,00,00,
698255,00000157,false,Rx,0,7,D5,D6,09,C4,00,00,00,00,
700647,00000155,false,Rx,0,8,03,87,CE,54,9C,40,02,C3,
703458,00000196,false,Rx,0,8,00,64,02,FF,A0,FF,2B,00,
703465,00000156,false,Rx,0,6,FF,FF,FF,05,FF,40,00,00,
703768,0000019F,false,Rx,0,8,00,00,7D,0F,00,6A,88,4E,
703922,000001A1,false,Rx,0,6,00,05,88,26,00,00,00,00,
704267,00000422,false,Rx,0,8,00,00,3B,4F,00,A8,01,3B,
704403,0000042C,false,Rx,0,5,00,00,3F,40,DB,00,00,00,
704591,00000511,false,Rx,0,7,04,7C,E2,5A,5E,78,CF,00,
707015,000001C7,false,Rx,0,4,AA,A0,FF,C0,00,00,00,00,
709085,00000157,false,Rx,0,7,D5,26,09,C4,00,00,00,00,
712553,00000155,false,Rx,0,8,03,87,CE,54,9C,40,02,C3,
713354,00000156,false,Rx,0,6,FF,FF,FF,05,FF,40,00,00,
713544,00000196,false,Rx,0,8,00,64,02,FF,A0,FF,2B,00,
713822,0000019F,false,Rx,0,8,00,00,7D,04,00,6A,88,4E,
714017,000001A1,false,Rx,0,6,00,05,88,26,00,00,00,00,
717072,000001C7,false,Rx,0,4,AA,A0,FF,C0,00,00,00,00,
718320,00000157,false,Rx,0,7,D5,76,09,C4,00,00,00,00,
720478,000004AE,false,Rx,0,8,D2,B2,3C,A0,92,5A,88,84,
720650,00000659,false,Rx,0,4,26,00,03,36,00,00,00,00,
721476,00000155,false,Rx,0,8,03,87,CE,54,9C,40,02,C3,
722476,00000424,false,Rx,0,8,11,40,02,10,3D,64,AA,3E,
722697,00000425,false,Rx,0,8,11,BB,44,9C,42,1A,CD,0C,
722873,000004AF,false,Rx,0,5,65,3B,4B,3A,40,00,00,00,
723379,00000156,false,Rx,0,6,FF,FF,FF,05,FF,40,00,00,
723584,00000196,false,Rx,0,8,00,64,02,FF,A0,FF,2B,00,
723854,0000019F,false,Rx,0,8,00,00,7D,09,00,6A,88,4E,
724042,000001A1,false,Rx,0,6,00,05,8A,26,00,00,00,00,
727077,000001C7,false,Rx,0,4,AA,A0,FF,C0,00,00,00,00,
729102,00000157,false,Rx,0,7,D5,C6,09,C4,00,00,00,00,
730402,00000155,false,Rx,0,8,03,87,CE,54,9C,40,02,C3,
733301,00000196,false,Rx,0,8,00,64,02,FF,A0,FF,2B,00,
733499,00000156,false,Rx,0,6,FF,FF,FF,05,FF,40,00,00,
733753,0000019F,false,Rx,0,8,00,00,7D,0E,00,6A,88,4E,
733944,000001A1,false,Rx,0,6,00,05,8A,26,00,00,00,00,
737077,000001C7,false,Rx,0,4,AA,A0,FF,C0,00,00,00,00,
738280,00000157,false,Rx,0,7,D5,16,09,C4,00,00,00,00,
738525,00000423,false,Rx,0,8,07,1E,FF,FD,5D,A0,B2,C1,
742301,00000155,false,Rx,0,8,03,87,CE,54,9C,40,02,C3,
743303,00000196,false,Rx,0,8,00,64,02,FF,A0,FF,2B,00,
743498,00000156,false,Rx,0,6,FF,FF,FF,05,FF,40,00,00,
743746,0000019F,false,Rx,0,8,00,00,7D,03,00,6A,88,4E,
743945,000001A1,false,Rx,0,6,00,05,88,26,00,00,00,00,
747078,000001C7,false,Rx,0,4,AA,A0,FF,C0,00,00,00,00,
748951,00000157,false,Rx,0,7,D5,66,09,C4,00,00,00,00,
751220,00000155,false,Rx,0,8,03,87,CE,54,9C,40,02,C3,
753298,00000156,false,Rx,0,6,FF,FF,FF,05,FF,40,00,00,
753511,00000196,false,Rx,0,8,00,64,02,FF,A0,FF,2B,00,
753758,0000019F,false,Rx,0,8,00,00,7D,08,00,6A,88,4E,
753954,000001A1,false,Rx,0,6,00,05,88,26,00,00,00,00,
754128,00000435,false,Rx,0,4,FF,FF,1E,00,00,00,00,00,
757040,000001C7,false,Rx,0,4,AA,A0,FF,C0,00,00,00,00,
758213,00000157,false,Rx,0,7,D5,B6,09,C4,00,00,00,00,
760094,00000155,false,Rx,0,8,03,87,CE,54,9C,40,02,C3,
763312,00000156,false,Rx,0,6,FF,FF,FF,05,FF,40,00,00,
763556,00000196,false,Rx,0,8,00,64,02,FF,A0,FF,2B,00,
763778,0000019F,false,Rx,0,8,00,00,7D,0D,00,6A,88,4E,
763975,000001A1,false,Rx,0,6,00,05,88,26,00,00,00,00,
764232,00000426,false,Rx,0,8,00,10,02,01,04,16,00,40,
767115,000004F7,false,Rx,0,8,00,1F,08,00,B0,48,06,F0,
767284,000001C7,false,Rx,0,4,AA,A0,FF,C0,00,00,00,00,
769111,00000157,false,Rx,0,7,D5,06,09,C4,00,00,00,00,
771988,00000155,false,Rx,0,8,03,87,CE,54,9C,40,02,C3,
772235,00000428,false,Rx,0,8,00,00,00,7F,00,00,00,00,
772404,0000042F,false,Rx,0,2,00,20,00,00,00,00,00,00,
773233,00000196,false,Rx,0,8,00,64,02,FF,A0,FF,2B,00,
773456,00000156,false,Rx,0,6,FF,FF,FF,05,FF,40,00,00,
773678,0000019F,false,Rx,0,8,00,00,7D,02,00,6A,88,4E,
773900,000001A1,false,Rx,0,6,00,05,8A,26,00,00,00,00,
774097,00000436,false,Rx,0,6,00,2F,08,B1,FF,DC,00,00,
777036,000001C7,false,Rx,0,4,AA,A0,FF,C0,00,00,00,00,
778259,00000157,false,Rx,0,7,D5,56,09,C4,00,00,00,00,
780884,00000155,false,Rx,0,8,03,87,CE,54,9C,40,02,C3,
783236,00000196,false,Rx,0,8,00,64,02,FF,A0,FF,2B,00,
783456,00000156,false,Rx,0,6,FF,FF,FF,05,FF,40,00,00,
783704,0000019F,false,Rx,0,8,00,00,7D,07,00,6A,88,4E,
783900,000001A1,false,Rx,0,6,00,05,8A,26,00,00,00,00,
787034,000001C7,false,Rx,0,4,AA,A0,FF,C0,00,00,00,00,
789134,00000157,false,Rx,0,7,D5,A6,09,C4,00,00,00,00,
789809,00000155,false,Rx,0,8,03,87,CE,54,9C,40,02,C3,
793238,00000196,false,Rx,0,8,00,64,02,FF,A0,FF,2B,00,
793456,00000156,false,Rx,0,6,FF,FF,FF,05,FF,40,00,00,
793704,0000019F,false,Rx,0,8,00,00,7D,0C,00,6A,88,4E,
793900,000001A1,false,Rx,0,6,00,05,88,26,00,00,00,00,
797035,000001C7,false,Rx,0,4,AA,A0,FF,C0,00,00,00,00,
798257,00000157,false,Rx,0,7,D5,F6,09,C4,00,00,00,00,
798728,00000155,false,Rx,0,8,03,87,CE,54,9C,40,02,C3,
803334,00000156,false,Rx,0,6,FF,FF,FF,05,FF,40,00,00,
803562,00000196,false,Rx,0,8,00,64,02,FF,A0,FF,2B,00,
803810,0000019F,false,Rx,0,8,00,00,7D,01,00,6A,88,4E,
804006,000001A1,false,Rx,0,6,00,05,88,26,00,00,00,00,
804236,00000422,false,Rx,0,8,00,00,3B,4F,00,A8,01,3B,
804436,0000042C,false,Rx,0,5,00,00,3F,40,DB,00,00,00,
804633,00000511,false,Rx,0,7,04,BB,AB,13,C9,85,B2,00,
807040,000001C7,false,Rx,0,4,AA,A0,FF,C0,00,00,00,00,
809115,00000157,false,Rx,0,7,D5,46,09,C4,00,00,00,00,
810615,00000155,false,Rx,0,8,03,87,CE,54,9C,40,02,C3,
813354,00000156,false,Rx,0,6,FF,FF,FF,05,FF,40,00,00,
813576,00000196,false,Rx,0,8,00,64,02,FF,A0,FF,2B,00,
813820,0000019F,false,Rx,0,8,00,00,7D,06,00,6A,88,4E,
814018,000001A1,false,Rx,0,6,00,05,88,26,00,00,00,00,
817108,000001C7,false,Rx,0,4,AA,A0,FF,C0,00,00,00,00,
818279,00000157,false,Rx,0,7,D5,96,09,C4,00,00,00,00,
819753,00000155,false,Rx,0,8,03,87,CE,54,9C,40,02,C3,
820659,00000424,false,Rx,0,8,11,40,02,10,3D,64,55,3E,
820743,00000425,false,Rx,0,8,11,BB,44,9C,42,1A,CD,0C,
821062,000004AF,false,Rx,0,5,65,3B,4B,3A,40,00,00,00,
823450,00000196,false,Rx,0,8,00,64,02,FF,A0,FF,2B,00,
823457,00000156,false,Rx,0,6,FF,FF,FF,05,FF,40,00,00,
823758,0000019F,false,Rx,0,8,00,00,7D,0B,00,6A,88,4E,
823891,000001A1,false,Rx,0,6,00,05,88,26,00,00,00,00,
827094,000001C7,false,Rx,0,4,AA,A0,FF,C0,00,00,00,00,
828501,00000155,false,Rx,0,8,03,87,CE,54,9C,40,02,C3,
828973,00000157,false,Rx,0,7,D5,E6,09,C4,00,00,00,00,
833453,00000196,false,Rx,0,8,00,64,02,FF,A0,FF,2B,00,
833460,00000156,false,Rx,0,6,FF,FF,FF,05,FF,40,00,00,
833793,0000019F,false,Rx,0,8,00,00,7D,00,00,6A,88,4E,
833895,000001A1,false,Rx,0,6,00,05,88,26,00,00,00,00,
837257,000001C7,false,Rx,0,4,AA,A0,FF,C0,00,00,00,00,
838353,00000157,false,Rx,0,7,D5,36,09,C4,00,00,00,00,
838600,00000423,false,Rx,0,8,07,1E,FF,FD,5D,A0,B2,C1,
840402,00000155,false,Rx,0,8,03,87,CE,54,9C,40,02,C3,
843585,00000196,false,Rx,0,8,00,64,02,FF,A0,FF,2B,00,
843592,00000156,false,Rx,0,6,FF,FF,FF,05,FF,40,00,00,
843818,0000019F,false,Rx,0,8,00,00,7D,05,00,6A,88,4E,
844022,000001A1,false,Rx,0,6,00,05,88,26,00,00,00,00,
847192,000001C7,false,Rx,0,4,AA,A0,FF,C0,00,00,00,00,
849109,00000157,false,Rx,0,7,D5,86,09,C4,00,00,00,00,
849301,00000155,false,Rx,0,8,03,87,CE,54,9C,40,02,C3,
853534,00000156,false,Rx,0,6,FF,FF,FF,05,FF,40,00,00,
853542,00000196,false,Rx,0,8,00,64,02,FF,A0,FF,2B,00,
853882,0000019F,false,Rx,0,8,00,00,7D,0A,00,6A,88,4E,
853986,000001A1,false,Rx,0,6,00,05,88,26,00,00,00,00,
854161,00000435,false,Rx,0,4,FF,FF,1E,00,00,00,00,00,
857046,000001C7,false,Rx,0,4,AA,A0,FF,C0,00,00,00,00,
858266,00000155,false,Rx,0,8,03,87,CE,54,9C,40,02,C3,
858417,00000157,false,Rx,0,7,D5,D6,09,C4,00,00,00,00,
863367,00000196,false,Rx,0,8,00,64,02,FF,A0,FF,2B,00,
863435,00000156,false,Rx,0,6,FF,FF,FF,05,FF,40,00,00,
863726,0000019F,false,Rx,0,8,00,00,7D,0F,00,6A,88,4E,
863959,000001A1,false,Rx,0,6,00,05,88,26,00,00,00,00,
864190,00000426,false,Rx,0,8,00,10,02,01,04,16,00,40,
867352,000004F7,false,Rx,0,8,00,1F,08,00,B0,48,06,F0,
867359,000001C7,false,Rx,0,4,AA,A0,FF,C0,00,00,00,00,
869251,00000157,false,Rx,0,7,D5,26,09,C4,00,00,00,00,
870092,00000155,false,Rx,0,8,03,87,CE,54,9C,40,02,C3,
872261,00000428,false,Rx,0,8,00,00,00,7F,00,00,00,00,
872268,0000042F,false,Rx,0,2,00,20,00,00,00,00,00,00,
873311,00000196,false,Rx,0,8,00,64,02,FF,A0,FF,2B,00,
873442,00000156,false,Rx,0,6,FF,FF,FF,05,FF,40,00,00,
873807,0000019F,false,Rx,0,8,00,00,7D,04,00,6A,88,4E,
873890,000001A1,false,Rx,0,6,00,05,8A,26,00,00,00,00,
874212,00000436,false,Rx,0,6,00,2F,08,B1,FF,DC,00,00,
877225,000001C7,false,Rx,0,4,AA,A0,FF,C0,00,00,00,00,
878265,00000157,false,Rx,0,7,D5,76,09,C4,00,00,00,00,
879145,00000155,false,Rx,0,8,03,87,CE,54,9C,40,02,C3,
883371,00000196,false,Rx,0,8,00,64,02,FF,A0,FF,2B,00,
883558,00000156,false,Rx,0,6,FF,FF,FF,05,FF,40,00,00,
883863,0000019F,false,Rx,0,8,00,00,7D,09,00,6A,88,4E,
884038,000001A1,false,Rx,0,6,00,05,8A,26,00,00,00,00,
887276,000001C7,false,Rx,0,4,AA,A0,FF,C0,00,00,00,00,
888127,00000155,false,Rx,0,8,03,87,CE,54,9C,40,02,C3,
889229,00000157,false,Rx,0,7,D5,C6,09,C4,00,00,00,00,
893415,00000196,false,Rx,0,8,00,64,02,FF,A0,FF,2B,00,
893562,00000156,false,Rx,0,6,FF,FF,FF,05,FF,40,00,00,
893844,0000019F,false,Rx,0,8,00,00,7D,0E,00,6A,88,4E,
894049,000001A1,false,Rx,0,6,00,05,88,26,00,00,00,00,
897195,000001C7,false,Rx,0,4,AA,A0,FF,C0,00,00,00,00,
898272,00000157,false,Rx,0,7,D5,16,09,C4,00,00,00,00,
900003,00000155,false,Rx,0,8,03,87,CE,54,9C,40,02,C3,
903452,00000196,false,Rx,0,8,00,64,02,FF,A0,FF,2B,00,
903459,00000156,false,Rx,0,6,FF,FF,FF,05,FF,40,00,00,
903735,0000019F,false,Rx,0,8,00,00,7D,03,00,6A,88,4E,
903911,000001A1,false,Rx,0,6,00,05,88,26,00,00,00,00,
904191,00000422,false,Rx,0,8,00,00,3B,4F,00,A8,01,3B,
904337,0000042C,false,Rx,0,5,00,00,3F,40,DB,00,00,00,
904591,00000511,false,Rx,0,7,04,FA,74,CC,34,92,95,00,
907214,000001C7,false,Rx,0,4,AA,A0,FF,C0,00,00,00,00,
908880,00000155,false,Rx,0,8,03,87,CE,54,9C,40,02,C3,
909068,00000157,false,Rx,0,7,D5,66,09,C4,00,00,00,00,
913376,00000196,false,Rx,0,8,00,64,02,FF,A0,FF,2B,00,
913484,00000156,false,Rx,0,6,FF,FF,FF,05,FF,40,00,00,
913771,0000019F,false,Rx,0,8,00,00,7D,08,00,6A,88,4E,
913921,000001A1,false,Rx,0,6,00,05,88,26,00,00,00,00,
917295,000001C7,false,Rx,0,4,AA,A0,FF,C0,00,00,00,00,
917735,00000155,false,Rx,0,8,03,87,CE,54,9C,40,02,C3,
918238,00000157,false,Rx,0,7,D5,B6,09,C4,00,00,00,00,
918823,00000424,false,Rx,0,8,11,40,02,10,3D,64,AA,3E,
918836,00000425,false,Rx,0,8,11,BB,44,9C,42,1A,CD,0C,
919059,000004AF,false,Rx,0,5,65,3B,4B,3A,40,00,00,00,
923238,00000196,false,Rx,0,8,00,64,02,FF,A0,FF,2B,00,
923517,00000156,false,Rx,0,6,FF,FF,FF,05,FF,40,00,00,
923703,0000019F,false,Rx,0,8,00,00,7D,0D,00,6A,88,4E,
923897,000001A1,false,Rx,0,6,00,05,88,26,00,00,00,00,
927226,000001C7,false,Rx,0,4,AA,A0,FF,C0,00,00,00,00,
929230,00000157,false,Rx,0,7,D5,06,09,C4,00,00,00,00,
929571,00000155,false,Rx,0,8,03,87,CE,54,9C,40,02,C3,
933477,00000156,false,Rx,0,6,FF,FF,FF,05,FF,40,00,00,
933514,00000196,false,Rx,0,8,00,64,02,FF,A0,FF,2B,00,
933834,0000019F,false,Rx,0,8,00,00,7D,02,00,6A,88,4E,
934041,000001A1,false,Rx,0,6,00,05,88,26,00,00,00,00,
937192,000001C7,false,Rx,0,4,AA,A0,FF,C0,00,00,00,00,
938362,00000157,false,Rx,0,7,D5,56,09,C4,00,00,00,00,
938527,00000155,false,Rx,0,8,03,87,CE,54,9C,40,02,C3,
938770,00000423,false,Rx,0,8,07,1E,FF,FD,B2,A0,B2,C1,
943361,00000156,false,Rx,0,6,FF,FF,FF,05,FF,40,00,00,
943578,00000196,false,Rx,0,8,00,64,02,FF,A0,FF,2B,00,
943809,0000019F,false,Rx,0,8,00,00,7D,07,00,6A,88,4E,
944063,000001A1,false,Rx,0,6,00,05,8A,26,00,00,00,00,
947279,000001C7,false,Rx,0,4,AA,A0,FF,C0,00,00,00,00,
947384,00000155,false,Rx,0,8,03,87,CE,54,9C,40,02,C3,
949156,00000157,false,Rx,0,7,D5,A6,09,C4,00,00,00,00,
953433,00000196,false,Rx,0,8,00,64,02,FF,A0,FF,2B,00,
953441,00000156,false,Rx,0,6,FF,FF,FF,05,FF,40,00,00,
953745,0000019F,false,Rx,0,8,00,00,7D,0C,00,6A,88,4E,
953909,000001A1,false,Rx,0,6,00,05,8A,26,00,00,00,00,
954052,00000435,false,Rx,0,4,FF,FF,1E,00,00,00,00,00,
957162,000001C7,false,Rx,0,4,AA,A0,FF,C0,00,00,00,00,
958327,00000157,false,Rx,0,7,D5,F6,09,C4,00,00,00,00,
959252,00000155,false,Rx,0,8,03,87,CE,54,9C,40,02,C3,
963258,00000196,false,Rx,0,8,00,64,02,FF,A0,FF,2B,00,
963451,00000156,false,Rx,0,6,FF,FF,FF,05,FF,40,00,00,
963697,0000019F,false,Rx,0,8,00,00,7D,01,00,6A,88,4E,
963894,000001A1,false,Rx,0,6,00,05,8A,26,00,00,00,00,
964142,00000426,false,Rx,0,8,00,10,02,01,04,16,00,40,
967213,000004F7,false,Rx,0,8,00,1F,08,00,B0,48,06,F0,
967324,000001C7,false,Rx,0,4,AA,A0,FF,C0,00,00,00,00,
968185,00000155,false,Rx,0,8,03,87,CE,54,9C,40,02,C3,
969213,00000157,false,Rx,0,7,D5,46,09,C4,00,00,00,00,
972214,00000428,false,Rx,0,8,00,00,00,7F,00,00,00,00,
972323,0000042F,false,Rx,0,2,00,20,00,00,00,00,00,00,
973315,00000156,false,Rx,0,6,FF,FF,FF,05,FF,40,00,00,
973542,00000196,false,Rx,0,8,00,64,02,FF,A0,FF,2B,00,
973776,0000019F,false,Rx,0,8,00,00,7D,06,00,6A,88,4E,
973955,000001A1,false,Rx,0,6,00,05,8A,26,00,00,00,00,
974163,00000436,false,Rx,0,6,00,2F,08,B1,FF,DC,00,00,
977107,00000155,false,Rx,0,8,03,87,CE,54,9C,40,02,C3,
977223,000001C7,false,Rx,0,4,AA,A0,FF,C0,00,00,00,00,
978314,00000157,false,Rx,0,7,D5,96,09,C4,00,00,00,00,
983307,00000156,false,Rx,0,6,FF,FF,FF,05,FF,40,00,00,
983535,00000196,false,Rx,0,8,00,64,02,FF,A0,FF,2B,00,
983793,0000019F,false,Rx,0,8,00,00,7D,0B,00,6A,88,4E,
983995,000001A1,false,Rx,0,6,00,05,88,26,00,00,00,00,
987130,000001C7,false,Rx,0,4,AA,A0,FF,C0,00,00,00,00,
988980,00000155,false,Rx,0,8,03,87,CE,54,9C,40,02,C3,
989200,00000157,false,Rx,0,7,D5,E6,09,C4,00,00,00,00,
993264,00000196,false,Rx,0,8,00,64,02,FF,A0,FF,2B,00,
993467,00000156,false,Rx,0,6,FF,FF,FF,05,FF,40,00,00,
993693,0000019F,false,Rx,0,8,00,00,7D,00,00,6A,88,4E,
993921,000001A1,false,Rx,0,6,00,05,8A,26,00,00,00,00,
997142,000001C7,false,Rx,0,4,AA,A0,FF,C0,00,00,00,00,
997918,00000155,false,Rx,0,8,03,87,CE,54,9C,40,02,C3,
998338,00000157,false,Rx,0,7,D5,36,09,C4,00,00,00,00,
1003218,00000196,false,Rx,0,8,00,64,02,FF,A0,FF,2B,00,
1003414,00000156,false,Rx,0,6,FF,FF,FF,05,FF,40,00,00,
1003659,0000019F,false,Rx,0,8,00,00,7D,05,00,6A,88,4E,
1003856,000001A1,false,Rx,0,6,00,05,8A,26,00,00,00,00,
1004079,00000422,false,Rx,0,8,00,00,3B,4F,00,A8,01,3B,
1004267,0000042C,false,Rx,0,5,00,00,3F,40,DB,00,00,00,
1004488,00000511,false,Rx,0,7,04,39,3D,85,9F,9F,78,00,
1006792,00000155,false,Rx,0,8,03,87,CE,54,9C,40,02,C3,
1007090,000001C7,false,Rx,0,4,AA,A0,FF,C0,00,00,00,00,
1009015,00000157,false,Rx,0,7,D5,86,09,C4,00,00,00,00,
1013228,00000196,false,Rx,0,8,00,64,02,FF,A0,FF,2B,00,
1013441,00000156,false,Rx,0,6,FF,FF,FF,05,FF,40,00,00,
1013669,0000019F,false,Rx,0,8,00,00,7D,0A,00,6A,88,4E,
1013870,000001A1,false,Rx,0,6,00,05,88,26,00,00,00,00,
1016691,00000424,false,Rx,0,8,11,40,02,10,3D,64,55,3E,
1016915,00000425,false,Rx,0,8,11,BB,44,9C,42,1A,CD,0C,
1017099,000004AF,false,Rx,0,5,65,3B,4B,3A,40,00,00,00,
1017265,000001C7,false,Rx,0,4,AA,A0,FF,C0,00,00,00,00,
1018250,00000157,false,Rx,0,7,D5,D6,09,C4,00,00,00,00,
1018670,00000155,false,Rx,0,8,03,87,CE,54,9C,40,02,C3,
1023289,00000156,false,Rx,0,6,FF,FF,FF,05,FF,40,00,00,
1023506,00000196,false,Rx,0,8,00,64,02,FF,A0,FF,2B,00,
1023753,0000019F,false,Rx,0,8,00,00,7D,0F,00,6A,88,4E,
1023950,000001A1,false,Rx,0,6,00,05,8A,26,00,00,00,00,
1027145,000001C7,false,Rx,0,4,AA,A0,FF,C0,00,00,00,00,
1027645,00000155,false,Rx,0,8,03,87,CE,54,9C,40,02,C3,
1029039,00000157,false,Rx,0,7,D5,26,09,C4,00,00,00,00,
1033317,00000156,false,Rx,0,6,FF,FF,FF,05,FF,40,00,00,
1033568,00000196,false,Rx,0,8,00,64,02,FF,A0,FF,2B,00,
1033795,0000019F,false,Rx,0,8,00,00,7D,04,00,6A,88,4E,
1033986,000001A1,false,Rx,0,6,00,05,8A,26,00,00,00,00,
1036556,00000155,false,Rx,0,8,03,87,CE,54,9C,40,02,C3,
1037158,000001C7,false,Rx,0,4,AA,A0,FF,C0,00,00,00,00,
1038246,00000157,false,Rx,0,7,D5,76,09,C4,00,00,00,00,
1038525,00000423,false,Rx,0,8,07,1E,FF,FD,B2,A0,B2,C1,
1043266,00000196,false,Rx,0,8,00,64,02,FF,A0,FF,2B,00,
1043466,00000156,false,Rx,0,6,FF,FF,FF,05,FF,40,00,00,
1043693,0000019F,false,Rx,0,8,00,00,7D,09,00,6A,88,4E,
1043900,000001A1,false,Rx,0,6,00,05,88,26,00,00,00,00,
1047164,000001C7,false,Rx,0,4,AA,A0,FF,C0,00,00,00,00,
1048439,00000155,false,Rx,0,8,03,87,CE,54,9C,40,02,C3,
1049166,00000157,false,Rx,0,7,D5,C6,09,C4,00,00,00,00,
1053268,00000196,false,Rx,0,8,00,64,02,FF,A0,FF,2B,00,
1053467,00000156,false,Rx,0,6,FF,FF,FF,05,FF,40,00,00,
1053693,0000019F,false,Rx,0,8,00,00,7D,0E,00,6A,88,4E,
1053849,000001A1,false,Rx,0,6,00,05,88,26,00,00,00,00,
1054026,00000435,false,Rx,0,4,FF,FF,1E,00,00,00,00,00,
1057167,000001C7,false,Rx,0,4,AA,A0,FF,C0,00,00,00,00,
1057389,00000155,false,Rx,0,8,03,87,CE,54,9C,40,02,C3,
1058320,00000157,false,Rx,0,7,D5,16,09,C4,00,00,00,00,
1063273,00000156,false,Rx,0,6,FF,FF,FF,05,FF,40,00,00,
1063516,00000196,false,Rx,0,8,00,64,02,FF,A0,FF,2B,00,
1063737,0000019F,false,Rx,0,8,00,00,7D,03,00,6A,88,4E,
1063959,000001A1,false,Rx,0,6,00,05,88,26,00,00,00,00,
1064215,00000426,false,Rx,0,8,00,10,02,01,04,16,00,40,
1066241,00000155,false,Rx,0,8,03,87,CE,54,9C,40,02,C3,
1067217,000004F7,false,Rx,0,8,00,1F,08,00,B0,48,06,F0,
1067361,000001C7,false,Rx,0,4,AA,A0,FF,C0,00,00,00,00,
1069221,00000157,false,Rx,0,7,D5,66,09,C4,00,00,00,00,
1072316,00000428,false,Rx,0,8,00,00,00,7F,00,00,00,00,
1072322,0000042F,false,Rx,0,2,00,20,00,00,00,00,00,00,
1073538,00000156,false,Rx,0,6,FF,FF,FF,05,FF,40,00,00,
1073547,00000196,false,Rx,0,8,00,64,02,FF,A0,FF,2B,00,
1073789,0000019F,false,Rx,0,8,00,00,7D,08,00,6A,88,4E,
1073991,000001A1,false,Rx,0,6,00,05,88,26,00,00,00,00,
1074151,00000436,false,Rx,0,6,00,2F,08,B1,FF,DC,00,00,
1077289,000001C7,false,Rx,0,4,AA,A0,FF,C0,00,00,00,00,
1078146,00000155,false,Rx,0,8,03,87,CE,54,9C,40,02,C3,
1078351,00000157,false,Rx,0,7,D5,B6,09,C4,00,00,00,00,
1083230,00000196,false,Rx,0,8,00,64,02,FF,A0,FF,2B,00,
1083420,00000156,false,Rx,0,6,FF,FF,FF,05,FF,40,00,00,
1083648,0000019F,false,Rx,0,8,00,00,7D,0D,00,6A,88,4E,
1083849,000001A1,false,Rx,0,6,00,05,88,26,00,00,00,00,
1087175,00000155,false,Rx,0,8,03,87,CE,54,9C,40,02,C3,
1087211,000001C7,false,Rx,0,4,AA,A0,FF,C0,00,00,00,00,
1089170,00000157,false,Rx,0,7,D5,06,09,C4,00,00,00,00,
1093477,00000196,false,Rx,0,8,00,64,02,FF,A0,FF,2B,00,
1093486,00000156,false,Rx,0,6,FF,FF,FF,05,FF,40,00,00,
1093649,0000019F,false,Rx,0,8,00,00,7D,02,00,6A,88,4E,
1094002,000001A1,false,Rx,0,6,00,05,88,26,00,00,00,00,
1096079,00000155,false,Rx,0,8,03,87,CE,54,9C,40,02,C3,
1097135,000001C7,false,Rx,0,4,AA,A0,FF,C0,00,00,00,00,
1098249,00000157,false,Rx,0,7,D5,56,09,C4,00,00,00,00,
1103494,00000196,false,Rx,0,8,00,64,02,FF,A0,FF,2B,00,
1103507,00000156,false,Rx,0,6,FF,FF,FF,05,FF,40,00,00,
1103770,0000019F,false,Rx,0,8,00,00,7D,07,00,6A,88,4E,
1104020,000001A1,false,Rx,0,6,00,05,8A,26,00,00,00,00,
1104293,00000422,false,Rx,0,8,00,00,3B,4F,00,A8,01,3B,
1104441,0000042C,false,Rx,0,5,00,00,3F,40,DB,00,00,00,
1104657,00000511,false,Rx,0,7,04,78,06,3E,0A,AC,5B,00,
1107269,000001C7,false,Rx,0,4,AA,A0,FF,C0,00,00,00,00,
1107918,00000155,false,Rx,0,8,03,87,CE,54,9C,40,02,C3,
1109237,00000157,false,Rx,0,7,D5,A6,09,C4,00,00,00,00,
1113386,00000156,false,Rx,0,6,FF,FF,FF,05,FF,40,00,00,
1113570,00000196,false,Rx,0,8,00,64,02,FF,A0,FF,2B,00,
1113936,0000019F,false,Rx,0,8,00,00,7D,0C,00,6A,88,4E,
1113953,000001A1,false,Rx,0,6,00,05,88,26,00,00,00,00,
1116819,00000155,false,Rx,0,8,03,87,CE,54,9C,40,02,C3,
1117281,000001C7,false,Rx,0,4,AA,A0,FF,C0,00,00,00,00,
1117924,00000424,false,Rx,0,8,11,40,02,10,3D,64,AA,3E,
1117963,00000425,false,Rx,0,8,11,BB,44,9C,42,1A,CD,0C,
1118157,000004AF,false,Rx,0,5,65,3B,4B,3A,40,00,00,00,
1118528,00000157,false,Rx,0,7,D5,F6,09,C4,00,00,00,00,
1123479,00000196,false,Rx,0,8,00,64,02,FF,A0,FF,2B,00,
1123487,00000156,false,Rx,0,6,FF,FF,FF,05,FF,40,00,00,
1123709,0000019F,false,Rx,0,8,00,00,7D,01,00,6A,88,4E,
1123884,000001A1,false,Rx,0,6,00,05,88,26,00,00,00,00,
1125952,00000155,false,Rx,0,8,03,87,CE,54,9C,40,02,C3,
1127331,000001C7,false,Rx,0,4,AA,A0,FF,C0,00,00,00,00,
1129229,00000157,false,Rx,0,7,D5,46,09,C4,00,00,00,00,
1133479,00000196,false,Rx,0,8,00,64,02,FF,A0,FF,2B,00,
1133488,00000156,false,Rx,0,6,FF,FF,FF,05,FF,40,00,00,
1133690,0000019F,false,Rx,0,8,00,00,7D,06,00,6A,88,4E,
1133921,000001A1,false,Rx,0,6,00,05,88,26,00,00,00,00,
1137172,000001C7,false,Rx,0,4,AA,A0,FF,C0,00,00,00,00,
1137650,00000155,false,Rx,0,8,03,87,CE,54,9C,40,02,C3,
1138268,00000157,false,Rx,0,7,D5,96,09,C4,00,00,00,00,
1138468,00000423,false,Rx,0,8,07,1E,FF,FD,B2,A0,B2,C1,
1143483,00000196,false,Rx,0,8,00,64,02,FF,A0,FF,2B,00,
1143492,00000156,false,Rx,0,6,FF,FF,FF,05,FF,40,00,00,
1143691,0000019F,false,Rx,0,8,00,00,7D,0B,00,6A,88,4E,
1143918,000001A1,false,Rx,0,6,00,05,88,26,00,00,00,00,
1146700,00000155,false,Rx,0,8,03,87,CE,54,9C,40,02,C3,
1147286,000001C7,false,Rx,0,4,AA,A0,FF,C0,00,00,00,00,
1149281,00000157,false,Rx,0,7,D5,E6,09,C4,00,00,00,00,
1153524,00000156,false,Rx,0,6,FF,FF,FF,05,FF,40,00,00,
1153533,00000196,false,Rx,0,8,00,64,02,FF,A0,FF,2B,00,
1153793,0000019F,false,Rx,0,8,00,00,7D,00,00,6A,88,4E,
1153994,000001A1,false,Rx,0,6,00,05,88,26,00,00,00,00,
1154171,00000435,false,Rx,0,4,FF,FF,1E,00,00,00,00,00,
1155655,00000155,false,Rx,0,8,03,87,CE,54,9C,40,02,C3,
1157381,000001C7,false,Rx,0,4,AA,A0,FF,C0,00,00,00,00,
1158269,00000157,false,Rx,0,7,D5,36,09,C4,00,00,00,00,
1163371,00000196,false,Rx,0,8,00,64,02,FF,A0,FF,2B,00,
1163563,00000156,false,Rx,0,6,FF,FF,FF,05,FF,40,00,00,
1163832,0000019F,false,Rx,0,8,00,00,7D,05,00,6A,88,4E,
1163992,000001A1,false,Rx,0,6,00,05,88,26,00,00,00,00,
1164292,00000426,false,Rx,0,8,00,10,02,01,04,16,00,40,
1167444,000004F7,false,Rx,0,8,00,1F,08,00,B0,48,06,F0,
1167451,00000155,false,Rx,0,8,03,87,CE,54,9C,40,02,C3,
1167609,000001C7,false,Rx,0,4,AA,A0,FF,C0,00,00,00,00,
1169156,00000157,false,Rx,0,7,D5,86,09,C4,00,00,00,00,
1172217,00000000,false,Rx,0,8,00,00,02,00,00,00,00,00,
1172227,00000000,false,Rx,0,8,00,00,02,00,00,00,00,00,
1172481,00000000,false,Rx,0,8,00,00,02,00,00,00,00,00,
1172495,00000428,false,Rx,0,8,00,00,00,7F,00,00,00,00,
1172553,00000000,false,Rx,0,8,00,00,00,00,00,00,00,00,
1172632,0000042F,false,Rx,0,2,00,20,00,00,00,00,00,00,
1172684,00000000,false,Rx,0,8,00,00,00,00,00,00,00,00,
1173473,00000000,false,Rx,0,8,00,00,00,00,00,00,00,00,
1173482,00000196,false,Rx,0,8,00,64,02,FF,A0,FF,2B,00,
1173484,00000000,false,Rx,0,8,00,00,00,00,00,00,00,00,
1173487,00000156,false,Rx,0,6,FF,FF,FF,05,FF,40,00,00,
1173620,00000000,false,Rx,0,8,00,00,00,00,00,00,00,00,
1173692,0000019F,false,Rx,0,8,00,00,7D,0A,00,6A,88,4E,
1173811,00000000,false,Rx,0,8,00,00,00,00,00,00,00,00,
1173888,000001A1,false,Rx,0,6,00,05,88,26,00,00,00,00,
1174041,00000000,false,Rx,0,8,00,00,00,00,00,00,00,00,
1174093,00000436,false,Rx,0,6,00,2F,08,B1,FF,DC,00,00,
1176200,00000000,false,Rx,0,8,00,00,00,00,00,00,00,00,
1176250,00000155,false,Rx,0,8,03,87,CE,54,9C,40,02,C3,
1177075,00000000,false,Rx,0,8,00,00,00,00,00,00,00,00,
1177226,000001C7,false,Rx,0,4,AA,A0,FF,C0,00,00,00,00,
1178347,00000157,false,Rx,0,7,D5,D6,09,C4,00,00,00,00,
1183294,00000196,false,Rx,0,8,00,64,02,FF,A0,FF,2B,00,
1183396,00000156,false,Rx,0,6,FF,FF,FF,05,FF,40,00,00,
1183705,0000019F,false,Rx,0,8,00,00,7D,0F,00,6A,88,4E,
1183880,000001A1,false,Rx,0,6,00,05,88,26,00,00,00,00,
1185270,00000155,false,Rx,0,8,03,87,CE,54,9C,40,02,C3,
1187356,000001C7,false,Rx,0,4,AA,A0,FF,C0,00,00,00,00,
1189281,00000157,false,Rx,0,7,D5,26,09,C4,00,00,00,00,
1193434,00000196,false,Rx,0,8,00,64,02,FF,A0,FF,2B,00,
1193503,00000156,false,Rx,0,6,FF,FF,FF,05,FF,40,00,00,
1193909,0000019F,false,Rx,0,8,00,00,7D,04,00,6A,88,4E,
1193934,000001A1,false,Rx,0,6,00,05,8A,26,00,00,00,00,
1197005,00000155,false,Rx,0,8,03,87,CE,54,9C,40,02,C3,
1197298,000001C7,false,Rx,0,4,AA,A0,FF,C0,00,00,00,00,
1198241,00000157,false,Rx,0,7,D5,76,09,C4,00,00,00,00,
1203492,00000196,false,Rx,0,8,00,64,02,FF,A0,FF,2B,00,
1203501,00000156,false,Rx,0,6,FF,FF,FF,05,FF,40,00,00,
1203844,0000019F,false,Rx,0,8,00,00,7D,09,00,6A,88,4E,
1203955,000001A1,false,Rx,0,6,00,05,88,26,00,00,00,00,
1204334,00000422,false,Rx,0,8,00,00,3B,4F,00,A8,01,3B,
1204353,0000042C,false,Rx,0,5,00,00,3F,40,DB,00,00,00,
1204753,00000511,false,Rx,0,7,04,B7,CF,F7,75,B9,3E,00,
1206090,00000155,false,Rx,0,8,03,87,CE,54,9C,40,02,C3,
1207268,000001C7,false,Rx,0,4,AA,A0,FF,C0,00,00,00,00,
1209068,00000157,false,Rx,0,7,D5,C6,09,C4,00,00,00,00,
1213267,00000196,false,Rx,0,8,00,64,02,FF,A0,FF,2B,00,
1213415,00000156,false,Rx,0,6,FF,FF,FF,05,FF,40,00,00,
1213672,0000019F,false,Rx,0,8,00,00,7D,0E,00,6A,88,4E,
1213849,000001A1,false,Rx,0,6,00,05,88,26,00,00,00,00,
1214892,00000155,false,Rx,0,8,03,87,CE,54,9C,40,02,C3,
1215860,00000424,false,Rx,0,8,11,40,02,10,3D,64,55,3E,
1216086,00000425,false,Rx,0,8,11,BB,44,9C,42,1A,CD,0C,
1216264,000004AF,false,Rx,0,5,65,3B,4B,3A,40,00,00,00,
1217143,000001C7,false,Rx,0,4,AA,A0,FF,C0,00,00,00,00,
1218255,00000157,false,Rx,0,7,D5,16,09,C4,00,00,00,00,
1223266,00000196,false,Rx,0,8,00,64,02,FF,A0,FF,2B,00,
1223402,00000156,false,Rx,0,6,FF,FF,FF,05,FF,40,00,00,
1223674,0000019F,false,Rx,0,8,00,00,7D,03,00,6A,88,4E,
1223866,000001A1,false,Rx,0,6,00,05,88,26,00,00,00,00,
1226768,00000155,false,Rx,0,8,03,87,CE,54,9C,40,02,C3,
1227167,000001C7,false,Rx,0,4,AA,A0,FF,C0,00,00,00,00,
1229166,00000157,false,Rx,0,7,D5,66,09,C4,00,00,00,00,
1233266,00000196,false,Rx,0,8,00,64,02,FF,A0,FF,2B,00,
1233405,00000156,false,Rx,0,6,FF,FF,FF,05,FF,40,00,00,
1233670,0000019F,false,Rx,0,8,00,00,7D,08,00,6A,88,4E,
1233897,000001A1,false,Rx,0,6,00,05,88,26,00,00,00,00,
1235695,00000155,false,Rx,0,8,03,87,CE,54,9C,40,02,C3,
1237168,000001C7,false,Rx,0,4,AA,A0,FF,C0,00,00,00,00,
1238316,00000157,false,Rx,0,7,D5,B6,09,C4,00,00,00,00,
1238548,00000423,false,Rx,0,8,07,1E,FF,FD,B2,A0,B2,C1,
1243342,00000196,false,Rx,0,8,00,64,02,FF,A0,FF,2B,00,
1243568,00000156,false,Rx,0,6,FF,FF,FF,05,FF,40,00,00,
1243795,0000019F,false,Rx,0,8,00,00,7D,0D,00,6A,88,4E,
1243997,000001A1,false,Rx,0,6,00,05,88,26,00,00,00,00,
1244590,00000155,false,Rx,0,8,03,87,CE,54,9C,40,02,C3,
1247167,000001C7,false,Rx,0,4,AA,A0,FF,C0,00,00,00,00,
1249169,00000157,false,Rx,0,7,D5,06,09,C4,00,00,00,00,
1253296,00000196,false,Rx,0,8,00,64,02,FF,A0,FF,2B,00,
1253511,00000156,false,Rx,0,6,FF,FF,FF,05,FF,40,00,00,
1253732,0000019F,false,Rx,0,8,00,00,7D,02,00,6A,88,4E,
1253929,000001A1,false,Rx,0,6,00,05,88,26,00,00,00,00,
1254101,00000435,false,Rx,0,4,FF,FF,1E,00,00,00,00,00,
1256438,00000155,false,Rx,0,8,03,87,CE,54,9C,40,02,C3,
1257112,000001C7,false,Rx,0,4,AA,A0,FF,C0,00,00,00,00,
1258263,00000157,false,Rx,0,7,D5,56,09,C4,00,00,00,00,
1263179,00000196,false,Rx,0,8,00,64,02,FF,A0,FF,2B,00,
1263371,00000156,false,Rx,0,6,FF,FF,FF,05,FF,40,00,00,
1263614,0000019F,false,Rx,0,8,00,00,7D,07,00,6A,88,4E,
1263809,000001A1,false,Rx,0,6,00,05,88,26,00,00,00,00,
1264056,00000426,false,Rx,0,8,00,10,02,01,04,16,00,40,
1265340,00000155,false,Rx,0,8,03,87,CE,54,9C,40,02,C3,
1267221,000004F7,false,Rx,0,8,00,1F,08,00,B0,48,06,F0,
1267369,000001C7,false,Rx,0,4,AA,A0,FF,C0,00,00,00,00,
1269246,00000157,false,Rx,0,7,D5,A6,09,C4,00,00,00,00,
1272232,00000428,false,Rx,0,8,00,00,00,7F,00,00,00,00,
1272351,0000042F,false,Rx,0,2,00,20,00,00,00,00,00,00,
1273224,00000196,false,Rx,0,8,00,64,02,FF,A0,FF,2B,00,
1273402,00000156,false,Rx,0,6,FF,FF,FF,05,FF,40,00,00,
1273630,0000019F,false,Rx,0,8,00,00,7D,0C,00,6A,88,4E,
1273832,000001A1,false,Rx,0,6,00,05,88,26,00,00,00,00,
1274029,00000436,false,Rx,0,6,00,2F,08,B1,FF,DC,00,00,
1274280,00000155,false,Rx,0,8,03,87,CE,54,9C,40,02,C3,
1277169,000001C7,false,Rx,0,4,AA,A0,FF,C0,00,00,00,00,
1278298,00000157,false,Rx,0,7,D5,F6,09,C4,00,00,00,00,
1283332,00000196,false,Rx,0,8,00,64,02,FF,A0,FF,2B,00,
1283528,00000156,false,Rx,0,6,FF,FF,FF,05,FF,40,00,00,
1283781,0000019F,false,Rx,0,8,00,00,7D,01,00,6A,88,4E,
1283981,000001A1,false,Rx,0,6,00,05,8A,26,00,00,00,00,
1286204,00000155,false,Rx,0,8,03,87,CE,54,9C,40,02,C3,
1287168,000001C7,false,Rx,0,4,AA,A0,FF,C0,00,00,00,00,
1289217,00000157,false,Rx,0,7,D5,46,09,C4,00,00,00,00,
1293344,00000196,false,Rx,0,8,00,64,02,FF,A0,FF,2B,00,
1293546,00000156,false,Rx,0,6,FF,FF,FF,05,FF,40,00,00,
1293774,0000019F,false,Rx,0,8,00,00,7D,06,00,6A,88,4E,
1293977,000001A1,false,Rx,0,6,00,05,8A,26,00,00,00,00,
1295118,00000155,false,Rx,0,8,03,87,CE,54,9C,40,02,C3,
1297170,000001C7,false,Rx,0,4,AA,A0,FF,C0,00,00,00,00,
1298256,00000157,false,Rx,0,7,D5,96,09,C4,00,00,00,00,
1303217,00000196,false,Rx,0,8,00,64,02,FF,A0,FF,2B,00,
1303417,00000156,false,Rx,0,6,FF,FF,FF,05,FF,40,00,00,
1303671,0000019F,false,Rx,0,8,00,00,7D,0B,00,6A,88,4E,
1303847,000001A1,false,Rx,0,6,00,05,88,26,00,00,00,00,
1304099,00000155,false,Rx,0,8,03,87,CE,54,9C,40,02,C3,
1304318,00000422,false,Rx,0,8,00,00,3B,4F,00,A8,01,3B,
1304521,0000042C,false,Rx,0,5,00,00,3F,40,DB,00,00,00,
1304724,00000511,false,Rx,0,7,04,F6,98,B0,E0,C6,21,00,
1307168,000001C7,false,Rx,0,4,AA,A0,FF,C0,00,00,00,00,
1309018,00000157,false,Rx,0,7,D5,E6,09,C4,00,00,00,00,
1313211,00000196,false,Rx,0,8,00,64,02,FF,A0,FF,2B,00,
1313406,00000156,false,Rx,0,6,FF,FF,FF,05,FF,40,00,00,
1313656,0000019F,false,Rx,0,8,00,00,7D,00,00,6A,88,4E,
1313855,000001A1,false,Rx,0,6,00,05,88,26,00,00,00,00,
1314058,00000424,false,Rx,0,8,11,40,02,10,3D,64,AA,3E,
1314306,00000425,false,Rx,0,8,11,BB,44,9C,42,1A,CD,0C,
1314487,000004AF,false,Rx,0,5,65,3B,4B,3A,40,00,00,00,
1315869,00000155,false,Rx,0,8,03,87,CE,54,9C,40,02,C3,
1317122,000001C7,false,Rx,0,4,AA,A0,FF,C0,00,00,00,00,
1318284,00000157,false,Rx,0,7,D5,36,09,C4,00,00,00,00,
1323345,00000196,false,Rx,0,8,00,64,02,FF,A0,FF,2B,00,
1323550,00000156,false,Rx,0,6,FF,FF,FF,05,FF,40,00,00,
1323774,0000019F,false,Rx,0,8,00,00,7D,05,00,6A,88,4E,
1323975,000001A1,false,Rx,0,6,00,05,88,26,00,00,00,00,
1324820,00000155,false,Rx,0,8,03,87,CE,54,9C,40,02,C3,
1327132,000001C7,false,Rx,0,4,AA,A0,FF,C0,00,00,00,00,
1329164,00000157,false,Rx,0,7,D5,86,09,C4,00,00,00,00,
1333293,00000196,false,Rx,0,8,00,64,02,FF,A0,FF,2B,00,
1333500,00000156,false,Rx,0,6,FF,FF,FF,05,FF,40,00,00,
1333759,00000155,false,Rx,0,8,03,87,CE,54,9C,40,02,C3,
1334009,0000019F,false,Rx,0,8,00,00,7D,0A,00,6A,88,4E,
1334257,000001A1,false,Rx,0,6,00,05,88,26,00,00,00,00,
1337160,000001C7,false,Rx,0,4,AA,A0,FF,C0,00,00,00,00,
1338336,00000157,false,Rx,0,7,D5,D6,09,C4,00,00,00,00,
1338560,00000423,false,Rx,0,8,07,1E,FF,FD,B2,A0,B2,C1,
1343207,00000196,false,Rx,0,8,00,64,02,FF,A0,FF,2B,00,
1343392,00000156,false,Rx,0,6,FF,FF,FF,05,FF,40,00,00,
1343640,0000019F,false,Rx,0,8,00,00,7D,0F,00,6A,88,4E,
1343837,000001A1,false,Rx,0,6,00,05,88,26,00,00,00,00,
1345593,00000155,false,Rx,0,8,03,87,CE,54,9C,40,02,C3,
1347143,000001C7,false,Rx,0,4,AA,A0,FF,C0,00,00,00,00,
1348956,00000157,false,Rx,0,7,D5,26,09,C4,00,00,00,00,
1353196,00000196,false,Rx,0,8,00,64,02,FF,A0,FF,2B,00,
1353396,00000156,false,Rx,0,6,FF,FF,FF,05,FF,40,00,00,
1353642,0000019F,false,Rx,0,8,00,00,7D,04,00,6A,88,4E,
1353845,000001A1,false,Rx,0,6,00,05,88,26,00,00,00,00,
1354019,00000435,false,Rx,0,4,FF,FF,1E,00,00,00,00,00,
1354520,00000155,false,Rx,0,8,03,87,CE,54,9C,40,02,C3,
1357384,000001C7,false,Rx,0,4,AA,A0,FF,C0,00,00,00,00,
1358253,00000157,false,Rx,0,7,D5,76,09,C4,00,00,00,00,
1363339,00000196,false,Rx,0,8,00,64,02,FF,A0,FF,2B,00,
1363366,00000156,false,Rx,0,6,FF,FF,FF,05,FF,40,00,00,
1363795,00000155,false,Rx,0,8,03,87,CE,54,9C,40,02,C3,
1363821,0000019F,false,Rx,0,8,00,00,7D,09,00,6A,88,4E,
1364261,000001A1,false,Rx,0,6,00,05,88,26,00,00,00,00,
1364265,00000426,false,Rx,0,8,00,10,02,01,04,16,00,40,
1367473,000004F7,false,Rx,0,8,00,1F,08,00,B0,48,06,F0,
1367477,000001C7,false,Rx,0,4,AA,A0,FF,C0,00,00,00,00,
1369478,00000157,false,Rx,0,7,D5,C6,09,C4,00,00,00,00,
1372226,00000428,false,Rx,0,8,00,00,00,7F,00,00,00,00,
1372370,0000042F,false,Rx,0,2,00,20,00,00,00,00,00,00,
1373268,00000196,false,Rx,0,8,00,64,02,FF,A0,FF,2B,00,
1373496,00000156,false,Rx,0,6,FF,FF,FF,05,FF,40,00,00,
1373723,0000019F,false,Rx,0,8,00,00,7D,0E,00,6A,88,4E,
1373925,000001A1,false,Rx,0,6,00,05,88,26,00,00,00,00,
1374127,00000436,false,Rx,0,6,00,2F,08,B1,FF,DC,00,00,
1375295,00000155,false,Rx,0,8,03,87,CE,54,9C,40,02,C3,
1377378,000001C7,false,Rx,0,4,AA,A0,FF,C0,00,00,00,00,
1378253,00000157,false,Rx,0,7,D5,16,09,C4,00,00,00,00,
1383489,00000196,false,Rx,0,8,00,64,02,FF,A0,FF,2B,00,
1383494,00000156,false,Rx,0,6,FF,FF,FF,05,FF,40,00,00,
1383917,0000019F,false,Rx,0,8,00,00,7D,03,00,6A,88,4E,
1383923,000001A1,false,Rx,0,6,00,05,8A,26,00,00,00,00,
1384438,00000155,false,Rx,0,8,03,87,CE,54,9C,40,02,C3,
1387283,000001C7,false,Rx,0,4,AA,A0,FF,C0,00,00,00,00,
1389312,00000157,false,Rx,0,7,D5,66,09,C4,00,00,00,00,
1393293,00000155,false,Rx,0,8,03,87,CE,54,9C,40,02,C3,
1393337,00000156,false,Rx,0,6,FF,FF,FF,05,FF,40,00,00,
1393625,00000196,false,Rx,0,8,00,64,02,FF,A0,FF,2B,00,
1393875,0000019F,false,Rx,0,8,00,00,7D,08,00,6A,88,4E,
1394058,000001A1,false,Rx,0,6,00,05,8A,26,00,00,00,00,
1397294,000001C7,false,Rx,0,4,AA,A0,FF,C0,00,00,00,00,
1398237,00000157,false,Rx,0,7,D5,B6,09,C4,00,00,00,00,
1403401,00000196,false,Rx,0,8,00,64,02,FF,A0,FF,2B,00,
1403423,00000156,false,Rx,0,6,FF,FF,FF,05,FF,40,00,00,
1403683,0000019F,false,Rx,0,8,00,00,7D,0D,00,6A,88,4E,
1403879,000001A1,false,Rx,0,6,00,05,8A,26,00,00,00,00,
1404083,00000422,false,Rx,0,8,00,00,3B,4F,00,A8,01,3B,
1404218,0000042C,false,Rx,0,5,00,00,3F,40,DB,00,00,00,
1404420,00000511,false,Rx,0,7,04,35,61,69,4B,D3,04,00,
1405189,00000155,false,Rx,0,8,03,87,CE,54,9C,40,02,C3,
1407313,000001C7,false,Rx,0,4,AA,A0,FF,C0,00,00,00,00,
1409258,00000157,false,Rx,0,7,D5,06,09,C4,00,00,00,00,
1413531,00000196,false,Rx,0,8,00,64,02,FF,A0,FF,2B,00,
1413540,00000156,false,Rx,0,6,FF,FF,FF,05,FF,40,00,00,
1413811,0000019F,false,Rx,0,8,00,00,7D,02,00,6A,88,4E,
1414032,00000155,false,Rx,0,8,03,87,CE,54,9C,40,02,C3,
1414170,000001A1,false,Rx,0,6,00,05,8A,26,00,00,00,00,
1415038,00000424,false,Rx,0,8,11,40,02,10,3D,64,55,3E,
1415148,00000425,false,Rx,0,8,11,BB,44,9C,42,1A,CD,0C,
1415399,000004AF,false,Rx,0,5,65,3B,4B,3A,40,00,00,00,
1417408,000001C7,false,Rx,0,4,AA,A0,FF,C0,00,00,00,00,
1418244,00000157,false,Rx,0,7,D5,56,09,C4,00,00,00,00,
1423013,00000155,false,Rx,0,8,03,87,CE,54,9C,40,02,C3,
1423338,00000196,false,Rx,0,8,00,64,02,FF,A0,FF,2B,00,
1423516,00000156,false,Rx,0,6,FF,FF,FF,05,FF,40,00,00,
1423801,0000019F,false,Rx,0,8,00,00,7D,07,00,6A,88,4E,
1423981,000001A1,false,Rx,0,6,00,05,8A,26,00,00,00,00,
1427442,000001C7,false,Rx,0,4,AA,A0,FF,C0,00,00,00,00,
1429074,00000157,false,Rx,0,7,D5,A6,09,C4,00,00,00,00,
1433204,00000196,false,Rx,0,8,00,64,02,FF,A0,FF,2B,00,
1433441,00000156,false,Rx,0,6,FF,FF,FF,05,FF,40,00,00,
1433650,0000019F,false,Rx,0,8,00,00,7D,0C,00,6A,88,4E,
1433851,000001A1,false,Rx,0,6,00,05,8A,26,00,00,00,00,
1434827,00000155,false,Rx,0,8,03,87,CE,54,9C,40,02,C3,
1437308,000001C7,false,Rx,0,4,AA,A0,FF,C0,00,00,00,00,
1438357,00000157,false,Rx,0,7,D5,F6,09,C4,00,00,00,00,
1438553,00000423,false,Rx,0,8,07,1E,FF,FD,5D,A0,B2,C1,
1443414,00000196,false,Rx,0,8,00,64,02,FF,A0,FF,2B,00,
1443424,00000156,false,Rx,0,6,FF,FF,FF,05,FF,40,00,00,
1443638,0000019F,false,Rx,0,8,00,00,7D,01,00,6A,88,4E,
1443902,00000155,false,Rx,0,8,03,87,CE,54,9C,40,02,C3,
1444067,000001A1,false,Rx,0,6,00,05,8A,26,00,00,00,00,
1447406,000001C7,false,Rx,0,4,AA,A0,FF,C0,00,00,00,00,
1449107,00000157,false,Rx,0,7,D5,46,09,C4,00,00,00,00,
1452603,00000155,false,Rx,0,8,03,87,CE,54,9C,40,02,C3,
1453412,00000196,false,Rx,0,8,00,64,02,FF,A0,FF,2B,00,
1453421,00000156,false,Rx,0,6,FF,FF,FF,05,FF,40,00,00,
1453610,0000019F,false,Rx,0,8,00,00,7D,06,00,6A,88,4E,
1453846,000001A1,false,Rx,0,6,00,05,8A,26,00,00,00,00,
1454043,00000435,false,Rx,0,4,FF,FF,1E,00,00,00,00,00,
1457204,000001C7,false,Rx,0,4,AA,A0,FF,C0,00,00,00,00,
1458366,00000157,false,Rx,0,7,D5,96,09,C4,00,00,00,00,
1463314,00000196,false,Rx,0,8,00,64,02,FF,A0,FF,2B,00,
1463514,00000156,false,Rx,0,6,FF,FF,FF,05,FF,40,00,00,
1463754,0000019F,false,Rx,0,8,00,00,7D,0B,00,6A,88,4E,
1463952,000001A1,false,Rx,0,6,00,05,8A,26,00,00,00,00,
1464165,00000426,false,Rx,0,8,00,10,02,01,04,16,00,40,
1464483,00000155,false,Rx,0,8,03,87,CE,54,9C,40,02,C3,
1467270,000004F7,false,Rx,0,8,00,1F,08,00,B0,48,06,F0,
1467471,000001C7,false,Rx,0,4,AA,A0,FF,C0,00,00,00,00,
1469219,00000157,false,Rx,0,7,D5,E6,09,C4,00,00,00,00,
1472270,00000428,false,Rx,0,8,00,00,00,7F,00,00,00,00,
1472449,0000042F,false,Rx,0,2,00,20,00,00,00,00,00,00,
1473320,00000196,false,Rx,0,8,00,64,02,FF,A0,FF,2B,00,
1473546,00000155,false,Rx,0,8,03,87,CE,54,9C,40,02,C3,
1473748,00000156,false,Rx,0,6,FF,FF,FF,05,FF,40,00,00,
1473981,0000019F,false,Rx,0,8,00,00,7D,00,00,6A,88,4E,
1474128,000001A1,false,Rx,0,6,00,05,8A,26,00,00,00,00,
1474393,00000436,false,Rx,0,6,00,2F,08,B1,FF,DC,00,00,
1477195,000001C7,false,Rx,0,4,AA,A0,FF,C0,00,00,00,00,
1478344,00000157,false,Rx,0,7,D5,36,09,C4,00,00,00,00,
1482368,00000155,false,Rx,0,8,03,87,CE,54,9C,40,02,C3,
1483199,00000196,false,Rx,0,8,00,64,02,FF,A0,FF,2B,00,
1483420,0000019F,false,Rx,0,8,00,00,7D,05,00,6A,88,4E,
1483647,00000156,false,Rx,0,6,FF,FF,FF,05,FF,40,00,00,
1483849,000001A1,false,Rx,0,6,00,05,8A,26,00,00,00,00,
1487196,000001C7,false,Rx,0,4,AA,A0,FF,C0,00,00,00,00,
1489047,00000157,false,Rx,0,7,D5,86,09,C4,00,00,00,00,
1493195,00000196,false,Rx,0,8,00,64,02,FF,A0,FF,2B,00,
1493397,00000156,false,Rx,0,6,FF,FF,FF,05,FF,40,00,00,
1493624,0000019F,false,Rx,0,8,00,00,7D,0A,00,6A,88,4E,
1493825,000001A1,false,Rx,0,6,00,05,8A,26,00,00,00,00,
1494232,00000155,false,Rx,0,8,03,87,CE,54,9C,40,02,C3,
1497196,000001C7,false,Rx,0,4,AA,A0,FF,C0,00,00,00,00,
1498319,00000157,false,Rx,0,7,D5,D6,09,C4,00,00,00,00,
1503160,00000155,false,Rx,0,8,03,87,CE,54,9C,40,02,C3,
1503367,00000156,false,Rx,0,6,FF,FF,FF,05,FF,40,00,00,
1503611,00000196,false,Rx,0,8,00,64,02,FF,A0,FF,2B,00,
1503859,0000019F,false,Rx,0,8,00,00,7D,0F,00,6A,88,4E,
1504047,000001A1,false,Rx,0,6,00,05,8A,26,00,00,00,00,
1504247,00000422,false,Rx,0,8,00,00,3B,4F,00,A8,01,3B,
1504484,0000042C,false,Rx,0,5,00,00,3F,40,DB,00,00,00,
1504677,00000511,false,Rx,0,7,04,74,2A,22,B6,E0,E7,00,
1507184,000001C7,false,Rx,0,4,AA,A0,FF,C0,00,00,00,00,
1509059,00000157,false,Rx,0,7,D5,26,09,C4,00,00,00,00,
1512049,00000155,false,Rx,0,8,03,87,CE,54,9C,40,02,C3,
1513059,00000424,false,Rx,0,8,11,40,02,10,3D,64,AA,3E,
1513273,00000196,false,Rx,0,8,00,64,02,FF,A0,FF,2B,00,
1513501,00000156,false,Rx,0,6,FF,FF,FF,05,FF,40,00,00,
1513730,0000019F,false,Rx,0,8,00,00,7D,04,00,6A,88,4E,
1513930,000001A1,false,Rx,0,6,00,05,8A,26,00,00,00,00,
1514175,00000425,false,Rx,0,8,11,BB,44,9C,42,1A,CD,0C,
1514323,000004AF,false,Rx,0,5,65,3B,4B,3A,40,00,00,00,
1517151,000001C7,false,Rx,0,4,AA,A0,FF,C0,00,00,00,00,
1518249,00000157,false,Rx,0,7,D5,76,09,C4,00,00,00,00,
1523126,00000196,false,Rx,0,8,00,64,02,FF,A0,FF,2B,00,
1523347,00000156,false,Rx,0,6,FF,FF,FF,05,FF,40,00,00,
1523574,0000019F,false,Rx,0,8,00,00,7D,09,00,6A,88,4E,
1523776,000001A1,false,Rx,0,6,00,05,8A,26,00,00,00,00,
1524003,00000155,false,Rx,0,8,03,87,CE,54,9C,40,02,C3,
1527142,000001C7,false,Rx,0,4,AA,A0,FF,C0,00,00,00,00,
1529117,00000157,false,Rx,0,7,D5,C6,09,C4,00,00,00,00,
1532873,00000155,false,Rx,0,8,03,87,CE,54,9C,40,02,C3,
1533126,00000196,false,Rx,0,8,00,64,02,FF,A0,FF,2B,00,
1533346,00000156,false,Rx,0,6,FF,FF,FF,05,FF,40,00,00,
1533575,0000019F,false,Rx,0,8,00,00,7D,0E,00,6A,88,4E,
1533776,000001A1,false,Rx,0,6,00,05,8A,26,00,00,00,00,
1537148,000001C7,false,Rx,0,4,AA,A0,FF,C0,00,00,00,00,
1538222,00000157,false,Rx,0,7,D5,16,09,C4,00,00,00,00,
1538449,00000423,false,Rx,0,8,07,1E,FF,FD,5D,A0,B2,C1,
1541799,00000155,false,Rx,0,8,03,87,CE,54,9C,40,02,C3,
1543272,00000196,false,Rx,0,8,00,64,02,FF,A0,FF,2B,00,
1543449,00000156,false,Rx,0,6,FF,FF,FF,05,FF,40,00,00,
1543702,0000019F,false,Rx,0,8,00,00,7D,03,00,6A,88,4E,
1543904,000001A1,false,Rx,0,6,00,05,88,26,00,00,00,00,
1547148,000001C7,false,Rx,0,4,AA,A0,FF,C0,00,00,00,00,
1549048,00000157,false,Rx,0,7,D5,66,09,C4,00,00,00,00,
1553255,00000196,false,Rx,0,8,00,64,02,FF,A0,FF,2B,00,
1553449,00000156,false,Rx,0,6,FF,FF,FF,05,FF,40,00,00,
1553677,00000155,false,Rx,0,8,03,87,CE,54,9C,40,02,C3,
1553928,0000019F,false,Rx,0,8,00,00,7D,08,00,6A,88,4E,
1554129,000001A1,false,Rx,0,6,00,05,88,26,00,00,00,00,
1554296,00000435,false,Rx,0,4,FF,FF,1E,00,00,00,00,00,
1557213,000001C7,false,Rx,0,4,AA,A0,FF,C0,00,00,00,00,
1558260,00000157,false,Rx,0,7,D5,B6,09,C4,00,00,00,00,
1562637,00000155,false,Rx,0,8,03,87,CE,54,9C,40,02,C3,
1563322,00000196,false,Rx,0,8,00,64,02,FF,A0,FF,2B,00,
1563367,0000019F,false,Rx,0,8,00,00,7D,0D,00,6A,88,4E,
1563661,00000156,false,Rx,0,6,FF,FF,FF,05,FF,40,00,00,
1563826,000001A1,false,Rx,0,6,00,05,88,26,00,00,00,00,
1564244,00000426,false,Rx,0,8,00,10,02,01,04,16,00,40,
1567313,000004F7,false,Rx,0,8,00,1F,08,00,B0,48,06,F0,
1567455,000001C7,false,Rx,0,4,AA,A0,FF,C0,00,00,00,00,
1569404,00000157,false,Rx,0,7,D5,06,09,C4,00,00,00,00,
1571533,00000155,false,Rx,0,8,03,87,CE,54,9C,40,02,C3,
1572268,00000428,false,Rx,0,8,00,00,00,7F,00,00,00,00,
1572436,0000042F,false,Rx,0,2,00,20,00,00,00,00,00,00,
1573140,00000196,false,Rx,0,8,00,64,02,FF,A0,FF,2B,00,
1573362,00000156,false,Rx,0,6,FF,FF,FF,05,FF,40,00,00,
1573589,0000019F,false,Rx,0,8,00,00,7D,02,00,6A,88,4E,
1573790,000001A1,false,Rx,0,6,00,05,8A,26,00,00,00,00,
1573993,00000436,false,Rx,0,6,00,2F,08,B1,FF,DC,00,00,
1577179,000001C7,false,Rx,0,4,AA,A0,FF,C0,00,00,00,00,
1578290,00000157,false,Rx,0,7,D5,56,09,C4,00,00,00,00,
1583397,00000196,false,Rx,0,8,00,64,02,FF,A0,FF,2B,00,
1583406,00000156,false,Rx,0,6,FF,FF,FF,05,FF,40,00,00,
1583625,00000155,false,Rx,0,8,03,87,CE,54,9C,40,02,C3,
1583886,0000019F,false,Rx,0,8,00,00,7D,07,00,6A,88,4E,
1584055,000001A1,false,Rx,0,6,00,05,8A,26,00,00,00,00,
1587454,000001C7,false,Rx,0,4,AA,A0,FF,C0,00,00,00,00,
1589388,00000157,false,Rx,0,7,D5,A6,09,C4,00,00,00,00,
1592609,00000155,false,Rx,0,8,03,87,CE,54,9C,40,02,C3,
1593408,00000196,false,Rx,0,8,00,64,02,FF,A0,FF,2B,00,
1593518,00000156,false,Rx,0,6,FF,FF,FF,05,FF,40,00,00,
1593772,0000019F,false,Rx,0,8,00,00,7D,0C,00,6A,88,4E,
1593946,000001A1,false,Rx,0,6,00,05,88,26,00,00,00,00,
1597171,000001C7,false,Rx,0,4,AA,A0,FF,C0,00,00,00,00,
1598313,00000157,false,Rx,0,7,D5,F6,09,C4,00,00,00,00,
1601320,00000155,false,Rx,0,8,03,87,CE,54,9C,40,02,C3,
1603357,00000196,false,Rx,0,8,00,64,02,FF,A0,FF,2B,00,
1603454,00000156,false,Rx,0,6,FF,FF,FF,05,FF,40,00,00,
1603694,0000019F,false,Rx,0,8,00,00,7D,01,00,6A,88,4E,
1603958,000001A1,false,Rx,0,6,00,05,88,26,00,00,00,00,
1604204,00000422,false,Rx,0,8,00,00,3B,4F,00,A8,01,3B,
1604372,0000042C,false,Rx,0,5,00,00,3F,40,DB,00,00,00,
1604603,00000511,false,Rx,0,7,04,B3,F3,DB,21,ED,CA,00,
1607441,000001C7,false,Rx,0,4,AA,A0,FF,C0,00,00,00,00,
1609182,00000157,false,Rx,0,7,D5,46,09,C4,00,00,00,00,
1611288,00000424,false,Rx,0,8,11,40,02,10,3D,64,55,3E,
1611477,00000425,false,Rx,0,8,11,BB,44,9C,42,1A,CD,0C,
1611635,000004AF,false,Rx,0,5,65,3B,4B,3A,40,00,00,00,
1613281,00000196,false,Rx,0,8,00,64,02,FF,A0,FF,2B,00,
1613427,00000155,false,Rx,0,8,03,87,CE,54,9C,40,02,C3,
1613643,00000156,false,Rx,0,6,FF,FF,FF,05,FF,40,00,00,
1613842,0000019F,false,Rx,0,8,00,00,7D,06,00,6A,88,4E,
1614024,000001A1,false,Rx,0,6,00,05,8A,26,00,00,00,00,
1617200,000001C7,false,Rx,0,4,AA,A0,FF,C0,00,00,00,00,
1618232,00000157,false,Rx,0,7,D5,96,09,C4,00,00,00,00,
1622327,00000155,false,Rx,0,8,03,87,CE,54,9C,40,02,C3,
1623387,00000196,false,Rx,0,8,00,64,02,FF,A0,FF,2B,00,
1623396,00000156,false,Rx,0,6,FF,FF,FF,05,FF,40,00,00,
1623598,0000019F,false,Rx,0,8,00,00,7D,0B,00,6A,88,4E,
1623805,000001A1,false,Rx,0,6,00,05,8A,26,00,00,00,00,
1627386,000001C7,false,Rx,0,4,AA,A0,FF,C0,00,00,00,00,
1629288,00000157,false,Rx,0,7,D5,E6,09,C4,00,00,00,00,
1631089,00000155,false,Rx,0,8,03,87,CE,54,9C,40,02,C3,
1633437,00000196,false,Rx,0,8,00,64,02,FF,A0,FF,2B,00,
1633445,00000156,false,Rx,0,6,FF,FF,FF,05,FF,40,00,00,
1633757,0000019F,false,Rx,0,8,00,00,7D,00,00,6A,88,4E,
1633920,000001A1,false,Rx,0,6,00,05,8A,26,00,00,00,00,
1637259,000001C7,false,Rx,0,4,AA,A0,FF,C0,00,00,00,00,
1638367,00000157,false,Rx,0,7,D5,36,09,C4,00,00,00,00,
1638572,00000423,false,Rx,0,8,07,1E,FF,FD,5D,A0,B2,C1,
1642974,00000155,false,Rx,0,8,03,87,CE,54,9C,40,02,C3,
1643473,00000196,false,Rx,0,8,00,64,02,FF,A0,FF,2B,00,
1643482,00000156,false,Rx,0,6,FF,FF,FF,05,FF,40,00,00,
1643768,0000019F,false,Rx,0,8,00,00,7D,05,00,6A,88,4E,
1643926,000001A1,false,Rx,0,6,00,05,8A,26,00,00,00,00,
1647243,000001C7,false,Rx,0,4,AA,A0,FF,C0,00,00,00,00,
1649183,00000157,false,Rx,0,7,D5,86,09,C4,00,00,00,00,
1652085,00000155,false,Rx,0,8,03,87,CE,54,9C,40,02,C3,
1653215,00000196,false,Rx,0,8,00,64,02,FF,A0,FF,2B,00,
1653365,00000156,false,Rx,0,6,FF,FF,FF,05,FF,40,00,00,
1653721,0000019F,false,Rx,0,8,00,00,7D,0A,00,6A,88,4E,
1653822,000001A1,false,Rx,0,6,00,05,8A,26,00,00,00,00,
1654006,00000435,false,Rx,0,4,FF,FF,1E,00,00,00,00,00,
1657434,000001C7,false,Rx,0,4,AA,A0,FF,C0,00,00,00,00,
1658254,00000157,false,Rx,0,7,D5,D6,09,C4,00,00,00,00,
1661024,00000155,false,Rx,0,8,03,87,CE,54,9C,40,02,C3,
1663297,00000196,false,Rx,0,8,00,64,02,FF,A0,FF,2B,00,
1663335,0000019F,false,Rx,0,8,00,00,7D,0F,00,6A,88,4E,
1663573,00000156,false,Rx,0,6,FF,FF,FF,05,FF,40,00,00,
1663821,000001A1,false,Rx,0,6,00,05,8A,26,00,00,00,00,
1664082,00000426,false,Rx,0,8,00,10,02,01,04,16,00,40,
1667498,000004F7,false,Rx,0,8,00,1F,08,00,B0,48,06,F0,
1667506,000001C7,false,Rx,0,4,AA,A0,FF,C0,00,00,00,00,
1669415,00000157,false,Rx,0,7,D5,26,09,C4,00,00,00,00,
1672537,00000428,false,Rx,0,8,00,00,00,7F,00,00,00,00,
1672546,0000042F,false,Rx,0,2,00,20,00,00,00,00,00,00,
1672689,00000155,false,Rx,0,8,03,87,CE,54,9C,40,02,C3,
1673287,00000196,false,Rx,0,8,00,64,02,FF,A0,FF,2B,00,
1673404,00000156,false,Rx,0,6,FF,FF,FF,05,FF,40,00,00,
1673669,0000019F,false,Rx,0,8,00,00,7D,04,00,6A,88,4E,
1673807,000001A1,false,Rx,0,6,00,05,88,26,00,00,00,00,
1674048,00000436,false,Rx,0,6,00,2F,08,B1,FF,DC,00,00,
1677490,000001C7,false,Rx,0,4,AA,A0,FF,C0,00,00,00,00,
1678259,00000157,false,Rx,0,7,D5,76,09,C4,00,00,00,00,
1681819,00000155,false,Rx,0,8,03,87,CE,54,9C,40,02,C3,
1683303,00000196,false,Rx,0,8,00,64,02,FF,A0,FF,2B,00,
1683493,00000156,false,Rx,0,6,FF,FF,FF,05,FF,40,00,00,
1683763,0000019F,false,Rx,0,8,00,00,7D,09,00,6A,88,4E,
1683923,000001A1,false,Rx,0,6,00,05,88,26,00,00,00,00,
1687493,000001C7,false,Rx,0,4,AA,A0,FF,C0,00,00,00,00,
1689022,00000157,false,Rx,0,7,D5,C6,09,C4,00,00,00,00,
1690561,00000155,false,Rx,0,8,03,87,CE,54,9C,40,02,C3,
1693494,00000196,false,Rx,0,8,00,64,02,FF,A0,FF,2B,00,
1693503,00000156,false,Rx,0,6,FF,FF,FF,05,FF,40,00,00,
1693714,0000019F,false,Rx,0,8,00,00,7D,0E,00,6A,88,4E,
1693917,000001A1,false,Rx,0,6,00,05,8A,26,00,00,00,00,
1697315,000001C7,false,Rx,0,4,AA,A0,FF,C0,00,00,00,00,
1697634,0000069F,false,Rx,0,4,88,73,00,2F,00,00,00,00,
1698366,00000157,false,Rx,0,7,D5,16,09,C4,00,00,00,00,
1702457,00000155,false,Rx,0,8,03,87,CE,54,9C,40,02,C3,
1703274,00000196,false,Rx,0,8,00,64,02,FF,A0,FF,2B,00,
1703359,0000019F,false,Rx,0,8,00,00,7D,03,00,6A,88,4E,
1703641,00000156,false,Rx,0,6,FF,FF,FF,05,FF,40,00,00,
1703792,000001A1,false,Rx,0,6,00,05,8A,26,00,00,00,00,
1704139,00000422,false,Rx,0,8,00,00,3B,4F,00,A8,01,3B,
1704157,0000042C,false,Rx,0,5,00,00,3F,40,DB,00,00,00,
1704453,00000511,false,Rx,0,7,04,F2,BC,94,8C,FA,AD,00,
1707335,000001C7,false,Rx,0,4,AA,A0,FF,C0,00,00,00,00,
1709171,00000157,false,Rx,0,7,D5,66,09,C4,00,00,00,00,
1711336,00000155,false,Rx,0,8,03,87,CE,54,9C,40,02,C3,
1712296,00000424,false,Rx,0,8,11,40,02,10,3D,64,AA,3E,
1712523,00000425,false,Rx,0,8,11,BB,44,9C,42,1A,CD,0C,
1712706,000004AF,false,Rx,0,5,65,3B,4B,3A,40,00,00,00,
1713146,00000196,false,Rx,0,8,00,64,02,FF,A0,FF,2B,00,
1713371,00000156,false,Rx,0,6,FF,FF,FF,05,FF,40,00,00,
1713602,0000019F,false,Rx,0,8,00,00,7D,08,00,6A,88,4E,
1713794,000001A1,false,Rx,0,6,00,05,8A,26,00,00,00,00,
1717273,000001C7,false,Rx,0,4,AA,A0,FF,C0,00,00,00,00,
1718235,00000157,false,Rx,0,7,D5,B6,09,C4,00,00,00,00,
1720270,00000155,false,Rx,0,8,03,87,CE,54,9C,40,02,C3,
1723272,00000196,false,Rx,0,8,00,64,02,FF,A0,FF,2B,00,
1723473,00000156,false,Rx,0,6,FF,FF,FF,05,FF,40,00,00,
1723726,0000019F,false,Rx,0,8,00,00,7D,0D,00,6A,88,4E,
1723921,000001A1,false,Rx,0,6,00,05,8A,26,00,00,00,00,
1727272,000001C7,false,Rx,0,4,AA,A0,FF,C0,00,00,00,00,
1729048,00000157,false,Rx,0,7,D5,06,09,C4,00,00,00,00,
1732121,00000155,false,Rx,0,8,03,87,CE,54,9C,40,02,C3,
1733272,00000196,false,Rx,0,8,00,64,02,FF,A0,FF,2B,00,
1733473,00000156,false,Rx,0,6,FF,FF,FF,05,FF,40,00,00,
1733727,0000019F,false,Rx,0,8,00,00,7D,02,00,6A,88,4E,
1733909,000001A1,false,Rx,0,6,00,05,88,26,00,00,00,00,
1737272,000001C7,false,Rx,0,4,AA,A0,FF,C0,00,00,00,00,
1738272,00000157,false,Rx,0,7,D5,56,09,C4,00,00,00,00,
1738498,00000423,false,Rx,0,8,07,1E,FF,FD,5D,A0,B2,C1,
1741048,00000155,false,Rx,0,8,03,87,CE,54,9C,40,02,C3,
1743147,00000196,false,Rx,0,8,00,64,02,FF,A0,FF,2B,00,
1743402,0000019F,false,Rx,0,8,00,00,7D,07,00,6A,88,4E,
1743605,00000156,false,Rx,0,6,FF,FF,FF,05,FF,40,00,00,
1743808,000001A1,false,Rx,0,6,00,05,8A,26,00,00,00,00,
1747272,000001C7,false,Rx,0,4,AA,A0,FF,C0,00,00,00,00,
1749274,00000157,false,Rx,0,7,D5,A6,09,C4,00,00,00,00,
1749932,00000155,false,Rx,0,8,03,87,CE,54,9C,40,02,C3,
1753130,00000196,false,Rx,0,8,00,64,02,FF,A0,FF,2B,00,
1753355,0000019F,false,Rx,0,8,00,00,7D,0C,00,6A,88,4E,
1753545,00000156,false,Rx,0,6,FF,FF,FF,05,FF,40,00,00,
1753761,000001A1,false,Rx,0,6,00,05,8A,26,00,00,00,00,
1753916,00000435,false,Rx,0,4,FF,FF,1E,00,00,00,00,00,
1757219,000001C7,false,Rx,0,4,AA,A0,FF,C0,00,00,00,00,
1758297,00000157,false,Rx,0,7,D5,F6,09,C4,00,00,00,00,
1761823,00000155,false,Rx,0,8,03,87,CE,54,9C,40,02,C3,
1763231,00000196,false,Rx,0,8,00,64,02,FF,A0,FF,2B,00,
1763434,00000156,false,Rx,0,6,FF,FF,FF,05,FF,40,00,00,
1763661,0000019F,false,Rx,0,8,00,00,7D,01,00,6A,88,4E,
1763862,000001A1,false,Rx,0,6,00,05,88,26,00,00,00,00,
1764114,00000426,false,Rx,0,8,00,10,02,01,04,16,00,40,
1767283,000004F7,false,Rx,0,8,00,1F,08,00,B0,48,06,F0,
1767454,000001C7,false,Rx,0,4,AA,A0,FF,C0,00,00,00,00,
1769131,00000157,false,Rx,0,7,D5,46,09,C4,00,00,00,00,
1770728,00000155,false,Rx,0,8,03,87,CE,54,9C,40,02,C3,
1772307,00000428,false,Rx,0,8,00,00,00,7F,00,00,00,00,
1772432,0000042F,false,Rx,0,2,00,20,00,00,00,00,00,00,
1773229,00000196,false,Rx,0,8,00,64,02,FF,A0,FF,2B,00,
1773431,00000156,false,Rx,0,6,FF,FF,FF,05,FF,40,00,00,
1773684,0000019F,false,Rx,0,8,00,00,7D,06,00,6A,88,4E,
1773886,000001A1,false,Rx,0,6,00,05,8A,26,00,00,00,00,
1774082,00000436,false,Rx,0,6,00,2F,08,B1,FF,DC,00,00,
1777222,000001C7,false,Rx,0,4,AA,A0,FF,C0,00,00,00,00,
1778311,00000157,false,Rx,0,7,D5,96,09,C4,00,00,00,00,
1779689,00000155,false,Rx,0,8,03,87,CE,54,9C,40,02,C3,
1783149,00000196,false,Rx,0,8,00,64,02,FF,A0,FF,2B,00,
1783351,00000156,false,Rx,0,6,FF,FF,FF,05,FF,40,00,00,
1783605,0000019F,false,Rx,0,8,00,00,7D,0B,00,6A,88,4E,
1783806,000001A1,false,Rx,0,6,00,05,8A,26,00,00,00,00,
1787272,000001C7,false,Rx,0,4,AA,A0,FF,C0,00,00,00,00,
1789065,00000157,false,Rx,0,7,D5,E6,09,C4,00,00,00,00,
1791572,00000155,false,Rx,0,8,03,87,CE,54,9C,40,02,C3,
1793141,00000196,false,Rx,0,8,00,64,02,FF,A0,FF,2B,00,
1793371,0000019F,false,Rx,0,8,00,00,7D,00,00,6A,88,4E,
1793573,00000156,false,Rx,0,6,FF,FF,FF,05,FF,40,00,00,
1793806,000001A1,false,Rx,0,6,00,05,8A,26,00,00,00,00,
1797273,000001C7,false,Rx,0,4,AA,A0,FF,C0,00,00,00,00,
1798246,00000157,false,Rx,0,7,D5,36,09,C4,00,00,00,00,
1800498,00000155,false,Rx,0,8,03,87,CE,54,9C,40,02,C3,
1803118,00000196,false,Rx,0,8,00,64,02,FF,A0,FF,2B,00,
1803337,00000156,false,Rx,0,6,FF,FF,FF,05,FF,40,00,00,
1803547,0000019F,false,Rx,0,8,00,00,7D,05,00,6A,88,4E,
1803759,000001A1,false,Rx,0,6,00,05,8A,26,00,00,00,00,
1804009,00000422,false,Rx,0,8,00,00,3B,4F,00,A8,01,3B,
1804162,0000042C,false,Rx,0,5,00,00,3F,40,DB,00,00,00,
1804367,00000511,false,Rx,0,7,04,31,85,4D,F7,07,90,00,
1807222,000001C7,false,Rx,0,4,AA,A0,FF,C0,00,00,00,00,
1809214,00000157,false,Rx,0,7,D5,86,09,C4,00,00,00,00,
1809396,00000155,false,Rx,0,8,03,87,CE,54,9C,40,02,C3,
1810360,00000424,false,Rx,0,8,11,40,02,10,3D,64,55,3E,
1810586,00000425,false,Rx,0,8,11,BB,44,9C,42,1A,CD,0C,
1810763,000004AF,false,Rx,0,5,65,3B,4B,3A,40,00,00,00,
1813238,00000196,false,Rx,0,8,00,64,02,FF,A0,FF,2B,00,
1813433,00000156,false,Rx,0,6,FF,FF,FF,05,FF,40,00,00,
1813660,0000019F,false,Rx,0,8,00,00,7D,0A,00,6A,88,4E,
1813888,000001A1,false,Rx,0,6,00,05,8A,26,00,00,00,00,
1817279,000001C7,false,Rx,0,4,AA,A0,FF,C0,00,00,00,00,
1818308,00000157,false,Rx,0,7,D5,D6,09,C4,00,00,00,00,
1821464,00000155,false,Rx,0,8,03,87,CE,54,9C,40,02,C3,
1823385,00000196,false,Rx,0,8,00,64,02,FF,A0,FF,2B,00,
1823405,00000156,false,Rx,0,6,FF,FF,FF,05,FF,40,00,00,
1823671,0000019F,false,Rx,0,8,00,00,7D,0F,00,6A,88,4E,
1823907,000001A1,false,Rx,0,6,00,05,8A,26,00,00,00,00,
1827239,000001C7,false,Rx,0,4,AA,A0,FF,C0,00,00,00,00,
1828955,00000157,false,Rx,0,7,D5,26,09,C4,00,00,00,00,
1830180,00000155,false,Rx,0,8,03,87,CE,54,9C,40,02,C3,
1833164,00000196,false,Rx,0,8,00,64,02,FF,A0,FF,2B,00,
1833408,0000019F,false,Rx,0,8,00,00,7D,04,00,6A,88,4E,
1833565,00000156,false,Rx,0,6,FF,FF,FF,05,FF,40,00,00,
1833811,000001A1,false,Rx,0,6,00,05,8A,26,00,00,00,00,
1837504,000001C7,false,Rx,0,4,AA,A0,FF,C0,00,00,00,00,
1838247,00000157,false,Rx,0,7,D5,76,09,C4,00,00,00,00,
1838515,00000423,false,Rx,0,8,07,1E,FF,FD,5D,A0,B2,C1,
1839243,00000155,false,Rx,0,8,03,87,CE,54,9C,40,02,C3,
1843178,00000196,false,Rx,0,8,00,64,02,FF,A0,FF,2B,00,
1843349,00000156,false,Rx,0,6,FF,FF,FF,05,FF,40,00,00,
1843768,0000019F,false,Rx,0,8,00,00,7D,09,00,6A,88,4E,
1843776,000001A1,false,Rx,0,6,00,05,8A,26,00,00,00,00,
1847377,000001C7,false,Rx,0,4,AA,A0,FF,C0,00,00,00,00,
1849071,00000157,false,Rx,0,7,D5,C6,09,C4,00,00,00,00,
1851209,00000155,false,Rx,0,8,03,87,CE,54,9C,40,02,C3,
1853515,00000196,false,Rx,0,8,00,64,02,FF,A0,FF,2B,00,
1853535,00000156,false,Rx,0,6,FF,FF,FF,05,FF,40,00,00,
1853649,0000019F,false,Rx,0,8,00,00,7D,0E,00,6A,88,4E,
1854009,000001A1,false,Rx,0,6,00,05,88,26,00,00,00,00,
1854016,00000435,false,Rx,0,4,FF,FF,1E,00,00,00,00,00,
1857289,000001C7,false,Rx,0,4,AA,A0,FF,C0,00,00,00,00,
1858249,00000157,false,Rx,0,7,D5,16,09,C4,00,00,00,00,
1860137,00000155,false,Rx,0,8,03,87,CE,54,9C,40,02,C3,
1863302,00000196,false,Rx,0,8,00,64,02,FF,A0,FF,2B,00,
1863422,00000156,false,Rx,0,6,FF,FF,FF,05,FF,40,00,00,
1863868,0000019F,false,Rx,0,8,00,00,7D,03,00,6A,88,4E,
1863876,000001A1,false,Rx,0,6,00,05,88,26,00,00,00,00,
1864158,00000426,false,Rx,0,8,00,10,02,01,04,16,00,40,
1867379,000004F7,false,Rx,0,8,00,1F,08,00,B0,48,06,F0,
1867476,000001C7,false,Rx,0,4,AA,A0,FF,C0,00,00,00,00,
1868960,00000155,false,Rx,0,8,03,87,CE,54,9C,40,02,C3,
1869116,00000157,false,Rx,0,7,D5,66,09,C4,00,00,00,00,
1872591,00000428,false,Rx,0,8,00,00,00,7F,00,00,00,00,
1872600,0000042F,false,Rx,0,2,00,20,00,00,00,00,00,00,
1873261,00000196,false,Rx,0,8,00,64,02,FF,A0,FF,2B,00,
1873299,00000156,false,Rx,0,6,FF,FF,FF,05,FF,40,00,00,
1873688,0000019F,false,Rx,0,8,00,00,7D,08,00,6A,88,4E,
1873742,000001A1,false,Rx,0,6,00,05,88,26,00,00,00,00,
1874091,00000436,false,Rx,0,6,00,2F,08,B1,FF,DC,00,00,
1877517,000001C7,false,Rx,0,4,AA,A0,FF,C0,00,00,00,00,
1877793,00000155,false,Rx,0,8,03,87,CE,54,9C,40,02,C3,
1878268,00000157,false,Rx,0,7,D5,B6,09,C4,00,00,00,00,
1883355,00000196,false,Rx,0,8,00,64,02,FF,A0,FF,2B,00,
1883362,0000019F,false,Rx,0,8,00,00,7D,0D,00,6A,88,4E,
1883528,00000156,false,Rx,0,6,FF,FF,FF,05,FF,40,00,00,
1883754,000001A1,false,Rx,0,6,00,05,8A,26,00,00,00,00,
1887513,000001C7,false,Rx,0,4,AA,A0,FF,C0,00,00,00,00,
1889265,00000157,false,Rx,0,7,D5,06,09,C4,00,00,00,00,
1889770,00000155,false,Rx,0,8,03,87,CE,54,9C,40,02,C3,
1893242,00000196,false,Rx,0,8,00,64,02,FF,A0,FF,2B,00,
1893325,0000019F,false,Rx,0,8,00,00,7D,02,00,6A,88,4E,
1893563,00000156,false,Rx,0,6,FF,FF,FF,05,FF,40,00,00,
1893771,000001A1,false,Rx,0,6,00,05,8A,26,00,00,00,00,
1897416,000001C7,false,Rx,0,4,AA,A0,FF,C0,00,00,00,00,
1898353,00000157,false,Rx,0,7,D5,56,09,C4,00,00,00,00,
1898612,00000155,false,Rx,0,8,03,87,CE,54,9C,40,02,C3,
1903407,00000196,false,Rx,0,8,00,64,02,FF,A0,FF,2B,00,
1903416,00000156,false,Rx,0,6,FF,FF,FF,05,FF,40,00,00,
1903733,0000019F,false,Rx,0,8,00,00,7D,07,00,6A,88,4E,
1903905,000001A1,false,Rx,0,6,00,05,88,26,00,00,00,00,
1904163,00000422,false,Rx,0,8,00,00,3B,4F,00,A8,01,3B,
1904311,0000042C,false,Rx,0,5,00,00,3F,40,DB,00,00,00,
1904586,00000511,false,Rx,0,7,04,70,4E,06,62,14,73,00,
1907339,000001C7,false,Rx,0,4,AA,A0,FF,C0,00,00,00,00,
1907572,00000155,false,Rx,0,8,03,87,CE,54,9C,40,02,C3,
1908725,00000424,false,Rx,0,8,11,40,02,10,3D,64,AA,3E,
1908734,00000425,false,Rx,0,8,11,BB,44,9C,42,1A,CD,0C,
1908826,000004AF,false,Rx,0,5,65,3B,4B,3A,40,00,00,00,
1909106,00000157,false,Rx,0,7,D5,A6,09,C4,00,00,00,00,
1913498,00000196,false,Rx,0,8,00,64,02,FF,A0,FF,2B,00,
1913508,00000156,false,Rx,0,6,FF,FF,FF,05,FF,40,00,00,
1913647,0000019F,false,Rx,0,8,00,00,7D,0C,00,6A,88,4E,
1914011,000001A1,false,Rx,0,6,00,05,88,26,00,00,00,00,
1917417,000001C7,false,Rx,0,4,AA,A0,FF,C0,00,00,00,00,
1918285,00000157,false,Rx,0,7,D5,F6,09,C4,00,00,00,00,
1919399,00000155,false,Rx,0,8,03,87,CE,54,9C,40,02,C3,
1923259,00000196,false,Rx,0,8,00,64,02,FF,A0,FF,2B,00,
1923325,0000019F,false,Rx,0,8,00,00,7D,01,00,6A,88,4E,
1923615,00000156,false,Rx,0,6,FF,FF,FF,05,FF,40,00,00,
1923730,000001A1,false,Rx,0,6,00,05,88,26,00,00,00,00,
1927510,000001C7,false,Rx,0,4,AA,A0,FF,C0,00,00,00,00,
1928513,00000155,false,Rx,0,8,03,87,CE,54,9C,40,02,C3,
1929259,00000157,false,Rx,0,7,D5,46,09,C4,00,00,00,00,
1933335,00000196,false,Rx,0,8,00,64,02,FF,A0,FF,2B,00,
1933344,0000019F,false,Rx,0,8,00,00,7D,06,00,6A,88,4E,
1933605,00000156,false,Rx,0,6,FF,FF,FF,05,FF,40,00,00,
1933782,000001A1,false,Rx,0,6,00,05,88,26,00,00,00,00,
1937274,00000155,false,Rx,0,8,03,87,CE,54,9C,40,02,C3,
1937327,000001C7,false,Rx,0,4,AA,A0,FF,C0,00,00,00,00,
1938265,00000157,false,Rx,0,7,D5,96,09,C4,00,00,00,00,
1938550,00000423,false,Rx,0,8,07,1E,FF,FD,B2,A0,B2,C1,
1943484,00000196,false,Rx,0,8,00,64,02,FF,A0,FF,2B,00,
1943492,00000156,false,Rx,0,6,FF,FF,FF,05,FF,40,00,00,
1943706,0000019F,false,Rx,0,8,00,00,7D,0B,00,6A,88,4E,
1943936,000001A1,false,Rx,0,6,00,05,88,26,00,00,00,00,
1947523,000001C7,false,Rx,0,4,AA,A0,FF,C0,00,00,00,00,
1949291,00000157,false,Rx,0,7,D5,E6,09,C4,00,00,00,00,
1949299,00000155,false,Rx,0,8,03,87,CE,54,9C,40,02,C3,
1953493,00000196,false,Rx,0,8,00,64,02,FF,A0,FF,2B,00,
1953502,00000156,false,Rx,0,6,FF,FF,FF,05,FF,40,00,00,
1953625,0000019F,false,Rx,0,8,00,00,7D,00,00,6A,88,4E,
1953855,000001A1,false,Rx,0,6,00,05,8A,26,00,00,00,00,
1954055,00000435,false,Rx,0,4,FF,FF,1E,00,00,00,00,00,
1957367,000001C7,false,Rx,0,4,AA,A0,FF,C0,00,00,00,00,
1958029,00000155,false,Rx,0,8,03,87,CE,54,9C,40,02,C3,
1958271,00000157,false,Rx,0,7,D5,36,09,C4,00,00,00,00,
1963121,00000196,false,Rx,0,8,00,64,02,FF,A0,FF,2B,00,
1963342,0000019F,false,Rx,0,8,00,00,7D,05,00,6A,88,4E,
1963544,00000156,false,Rx,0,6,FF,FF,FF,05,FF,40,00,00,
1963750,000001A1,false,Rx,0,6,00,05,8A,26,00,00,00,00,
1963999,00000426,false,Rx,0,8,00,10,02,01,04,16,00,40,
1966924,00000155,false,Rx,0,8,03,87,CE,54,9C,40,02,C3,
1967374,000004F7,false,Rx,0,8,00,1F,08,00,B0,48,06,F0,
1967558,000001C7,false,Rx,0,4,AA,A0,FF,C0,00,00,00,00,
1969099,00000157,false,Rx,0,7,D5,86,09,C4,00,00,00,00,
1972401,00000428,false,Rx,0,8,00,00,00,7F,00,00,00,00,
1972477,0000042F,false,Rx,0,2,00,20,00,00,00,00,00,00,
1973129,00000196,false,Rx,0,8,00,64,02,FF,A0,FF,2B,00,
1973374,0000019F,false,Rx,0,8,00,00,7D,0A,00,6A,88,4E,
1973578,00000156,false,Rx,0,6,FF,FF,FF,05,FF,40,00,00,
1973778,000001A1,false,Rx,0,6,00,05,8A,26,00,00,00,00,
1973980,00000436,false,Rx,0,6,00,2F,08,B1,FF,DC,00,00,
1977326,000001C7,false,Rx,0,4,AA,A0,FF,C0,00,00,00,00,
1978300,00000157,false,Rx,0,7,D5,D6,09,C4,00,00,00,00,
1978826,00000155,false,Rx,0,8,03,87,CE,54,9C,40,02,C3,
1983225,00000196,false,Rx,0,8,00,64,02,FF,A0,FF,2B,00,
1983449,00000156,false,Rx,0,6,FF,FF,FF,05,FF,40,00,00,
1983677,0000019F,false,Rx,0,8,00,00,7D,0F,00,6A,88,4E,
1983878,000001A1,false,Rx,0,6,00,05,8A,26,00,00,00,00,
1987325,000001C7,false,Rx,0,4,AA,A0,FF,C0,00,00,00,00,
1987751,00000155,false,Rx,0,8,03,87,CE,54,9C,40,02,C3,
1989174,00000157,false,Rx,0,7,D5,26,09,C4,00,00,00,00,
1993224,00000196,false,Rx,0,8,00,64,02,FF,A0,FF,2B,00,
1993449,00000156,false,Rx,0,6,FF,FF,FF,05,FF,40,00,00,
1993676,0000019F,false,Rx,0,8,00,00,7D,04,00,6A,88,4E,
1993881,000001A1,false,Rx,0,6,00,05,88,26,00,00,00,00,
1996602,00000155,false,Rx,0,8,03,87,CE,54,9C,40,02,C3,
1997276,000001C7,false,Rx,0,4,AA,A0,FF,C0,00,00,00,00,
1998325,00000157,false,Rx,0,7,D5,76,09,C4,00,00,00,00,
2003117,00000196,false,Rx,0,8,00,64,02,FF,A0,FF,2B,00,
2003318,0000019F,false,Rx,0,8,00,00,7D,09,00,6A,88,4E,
2003548,00000156,false,Rx,0,6,FF,FF,FF,05,FF,40,00,00,
2003739,000001A1,false,Rx,0,6,00,05,88,26,00,00,00,00,
2003942,00000422,false,Rx,0,8,00,00,3B,4F,00,A8,01,3B,
2004159,0000042C,false,Rx,0,5,00,00,3F,40,DB,00,00,00,
2004374,00000511,false,Rx,0,7,04,AF,17,BF,CD,21,56,00,
2006522,00000424,false,Rx,0,8,11,40,02,10,3D,64,55,3E,
2006746,00000425,false,Rx,0,8,11,BB,44,9C,42,1A,CD,0C,
2006942,000004AF,false,Rx,0,5,65,3B,4B,3A,40,00,00,00,
2007297,000001C7,false,Rx,0,4,AA,A0,FF,C0,00,00,00,00,
2008519,00000155,false,Rx,0,8,03,87,CE,54,9C,40,02,C3,
2009126,00000157,false,Rx,0,7,D5,C6,09,C4,00,00,00,00,
2013087,00000196,false,Rx,0,8,00,64,02,FF,A0,FF,2B,00,
2013274,00000156,false,Rx,0,6,FF,FF,FF,05,FF,40,00,00,
2013522,0000019F,false,Rx,0,8,00,00,7D,0E,00,6A,88,4E,
2013718,000001A1,false,Rx,0,6,00,05,8A,26,00,00,00,00,
2017244,000001C7,false,Rx,0,4,AA,A0,FF,C0,00,00,00,00,
2017463,00000155,false,Rx,0,8,03,87,CE,54,9C,40,02,C3,
2018235,00000157,false,Rx,0,7,D5,16,09,C4,00,00,00,00,
2023102,00000196,false,Rx,0,8,00,64,02,FF,A0,FF,2B,00,
2023328,00000156,false,Rx,0,6,FF,FF,FF,05,FF,40,00,00,
2023552,0000019F,false,Rx,0,8,00,00,7D,03,00,6A,88,4E,
2023755,000001A1,false,Rx,0,6,00,05,8A,26,00,00,00,00,
2026336,00000155,false,Rx,0,8,03,87,CE,54,9C,40,02,C3,
2027263,000001C7,false,Rx,0,4,AA,A0,FF,C0,00,00,00,00,
2029057,00000157,false,Rx,0,7,D5,66,09,C4,00,00,00,00,
2033228,00000196,false,Rx,0,8,00,64,02,FF,A0,FF,2B,00,
2033423,00000156,false,Rx,0,6,FF,FF,FF,05,FF,40,00,00,
2033676,0000019F,false,Rx,0,8,00,00,7D,08,00,6A,88,4E,
2033877,000001A1,false,Rx,0,6,00,05,88,26,00,00,00,00,
2037234,000001C7,false,Rx,0,4,AA,A0,FF,C0,00,00,00,00,
2038238,00000155,false,Rx,0,8,03,87,CE,54,9C,40,02,C3,
2038501,00000157,false,Rx,0,7,D5,B6,09,C4,00,00,00,00,
2038731,00000423,false,Rx,0,8,07,1E,FF,FD,B2,A0,B2,C1,
2043228,00000196,false,Rx,0,8,00,64,02,FF,A0,FF,2B,00,
2043449,00000156,false,Rx,0,6,FF,FF,FF,05,FF,40,00,00,
2043682,0000019F,false,Rx,0,8,00,00,7D,0D,00,6A,88,4E,
2043879,000001A1,false,Rx,0,6,00,05,88,26,00,00,00,00,
2047192,00000155,false,Rx,0,8,03,87,CE,54,9C,40,02,C3,
2047319,000001C7,false,Rx,0,4,AA,A0,FF,C0,00,00,00,00,
2049149,00000157,false,Rx,0,7,D5,06,09,C4,00,00,00,00,
2053059,00000196,false,Rx,0,8,00,64,02,FF,A0,FF,2B,00,
2053301,0000019F,false,Rx,0,8,00,00,7D,02,00,6A,88,4E,
2053501,00000156,false,Rx,0,6,FF,FF,FF,05,FF,40,00,00,
2053699,000001A1,false,Rx,0,6,00,05,88,26,00,00,00,00,
2053875,00000435,false,Rx,0,4,FF,FF,1E,00,00,00,00,00,
2056052,00000155,false,Rx,0,8,03,87,CE,54,9C,40,02,C3,
2057228,000001C7,false,Rx,0,4,AA,A0,FF,C0,00,00,00,00,
2058226,00000157,false,Rx,0,7,D5,56,09,C4,00,00,00,00,
2063057,00000196,false,Rx,0,8,00,64,02,FF,A0,FF,2B,00,
2063300,0000019F,false,Rx,0,8,00,00,7D,07,00,6A,88,4E,
2063503,00000156,false,Rx,0,6,FF,FF,FF,05,FF,40,00,00,
2063704,000001A1,false,Rx,0,6,00,05,88,26,00,00,00,00,
2063930,00000426,false,Rx,0,8,00,10,02,01,04,16,00,40,
2067342,000004F7,false,Rx,0,8,00,1F,08,00,B0,48,06,F0,
2067567,000001C7,false,Rx,0,4,AA,A0,FF,C0,00,00,00,00,
2068110,00000155,false,Rx,0,8,03,87,CE,54,9C,40,02,C3,
2069386,00000157,false,Rx,0,7,D5,A6,09,C4,00,00,00,00,
2072418,00000428,false,Rx,0,8,00,00,00,7F,00,00,00,00,
2072454,0000042F,false,Rx,0,2,00,20,00,00,00,00,00,00,
2073389,00000196,false,Rx,0,8,00,64,02,FF,A0,FF,2B,00,
2073396,00000156,false,Rx,0,6,FF,FF,FF,05,FF,40,00,00,
2073755,0000019F,false,Rx,0,8,00,00,7D,0C,00,6A,88,4E,
2073831,000001A1,false,Rx,0,6,00,05,88,26,00,00,00,00,
2074032,00000436,false,Rx,0,6,00,2F,08,B1,FF,DC,00,00,
2076856,00000155,false,Rx,0,8,03,87,CE,54,9C,40,02,C3,
2077251,000001C7,false,Rx,0,4,AA,A0,FF,C0,00,00,00,00,
2078251,00000157,false,Rx,0,7,D5,F6,09,C4,00,00,00,00,
2083245,00000196,false,Rx,0,8,00,64,02,FF,A0,FF,2B,00,
2083378,00000156,false,Rx,0,6,FF,FF,FF,05,FF,40,00,00,
2083689,0000019F,false,Rx,0,8,00,00,7D,01,00,6A,88,4E,
2083820,000001A1,false,Rx,0,6,00,05,88,26,00,00,00,00,
2085929,00000155,false,Rx,0,8,03,87,CE,54,9C,40,02,C3,
2087375,000001C7,false,Rx,0,4,AA,A0,FF,C0,00,00,00,00,
2089148,00000157,false,Rx,0,7,D5,46,09,C4,00,00,00,00,
2093314,00000196,false,Rx,0,8,00,64,02,FF,A0,FF,2B,00,
2093324,00000156,false,Rx,0,6,FF,FF,FF,05,FF,40,00,00,
2093583,0000019F,false,Rx,0,8,00,00,7D,06,00,6A,88,4E,
2093763,000001A1,false,Rx,0,6,00,05,88,26,00,00,00,00,
2097298,000001C7,false,Rx,0,4,AA,A0,FF,C0,00,00,00,00,
2097735,00000155,false,Rx,0,8,03,87,CE,54,9C,40,02,C3,
2098340,00000157,false,Rx,0,7,D5,96,09,C4,00,00,00,00,
2103318,00000196,false,Rx,0,8,00,64,02,FF,A0,FF,2B,00,
2103327,0000019F,false,Rx,0,8,00,00,7D,0B,00,6A,88,4E,
2103517,00000156,false,Rx,0,6,FF,FF,FF,05,FF,40,00,00,
2103877,000001A1,false,Rx,0,6,00,05,88,26,00,00,00,00,
2103926,00000422,false,Rx,0,8,00,00,3B,4F,00,A8,01,3B,
2104281,0000042C,false,Rx,0,5,00,00,3F,40,DB,00,00,00,
2104326,00000511,false,Rx,0,7,04,EE,E0,78,38,2E,39,00,
2106744,00000155,false,Rx,0,8,03,87,CE,54,9C,40,02,C3,
2107516,000001C7,false,Rx,0,4,AA,A0,FF,C0,00,00,00,00,
2107599,00000424,false,Rx,0,8,11,40,02,10,3D,64,AA,3E,
2107886,00000425,false,Rx,0,8,11,BB,44,9C,42,1A,CD,0C,
2107979,000004AF,false,Rx,0,5,65,3B,4B,3A,40,00,00,00,
2109005,00000157,false,Rx,0,7,D5,E6,09,C4,00,00,00,00,
2113342,00000196,false,Rx,0,8,00,64,02,FF,A0,FF,2B,00,
