Time Stamp,ID,Extended,Dir,Bus,LEN,D1,D2,D3,D4,D5,D6,D7,D8
1778861,00000157,false,Rx,0,8,D5,57,09,C4,FF,E0,BE,80,
1779105,000001A1,false,Rx,0,8,B2,8B,3C,34,99,0C,80,20,
1783793,00000435,false,Rx,0,8,FF,FF,1E,6A,3B,10,00,00,
1784036,0000019F,false,Rx,0,8,00,00,7D,0A,00,6A,90,FE,
1788034,00000155,false,Rx,0,8,0A,87,F2,54,98,48,02,CA,
1788198,000001C7,false,Rx,0,4,AA,A0,FF,C0,00,00,00,00,
1788914,00000157,false,Rx,0,8,D5,A7,09,C4,FF,E0,BE,80,
1789108,000001A1,false,Rx,0,8,B2,8B,3E,34,99,0C,80,20,
1789328,00000436,false,Rx,0,6,86,14,AB,03,FF,DC,00,00,
1793108,0000042F,false,Rx,0,2,32,20,00,00,00,00,00,00,
1793983,0000019F,false,Rx,0,8,00,00,7D,0F,00,6A,90,FE,
1794254,00000511,false,Rx,0,7,04,16,59,F0,D5,C3,A6,00,
1797996,00000155,false,Rx,0,8,0A,87,F1,54,98,48,02,CA,
1798156,000001C7,false,Rx,0,4,AA,A0,FF,C0,00,00,00,00,
1798833,00000157,false,Rx,0,8,D5,F7,09,C4,FF,E0,BE,80,
1799051,000001A1,false,Rx,0,8,B2,8B,4A,34,99,0C,80,20,
1804011,0000019F,false,Rx,0,8,00,00,7D,04,00,6A,90,FE,
1807958,00000155,false,Rx,0,8,0A,87,F2,54,98,48,02,CA,
1808180,000001C7,false,Rx,0,4,AA,A0,FF,C0,00,00,00,00,
1808879,00000157,false,Rx,0,8,D5,47,09,C4,FF,E0,BE,80,
1809100,000001A1,false,Rx,0,8,B2,8B,6E,34,99,0C,80,20,
1814004,0000019F,false,Rx,0,8,00,00,7D,09,00,6A,90,FE,
1817954,00000155,false,Rx,0,8,0A,87,F2,54,98,48,02,CA,
1818202,00000424,false,Rx,0,8,11,40,56,C8,3F,5E,55,40,
1818371,000001C7,false,Rx,0,4,AA,A0,FF,C0,00,00,00,00,
1818592,00000425,false,Rx,0,8,0A,D2,44,9C,3E,22,FD,10,
1818905,00000157,false,Rx,0,8,D5,97,09,C4,FF,E0,BE,80,
1819124,000001A1,false,Rx,0,8,B2,8B,AE,34,99,0C,80,20,
1823978,0000019F,false,Rx,0,8,00,00,7D,0E,00,6A,90,FE,
1828001,00000155,false,Rx,0,8,0A,87,F2,54,98,48,02,CB,
1828171,000001C7,false,Rx,0,4,AA,A0,FF,C0,00,00,00,00,
1828906,00000157,false,Rx,0,8,D5,E7,09,C4,FF,E0,BE,80,
1829125,000001A1,false,Rx,0,8,B2,8B,88,34,99,0C,80,20,
1833980,0000019F,false,Rx,0,8,00,00,7D,03,00,6A,90,FE,
1837953,00000155,false,Rx,0,8,0A,87,F1,54,98,48,02,CA,
1838175,000001C7,false,Rx,0,4,AA,A0,FF,C0,00,00,00,00,
1838827,00000157,false,Rx,0,8,D5,37,09,C4,FF,E0,BE,80,
1839049,000001A1,false,Rx,0,8,B2,8B,38,34,29,0C,80,20,
1843252,000004F7,false,Rx,0,8,00,3C,0C,22,28,B8,06,F0,
1843976,0000019F,false,Rx,0,8,00,00,7D,08,00,6A,90,FE,
1844225,00000419,false,Rx,0,6,5E,08,2A,E6,7E,00,00,00,
1847955,00000155,false,Rx,0,8,0A,87,F2,54,98,48,02,CA,
1848176,000001C7,false,Rx,0,4,AA,A0,FF,C0,00,00,00,00,
1848903,00000157,false,Rx,0,8,D5,87,09,C4,FF,E0,BE,80,
1849127,000001A1,false,Rx,0,8,B2,8B,22,34,49,0C,80,20,
1853650,00000445,false,Rx,0,7,80,55,55,65,04,82,00,00,
1853974,0000019F,false,Rx,0,8,00,00,7D,0D,00,6A,90,FE,
1857977,00000155,false,Rx,0,8,0A,87,F1,54,98,48,02,CA,
1858175,000001C7,false,Rx,0,4,AA,A0,FF,C0,00,00,00,00,
1858900,00000157,false,Rx,0,8,D5,D7,09,C4,FF,E0,BE,80,
1859123,000001A1,false,Rx,0,8,B2,8B,2C,34,59,0C,80,20,
1863275,00000428,false,Rx,0,8,00,00,00,7F,00,00,8F,00,
1863800,00000423,false,Rx,0,8,07,1D,00,02,B2,20,B2,D8,
1864025,0000019F,false,Rx,0,8,00,00,7D,02,00,6A,90,FE,
1868027,00000155,false,Rx,0,8,0A,87,F2,54,98,48,02,CB,
1868195,000001C7,false,Rx,0,4,AA,A0,FF,C0,00,00,00,00,
1868824,00000157,false,Rx,0,8,D5,27,09,C4,FF,E0,BE,80,
1869048,000001A1,false,Rx,0,8,B2,8B,38,34,99,0C,80,20,
1869297,00000426,false,Rx,0,8,00,A0,01,00,4B,C8,00,80,
1873978,0000019F,false,Rx,0,8,00,00,7D,07,00,6A,90,FE,
1878001,00000155,false,Rx,0,8,0A,87,F1,54,98,48,02,CA,
1878195,000001C7,false,Rx,0,4,AA,A0,FF,C0,00,00,00,00,
1878925,00000157,false,Rx,0,8,D5,77,09,C4,FF,E0,BE,80,
1879150,000001A1,false,Rx,0,8,B2,CB,34,34,89,0C,80,20,
1883850,00000435,false,Rx,0,8,FF,FF,1E,6A,3B,10,00,00,
1884096,0000019F,false,Rx,0,8,00,00,7D,0C,00,6A,90,FE,
1888022,00000155,false,Rx,0,8,0A,87,F2,54,98,48,02,CB,
1888194,000001C7,false,Rx,0,4,AA,A0,FF,C0,00,00,00,00,
1888850,00000157,false,Rx,0,8,D5,C7,09,C4,FF,E0,BE,80,
1889094,000001A1,false,Rx,0,8,B2,CB,3C,34,99,0C,80,20,
1889288,00000436,false,Rx,0,6,86,14,AB,03,FF,DC,00,00,
1893175,0000042F,false,Rx,0,2,32,20,00,00,00,00,00,00,
1893974,0000019F,false,Rx,0,8,00,00,7D,01,00,6A,90,FE,
1894247,00000511,false,Rx,0,7,04,55,22,A9,40,D0,89,00,
1898000,00000155,false,Rx,0,8,0A,87,F2,54,98,48,02,CA,
1898192,000001C7,false,Rx,0,4,AA,A0,FF,C0,00,00,00,00,
1898822,00000157,false,Rx,0,8,D5,17,09,C4,FF,E0,BE,80,
1899044,000001A1,false,Rx,0,8,B2,CB,3C,34,99,0C,80,20,
1903972,0000019F,false,Rx,0,8,00,00,7D,06,00,6A,90,FE,
1907949,00000155,false,Rx,0,8,0A,87,F2,54,98,48,02,CB,
1908219,000001C7,false,Rx,0,4,AA,A0,FF,C0,00,00,00,00,
1908820,00000157,false,Rx,0,8,D5,67,09,C4,FF,E0,BE,80,
1909042,000001A1,false,Rx,0,8,B2,8B,34,34,99,0C,80,20,
1913972,0000019F,false,Rx,0,8,00,00,7D,0B,00,6A,90,FE,
1917948,00000155,false,Rx,0,8,0A,87,F1,54,98,48,02,CB,
1918192,00000424,false,Rx,0,8,11,40,56,C8,3F,5E,AA,40,
1918339,000001C7,false,Rx,0,4,AA,A0,FF,C0,00,00,00,00,
1918586,00000425,false,Rx,0,8,0A,D2,44,9C,3E,22,FD,10,
1918870,00000157,false,Rx,0,8,D5,B7,09,C4,FF,E0,BE,80,
1919095,000001A1,false,Rx,0,8,B2,8B,3E,34,99,0C,80,20,
1923973,0000019F,false,Rx,0,8,00,00,7D,00,00,6A,90,FE,
1927947,00000155,false,Rx,0,8,0A,87,F2,54,98,48,02,CB,
1928218,000001C7,false,Rx,0,4,AA,A0,FF,C0,00,00,00,00,
1928895,00000157,false,Rx,0,8,D5,07,09,C4,FF,E0,BE,80,
1929150,000001A1,false,Rx,0,8,B2,CB,3C,34,99,0C,80,20,
1933969,0000019F,false,Rx,0,8,00,00,7D,05,00,6A,90,FE,
1937944,00000155,false,Rx,0,8,0A,87,F1,54,98,48,02,CB,
1938217,000001C7,false,Rx,0,4,AA,A0,FF,C0,00,00,00,00,
1938820,00000157,false,Rx,0,8,D5,57,09,C4,FF,E0,BE,80,
1939039,000001A1,false,Rx,0,8,B2,8B,42,34,99,0C,80,20,
1943293,000004F7,false,Rx,0,8,00,3C,0C,22,28,B8,06,F0,
1943968,0000019F,false,Rx,0,8,00,00,7D,0A,00,6A,90,FE,
1944212,00000419,false,Rx,0,6,5E,09,2A,E6,7E,00,00,00,
1947946,00000155,false,Rx,0,8,0A,87,F2,54,98,48,02,CA,
1948242,000001C7,false,Rx,0,4,AA,A0,FF,C0,00,00,00,00,
1948843,00000157,false,Rx,0,8,D5,A7,09,C4,FF,E0,BE,80,
1949091,000001A1,false,Rx,0,8,B2,8B,3C,34,99,0C,80,20,
1950545,0000069F,false,Rx,0,4,71,30,28,2F,00,00,00,00,
1953669,00000445,false,Rx,0,7,80,55,AA,65,04,82,00,00,
1953963,0000019F,false,Rx,0,8,00,00,7D,0F,00,6A,90,FE,
1958017,00000155,false,Rx,0,8,0A,87,F1,54,98,48,02,CA,
1958238,000001C7,false,Rx,0,4,AA,A0,FF,C0,00,00,00,00,
1958918,00000157,false,Rx,0,8,D5,F7,09,C4,FF,E0,BE,80,
1959114,000001A1,false,Rx,0,8,B2,8B,42,34,99,0C,80,20,
1963317,00000428,false,Rx,0,8,00,00,00,7F,00,00,8F,00,
1963791,00000423,false,Rx,0,8,07,1D,00,02,B2,20,B2,D9,
1964038,0000019F,false,Rx,0,8,00,00,7D,04,00,6A,90,FE,
1967970,00000155,false,Rx,0,8,0A,87,F2,54,98,48,02,CA,
1968240,000001C7,false,Rx,0,4,AA,A0,FF,C0,00,00,00,00,
1968840,00000157,false,Rx,0,8,D5,47,09,C4,FF,E0,BE,80,
1969059,000001A1,false,Rx,0,8,B2,8B,50,34,99,0C,80,20,
1969310,00000426,false,Rx,0,8,00,A0,01,00,4B,C8,00,80,
1973966,0000019F,false,Rx,0,8,00,00,7D,09,00,6A,90,FE,
1978017,00000155,false,Rx,0,8,0A,87,F1,54,98,48,02,CA,
1978241,000001C7,false,Rx,0,4,AA,A0,FF,C0,00,00,00,00,
1978890,00000157,false,Rx,0,8,D5,97,09,C4,FF,E0,BE,80,
1979112,000001A1,false,Rx,0,8,B2,CB,8A,34,A9,0C,80,20,
1983790,00000435,false,Rx,0,8,FF,FF,1E,6A,3B,10,00,00,
1984037,0000019F,false,Rx,0,8,00,00,7D,0E,00,6A,90,FE,
1987989,00000155,false,Rx,0,8,0A,87,F2,54,98,48,02,CB,
1988237,000001C7,false,Rx,0,4,AA,A0,FF,C0,00,00,00,00,
1988892,00000157,false,Rx,0,8,D5,E7,09,C4,FF,E0,BE,80,
1989110,000001A1,false,Rx,0,8,B2,8B,D0,34,99,0C,80,20,
1989308,00000436,false,Rx,0,6,86,14,AB,03,FF,DC,00,00,
1993215,0000042F,false,Rx,0,2,32,20,00,00,00,00,00,00,
1993965,0000019F,false,Rx,0,8,00,00,7D,03,00,6A,90,FE,
1994234,00000511,false,Rx,0,7,04,94,EB,62,AB,DD,6C,00,
1997938,00000155,false,Rx,0,8,0A,87,F1,54,98,48,02,CA,
1998236,000001C7,false,Rx,0,4,AA,A0,FF,C0,00,00,00,00,
1998840,00000157,false,Rx,0,8,D5,37,09,C4,FF,E0,BE,80,
1999087,000001A1,false,Rx,0,8,B2,8B,3C,34,99,0C,80,20,
2003965,0000019F,false,Rx,0,8,00,00,7D,08,00,6A,90,FE,
2007942,00000155,false,Rx,0,8,0A,87,F2,54,98,48,02,CB,
2008262,000001C7,false,Rx,0,4,AA,A0,FF,C0,00,00,00,00,
2008815,00000157,false,Rx,0,8,D5,87,09,C4,FF,E0,BE,80,
2009033,000001A1,false,Rx,0,8,B2,8B,2C,34,49,0C,80,20,
2013963,0000019F,false,Rx,0,8,00,00,7D,0D,00,6A,90,FE,
2017940,00000155,false,Rx,0,8,0A,87,F1,54,98,48,02,CA,
2018165,00000424,false,Rx,0,8,11,40,56,C8,3F,5E,AA,40,
2018334,000001C7,false,Rx,0,4,AA,A0,FF,C0,00,00,00,00,
2018555,00000425,false,Rx,0,8,0A,D2,44,9C,3E,22,FD,10,
2018787,000004AE,false,Rx,0,8,D2,B2,3C,A0,92,5A,88,84,
2019032,00000157,false,Rx,0,8,D5,D7,09,C4,FF,E0,BE,80,
2019256,000001A1,false,Rx,0,8,B2,8B,1E,34,79,0C,80,20,
2019427,000004AF,false,Rx,0,5,65,11,4B,3A,40,00,00,00,
2019639,00000659,false,Rx,0,4,26,00,03,36,00,00,00,00,
2023972,0000019F,false,Rx,0,8,00,00,7D,02,00,6A,90,FE,
2027966,00000155,false,Rx,0,8,0A,87,F2,54,98,48,02,CB,
2028259,000001C7,false,Rx,0,4,AA,A0,FF,C0,00,00,00,00,
2028840,00000157,false,Rx,0,8,D5,27,09,C4,FF,E0,BE,80,
2029061,000001A1,false,Rx,0,8,B2,8B,38,34,49,0C,80,20,
2033964,0000019F,false,Rx,0,8,00,00,7D,07,00,6A,90,FE,
2037940,00000155,false,Rx,0,8,0A,87,F1,54,98,48,02,CA,
2038288,000001C7,false,Rx,0,4,AA,A0,FF,C0,00,00,00,00,
2038860,00000157,false,Rx,0,8,D5,77,09,C4,FF,E0,BE,80,
2039084,000001A1,false,Rx,0,8,B2,8B,3C,34,99,0C,80,20,
2043338,000004F7,false,Rx,0,8,00,3C,0C,22,28,B8,06,F0,
2043960,0000019F,false,Rx,0,8,00,00,7D,0C,00,6A,90,FE,
2044207,00000419,false,Rx,0,6,5E,08,2A,E6,7E,00,00,00,
2047931,00000155,false,Rx,0,8,0A,87,F2,54,98,48,02,CB,
2048279,000001C7,false,Rx,0,4,AA,A0,FF,C0,00,00,00,00,
2048856,00000157,false,Rx,0,8,D5,C7,09,C4,FF,E0,BE,80,
2049078,000001A1,false,Rx,0,8,B2,CB,3C,34,99,0C,80,20,
2053655,00000445,false,Rx,0,7,80,55,AA,65,04,82,00,00,
2053954,0000019F,false,Rx,0,8,00,00,7D,01,00,6A,90,FE,
2057955,00000155,false,Rx,0,8,0A,87,F1,54,98,48,02,CA,
2058276,000001C7,false,Rx,0,4,AA,A0,FF,C0,00,00,00,00,
2058801,00000157,false,Rx,0,8,D5,17,09,C4,FF,E0,BE,80,
2059023,000001A1,false,Rx,0,8,B2,CB,38,34,79,0C,80,20,
2063377,00000428,false,Rx,0,8,00,00,00,7F,00,00,8F,00,
2063777,00000423,false,Rx,0,8,07,1D,00,02,B2,20,B2,D8,
2064002,0000019F,false,Rx,0,8,00,00,7D,06,00,6A,90,FE,
2068021,00000155,false,Rx,0,8,0A,87,F2,54,98,48,02,CA,
2068274,000001C7,false,Rx,0,4,AA,A0,FF,C0,00,00,00,00,
2068852,00000157,false,Rx,0,8,D5,67,09,C4,FF,E0,BE,80,
2069075,000001A1,false,Rx,0,8,B2,8B,3C,34,99,0C,80,20,
2069333,00000426,false,Rx,0,8,00,A0,01,00,4B,C8,00,80,
2073952,0000019F,false,Rx,0,8,00,00,7D,0B,00,6A,90,FE,
2077954,00000155,false,Rx,0,8,0A,87,F2,54,98,48,02,CA,
2078278,000001C7,false,Rx,0,4,AA,A0,FF,C0,00,00,00,00,
2078825,00000157,false,Rx,0,8,D5,B7,09,C4,FF,E0,BE,80,
2079024,000001A1,false,Rx,0,8,B2,8B,34,34,99,0C,80,20,
2083824,00000435,false,Rx,0,8,FF,FF,1E,6A,3B,10,00,00,
2084046,0000019F,false,Rx,0,8,00,00,7D,00,00,6A,90,FE,
2088014,00000155,false,Rx,0,8,0A,87,F2,54,98,48,02,CB,
2088299,000001C7,false,Rx,0,4,AA,A0,FF,C0,00,00,00,00,
2088774,00000157,false,Rx,0,8,D5,07,09,C4,FF,E0,BE,80,
2089020,000001A1,false,Rx,0,8,B2,8B,3C,34,99,0C,80,20,
2089216,00000436,false,Rx,0,6,86,14,AB,03,FF,DC,00,00,
2093250,0000042F,false,Rx,0,2,32,20,00,00,00,00,00,00,
2093950,0000019F,false,Rx,0,8,00,00,7D,05,00,6A,90,FE,
2094202,00000511,false,Rx,0,7,04,D3,B4,1B,16,EA,4F,00,
2097974,00000155,false,Rx,0,8,0A,87,F2,54,98,48,02,CA,
2098294,000001C7,false,Rx,0,4,AA,A0,FF,C0,00,00,00,00,
2098874,00000157,false,Rx,0,8,D5,57,09,C4,FF,E0,BE,80,
2099104,000001A1,false,Rx,0,8,B2,8B,3C,34,99,0C,80,20,
2103951,0000019F,false,Rx,0,8,00,00,7D,0A,00,6A,90,FE,
2107933,00000155,false,Rx,0,8,0A,87,F2,54,98,48,02,CB,
2108301,000001C7,false,Rx,0,4,AA,A0,FF,C0,00,00,00,00,
2108833,00000157,false,Rx,0,8,D5,A7,09,C4,FF,E0,BE,80,
2109077,000001A1,false,Rx,0,8,B2,8B,34,34,99,0C,80,20,
2113957,0000019F,false,Rx,0,8,00,00,7D,0F,00,6A,90,FE,
2117933,00000155,false,Rx,0,8,0A,87,F1,54,98,48,02,CA,
2118151,00000424,false,Rx,0,8,11,40,56,C8,3F,5E,AA,40,
2118322,000001C7,false,Rx,0,4,AA,A0,FF,C0,00,00,00,00,
2118573,00000425,false,Rx,0,8,0A,D2,44,9C,3E,22,FD,10,
2118828,00000157,false,Rx,0,8,D5,F7,09,C4,FF,E0,BE,80,
2119048,000001A1,false,Rx,0,8,B2,8B,4A,34,99,0C,80,20,
2123954,0000019F,false,Rx,0,8,00,00,7D,04,00,6A,90,FE,
2127933,00000155,false,Rx,0,8,0A,87,F2,54,98,48,02,CC,
2128329,000001C7,false,Rx,0,4,AA,A0,FF,C0,00,00,00,00,
2128829,00000157,false,Rx,0,8,D5,47,09,C4,FF,E0,BE,80,
2129053,000001A1,false,Rx,0,8,B2,8B,48,34,B9,0C,80,20,
2133933,0000019F,false,Rx,0,8,00,00,7D,09,00,6A,90,FE,
2137931,00000155,false,Rx,0,8,0A,87,F1,54,98,48,02,CA,
2138325,000001C7,false,Rx,0,4,AA,A0,FF,C0,00,00,00,00,
2138882,00000157,false,Rx,0,8,D5,97,09,C4,FF,E0,BE,80,
2139136,000001A1,false,Rx,0,8,B2,8B,7A,34,A9,0C,80,20,
2143382,000004F7,false,Rx,0,8,00,3C,0C,22,28,B8,06,F0,
2143953,0000019F,false,Rx,0,8,00,00,7D,0E,00,6A,90,FE,
2144202,00000419,false,Rx,0,6,5E,08,2A,E6,7E,00,00,00,
2147930,00000155,false,Rx,0,8,0A,87,F2,54,98,48,02,CB,
2148326,000001C7,false,Rx,0,4,AA,A0,FF,C0,00,00,00,00,
2148805,00000157,false,Rx,0,8,D5,E7,09,C4,FF,E0,BE,80,
2149024,000001A1,false,Rx,0,8,B2,8B,B4,34,99,0C,80,20,
2153654,00000445,false,Rx,0,7,80,55,AA,65,04,82,00,00,
2153951,0000019F,false,Rx,0,8,00,00,7D,03,00,6A,90,FE,
2158005,00000155,false,Rx,0,8,0A,87,F2,54,98,48,02,CA,
2158324,000001C7,false,Rx,0,4,AA,A0,FF,C0,00,00,00,00,
2158802,00000157,false,Rx,0,8,D5,37,09,C4,FF,E0,BE,80,
2159023,000001A1,false,Rx,0,8,B2,8B,34,34,79,0C,80,20,
2163398,00000428,false,Rx,0,8,00,00,00,7F,00,00,8F,00,
2163797,00000423,false,Rx,0,8,07,1D,00,02,B2,20,B2,D8,
2164045,0000019F,false,Rx,0,8,00,00,7D,08,00,6A,90,FE,
2167948,00000155,false,Rx,0,8,0A,87,F2,54,98,48,02,CB,
2168317,000001C7,false,Rx,0,4,AA,A0,FF,C0,00,00,00,00,
2168820,00000157,false,Rx,0,8,D5,87,09,C4,FF,E0,BE,80,
2169041,000001A1,false,Rx,0,8,B2,4B,34,34,49,0C,80,20,
2169290,00000426,false,Rx,0,8,00,A0,01,00,4B,C8,00,80,
2173921,0000019F,false,Rx,0,8,00,00,7D,0D,00,6A,90,FE,
2177974,00000155,false,Rx,0,8,0A,87,F1,54,98,48,02,CA,
2178342,000001C7,false,Rx,0,4,AA,A0,FF,C0,00,00,00,00,
2178883,00000157,false,Rx,0,8,D5,D7,09,C4,FF,E0,BE,80,
2179092,000001A1,false,Rx,0,8,B2,8B,18,34,49,0C,80,20,
2183820,00000435,false,Rx,0,8,FF,FF,1E,6A,3B,10,00,00,
2184065,0000019F,false,Rx,0,8,00,00,7D,02,00,6A,90,FE,
2187945,00000155,false,Rx,0,8,0A,87,F2,54,98,48,02,CB,
2188240,000001C7,false,Rx,0,4,AA,A0,FF,C0,00,00,00,00,
2188818,00000157,false,Rx,0,8,D5,27,09,C4,FF,E0,BE,80,
2189041,000001A1,false,Rx,0,8,B2,8B,34,34,79,0C,80,20,
2189238,00000436,false,Rx,0,6,86,14,AB,03,FF,DC,00,00,
2193249,0000042F,false,Rx,0,2,32,20,00,00,00,00,00,00,
2193955,0000019F,false,Rx,0,8,00,00,7D,07,00,6A,90,FE,
2194220,00000511,false,Rx,0,7,04,12,7D,D4,81,F7,32,00,
2197954,00000155,false,Rx,0,8,0A,87,F1,54,98,48,02,CA,
2198270,000001C7,false,Rx,0,4,AA,A0,FF,C0,00,00,00,00,
2198922,00000157,false,Rx,0,8,D5,77,09,C4,FF,E0,BE,80,
2199144,000001A1,false,Rx,0,8,B2,8B,3C,34,89,0C,80,20,
2203919,0000019F,false,Rx,0,8,00,00,7D,0C,00,6A,90,FE,
2207919,00000155,false,Rx,0,8,0A,87,F2,54,98,48,02,CB,
2208239,000001C7,false,Rx,0,4,AA,A0,FF,C0,00,00,00,00,
2208792,00000157,false,Rx,0,8,D5,C7,09,C4,FF,E0,BE,80,
2209014,000001A1,false,Rx,0,8,B2,8B,3C,34,99,0C,80,20,
2213918,0000019F,false,Rx,0,8,00,00,7D,01,00,6A,90,FE,
2217917,00000155,false,Rx,0,8,0A,87,F1,54,98,48,02,CA,
2218139,00000424,false,Rx,0,8,11,40,56,C8,3F,5E,AA,40,
2218311,000001C7,false,Rx,0,4,AA,A0,FF,C0,00,00,00,00,
2218535,00000425,false,Rx,0,8,0A,D2,44,9C,3E,22,FD,10,
2218866,00000157,false,Rx,0,8,D5,17,09,C4,FF,E0,BE,80,
2219115,000001A1,false,Rx,0,8,B2,CB,38,34,99,0C,80,20,
2223942,0000019F,false,Rx,0,8,00,00,7D,06,00,6A,90,FE,
2227916,00000155,false,Rx,0,8,0A,87,F2,54,98,48,02,CB,
2228262,000001C7,false,Rx,0,4,AA,A0,FF,C0,00,00,00,00,
2228865,00000157,false,Rx,0,8,D5,67,09,C4,FF,E0,BE,80,
2229085,000001A1,false,Rx,0,8,B2,CB,34,34,99,0C,80,20,
2233914,0000019F,false,Rx,0,8,00,00,7D,0B,00,6A,90,FE,
2237913,00000155,false,Rx,0,8,0A,87,F1,54,98,48,02,CA,
2238260,000001C7,false,Rx,0,4,AA,A0,FF,C0,00,00,00,00,
2238845,00000157,false,Rx,0,8,D5,B7,09,C4,FF,E0,BE,80,
2239091,000001A1,false,Rx,0,8,B2,8B,3C,34,89,0C,80,20,
2243339,000004F7,false,Rx,0,8,00,3C,0C,22,28,B8,06,F0,
2243912,0000019F,false,Rx,0,8,00,00,7D,00,00,6A,90,FE,
2244184,00000419,false,Rx,0,6,5E,09,2A,E6,7E,00,00,00,
2247911,00000155,false,Rx,0,8,0A,87,F2,54,98,48,02,CB,
2248258,000001C7,false,Rx,0,4,AA,A0,FF,C0,00,00,00,00,
2248786,00000157,false,Rx,0,8,D5,07,09,C4,FF,E0,BE,80,
2249033,000001A1,false,Rx,0,8,B2,4B,3E,34,99,0C,80,20,
2253610,00000445,false,Rx,0,7,80,55,AA,65,04,82,00,00,
2253932,0000019F,false,Rx,0,8,00,00,7D,05,00,6A,90,FE,
2257942,00000155,false,Rx,0,8,0A,87,F1,54,98,48,02,CA,
2258285,000001C7,false,Rx,0,4,AA,A0,FF,C0,00,00,00,00,
2258787,00000157,false,Rx,0,8,D5,57,09,C4,FF,E0,BE,80,
2259034,000001A1,false,Rx,0,8,B2,8B,3C,34,99,0C,80,20,
2263362,00000428,false,Rx,0,8,00,00,00,7F,00,00,8F,00,
2263711,00000423,false,Rx,0,8,07,1D,00,02,B2,20,B2,D8,
2263958,0000019F,false,Rx,0,8,00,00,7D,0A,00,6A,90,FE,
2267989,00000155,false,Rx,0,8,0A,87,F2,54,98,48,02,CA,
2268283,000001C7,false,Rx,0,4,AA,A0,FF,C0,00,00,00,00,
2268813,00000157,false,Rx,0,8,D5,A7,09,C4,FF,E0,BE,80,
2269034,000001A1,false,Rx,0,8,B2,8B,3C,34,99,0C,80,20,
2269281,00000426,false,Rx,0,8,00,A0,01,00,4B,C8,00,80,
2273916,0000019F,false,Rx,0,8,00,00,7D,0F,00,6A,90,FE,
2277936,00000155,false,Rx,0,8,0A,87,F1,54,98,48,02,CA,
2278281,000001C7,false,Rx,0,4,AA,A0,FF,C0,00,00,00,00,
2278809,00000157,false,Rx,0,8,D5,F7,09,C4,FF,E0,BE,80,
2279055,000001A1,false,Rx,0,8,B2,8B,42,34,99,0C,80,20,
2283812,00000435,false,Rx,0,8,FF,FF,1E,6A,3B,10,00,00,
2284057,0000019F,false,Rx,0,8,00,00,7D,04,00,6A,90,FE,
2287984,00000155,false,Rx,0,8,0A,87,F2,54,98,48,02,CB,
2288281,000001C7,false,Rx,0,4,AA,A0,FF,C0,00,00,00,00,
2288822,00000157,false,Rx,0,8,D5,47,09,C4,FF,E0,BE,80,
2289031,000001A1,false,Rx,0,8,B2,8B,3E,34,A9,0C,80,20,
2289228,00000436,false,Rx,0,6,86,14,AB,03,FF,DC,00,00,
2293262,0000042F,false,Rx,0,2,32,20,00,00,00,00,00,00,
2293908,0000019F,false,Rx,0,8,00,00,7D,09,00,6A,90,FE,
2294180,00000511,false,Rx,0,7,04,51,46,8D,EC,04,15,00,
2297935,00000155,false,Rx,0,8,0A,87,F1,54,98,48,02,CD,
2298281,000001C7,false,Rx,0,4,AA,A0,FF,C0,00,00,00,00,
2298806,00000157,false,Rx,0,8,D5,97,09,C4,FF,E0,BE,80,
2299029,000001A1,false,Rx,0,8,B2,8B,6A,34,99,0C,80,20,
2303920,0000019F,false,Rx,0,8,00,00,7D,0E,00,6A,90,FE,
2307913,00000155,false,Rx,0,8,0A,87,F2,54,98,48,02,CB,
2308304,000001C7,false,Rx,0,4,AA,A0,FF,C0,00,00,00,00,
2308757,00000157,false,Rx,0,8,D5,E7,09,C4,FF,E0,BE,80,
2309003,000001A1,false,Rx,0,8,B2,8B,78,34,99,0C,80,20,
2313908,0000019F,false,Rx,0,8,00,00,7D,03,00,6A,90,FE,
2317893,00000155,false,Rx,0,8,0A,87,F1,54,98,48,02,CA,
2318134,00000424,false,Rx,0,8,11,40,56,C8,3F,5E,AA,40,
2318357,00000425,false,Rx,0,8,0A,D2,44,9C,3E,22,FD,10,
2318524,000001C7,false,Rx,0,4,AA,A0,FF,C0,00,00,00,00,
2318887,00000157,false,Rx,0,8,D5,37,09,C4,FF,E0,BE,80,
2319107,000001A1,false,Rx,0,8,B2,8B,46,34,59,0C,80,20,
2323915,0000019F,false,Rx,0,8,00,00,7D,08,00,6A,90,FE,
2327912,00000155,false,Rx,0,8,0A,87,F2,54,98,48,02,CB,
2328305,000001C7,false,Rx,0,4,AA,A0,FF,C0,00,00,00,00,
2328784,00000157,false,Rx,0,8,D5,87,09,C4,FF,E0,BE,80,
2329008,000001A1,false,Rx,0,8,B2,4B,34,34,99,0C,80,20,
2333937,0000019F,false,Rx,0,8,00,00,7D,0D,00,6A,90,FE,
2337905,00000155,false,Rx,0,8,0A,87,F1,54,98,48,02,CA,
2338327,000001C7,false,Rx,0,4,AA,A0,FF,C0,00,00,00,00,
2338754,00000157,false,Rx,0,8,D5,D7,09,C4,FF,E0,BE,80,
2339007,000001A1,false,Rx,0,8,B2,8B,26,34,49,0C,80,20,
2343379,000004F7,false,Rx,0,8,00,3C,0C,22,28,B8,06,F0,
2343903,0000019F,false,Rx,0,8,00,00,7D,02,00,6A,90,FE,
2344150,00000419,false,Rx,0,6,5E,09,2A,E6,7E,00,00,00,
2347904,00000155,false,Rx,0,8,0A,87,F2,54,98,48,02,CB,
2348325,000001C7,false,Rx,0,4,AA,A0,FF,C0,00,00,00,00,
2348803,00000157,false,Rx,0,8,D5,27,09,C4,FF,E0,BE,80,
2349050,000001A1,false,Rx,0,8,B2,8B,28,34,99,0C,80,20,
2353603,00000445,false,Rx,0,7,80,55,AA,65,04,82,00,00,
2353899,0000019F,false,Rx,0,8,00,00,7D,07,00,6A,90,FE,
2357952,00000155,false,Rx,0,8,0A,87,F1,54,98,48,02,CA,
2358323,000001C7,false,Rx,0,4,AA,A0,FF,C0,00,00,00,00,
2358801,00000157,false,Rx,0,8,D5,77,09,C4,FF,E0,BE,80,
2359047,000001A1,false,Rx,0,8,B2,CB,38,34,69,0C,80,20,
2363402,00000428,false,Rx,0,8,00,00,00,7F,00,00,8F,00,
2363700,00000423,false,Rx,0,8,07,1D,00,02,5D,20,5D,D8,
2363922,0000019F,false,Rx,0,8,00,00,7D,0C,00,6A,90,FE,
2367926,00000155,false,Rx,0,8,0A,87,F2,54,98,48,02,CB,
2368322,000001C7,false,Rx,0,4,AA,A0,FF,C0,00,00,00,00,
2368825,00000157,false,Rx,0,8,D5,C7,09,C4,FF,E0,BE,80,
2369072,000001A1,false,Rx,0,8,B2,8B,3C,34,99,0C,80,20,
2369293,00000426,false,Rx,0,8,00,A0,01,00,4B,C8,00,80,
2373901,0000019F,false,Rx,0,8,00,00,7D,01,00,6A,90,FE,
2377950,00000155,false,Rx,0,8,0A,87,F1,54,98,48,02,CA,
2378322,000001C7,false,Rx,0,4,AA,A0,FF,C0,00,00,00,00,
2378800,00000157,false,Rx,0,8,D5,17,09,C4,FF,E0,BE,80,
2379045,000001A1,false,Rx,0,8,B2,CB,3C,34,99,0C,80,20,
2383800,00000435,false,Rx,0,8,FF,FF,1E,6A,3B,10,00,00,
2384046,0000019F,false,Rx,0,8,00,00,7D,06,00,6A,90,FE,
2387923,00000155,false,Rx,0,8,0A,87,F2,54,98,48,02,CA,
2388345,000001C7,false,Rx,0,4,AA,A0,FF,C0,00,00,00,00,
2388798,00000157,false,Rx,0,8,D5,67,09,C4,FF,E0,BE,80,
2389044,000001A1,false,Rx,0,8,B2,CB,38,34,99,0C,80,20,
2389242,00000436,false,Rx,0,6,86,14,AB,03,FF,DC,00,00,
2393297,0000042F,false,Rx,0,2,32,20,00,00,00,00,00,00,
2393897,0000019F,false,Rx,0,8,00,00,7D,0B,00,6A,90,FE,
2394169,00000511,false,Rx,0,7,04,90,0F,46,57,11,F8,00,
2397897,00000155,false,Rx,0,8,0A,87,F1,54,98,48,02,CA,
2398343,000001C7,false,Rx,0,4,AA,A0,FF,C0,00,00,00,00,
2398846,00000157,false,Rx,0,8,D5,B7,09,C4,FF,E0,BE,80,
2399068,000001A1,false,Rx,0,8,B2,8B,3C,34,89,0C,80,20,
2403897,0000019F,false,Rx,0,8,00,00,7D,00,00,6A,90,FE,
2407896,00000155,false,Rx,0,8,0A,87,F2,54,98,48,02,CB,
2408343,000001C7,false,Rx,0,4,AA,A0,FF,C0,00,00,00,00,
2408748,00000157,false,Rx,0,8,D5,07,09,C4,FF,E0,BE,80,
2408994,000001A1,false,Rx,0,8,B2,8B,38,34,99,0C,80,20,
2413896,0000019F,false,Rx,0,8,00,00,7D,05,00,6A,90,FE,
2417870,00000155,false,Rx,0,8,0A,87,F2,54,98,48,02,CA,
2418116,00000424,false,Rx,0,8,11,40,56,C8,3F,5E,55,40,
2418363,00000425,false,Rx,0,8,0A,D2,44,9C,3E,22,FD,10,
2418511,000001C7,false,Rx,0,4,AA,A0,FF,C0,00,00,00,00,
2418744,00000157,false,Rx,0,8,D5,57,09,C4,FF,E0,BE,80,
2418966,000001A1,false,Rx,0,8,B2,8B,38,34,99,0C,80,20,
2423894,0000019F,false,Rx,0,8,00,00,7D,0A,00,6A,90,FE,
2427894,00000155,false,Rx,0,8,0A,87,F2,54,98,48,02,CB,
2428342,000001C7,false,Rx,0,4,AA,A0,FF,C0,00,00,00,00,
2428769,00000157,false,Rx,0,8,D5,A7,09,C4,FF,E0,BE,80,
2429015,000001A1,false,Rx,0,8,B2,8B,3C,34,99,0C,80,20,
2433894,0000019F,false,Rx,0,8,00,00,7D,0F,00,6A,90,FE,
2437893,00000155,false,Rx,0,8,0A,87,F2,54,98,48,02,CB,
2438365,000001C7,false,Rx,0,4,AA,A0,FF,C0,00,00,00,00,
2438843,00000157,false,Rx,0,8,D5,F7,09,C4,FF,E0,BE,80,
2439065,000001A1,false,Rx,0,8,B2,CB,3C,34,99,0C,80,20,
2443418,000004F7,false,Rx,0,8,00,3C,0C,22,28,B8,06,F0,
2443892,0000019F,false,Rx,0,8,00,00,7D,04,00,6A,90,FE,
2444140,00000419,false,Rx,0,6,5E,08,2A,E6,7E,00,00,00,
2447868,00000155,false,Rx,0,8,0A,87,F2,54,98,48,02,CA,
2448364,000001C7,false,Rx,0,4,AA,A0,FF,C0,00,00,00,00,
2448817,00000157,false,Rx,0,8,D5,47,09,C4,FF,E0,BE,80,
2449064,000001A1,false,Rx,0,8,B2,8B,3E,34,99,0C,80,20,
2453592,00000445,false,Rx,0,7,80,55,55,65,04,82,00,00,
2453889,0000019F,false,Rx,0,8,00,00,7D,09,00,6A,90,FE,
2457901,00000155,false,Rx,0,8,0A,87,F1,54,98,48,02,CA,
2458365,000001C7,false,Rx,0,4,AA,A0,FF,C0,00,00,00,00,
2458841,00000157,false,Rx,0,8,D5,97,09,C4,FF,E0,BE,80,
2459063,000001A1,false,Rx,0,8,B2,8B,5C,34,B9,0C,80,20,
2463441,00000428,false,Rx,0,8,00,00,00,7F,00,00,8F,00,
2463791,00000423,false,Rx,0,8,07,1D,00,02,5D,20,5D,D8,
2464038,0000019F,false,Rx,0,8,00,00,7D,0E,00,6A,90,FE,
2467941,00000155,false,Rx,0,8,0A,87,F2,54,98,48,02,CB,
2468363,000001C7,false,Rx,0,4,AA,A0,FF,C0,00,00,00,00,
2468791,00000157,false,Rx,0,8,D5,E7,09,C4,FF,E0,BE,80,
2469037,000001A1,false,Rx,0,8,B2,8B,6A,34,B9,0C,80,20,
2469261,00000426,false,Rx,0,8,00,A0,01,00,4B,C8,00,80,
2473891,0000019F,false,Rx,0,8,00,00,7D,03,00,6A,90,FE,
2477915,00000155,false,Rx,0,8,0A,87,F2,54,98,48,02,CA,
2478387,000001C7,false,Rx,0,4,AA,A0,FF,C0,00,00,00,00,
2478814,00000157,false,Rx,0,8,D5,37,09,C4,FF,E0,BE,80,
2479036,000001A1,false,Rx,0,8,B2,8B,6E,34,99,0C,80,20,
2483714,00000435,false,Rx,0,8,FF,FF,1E,6A,3B,10,00,00,
2483961,0000019F,false,Rx,0,8,00,00,7D,08,00,6A,90,FE,
2487941,00000155,false,Rx,0,8,0A,87,F2,54,98,48,02,CB,
2488386,000001C7,false,Rx,0,4,AA,A0,FF,C0,00,00,00,00,
2488814,00000157,false,Rx,0,8,D5,87,09,C4,FF,E0,BE,80,
2489060,000001A1,false,Rx,0,8,B2,8B,34,34,99,0C,80,20,
2489258,00000436,false,Rx,0,6,86,14,AB,03,FF,DC,00,00,
2493340,0000042F,false,Rx,0,2,32,20,00,00,00,00,00,00,
2493889,0000019F,false,Rx,0,8,00,00,7D,0D,00,6A,90,FE,
2494161,00000511,false,Rx,0,7,04,CF,D8,FF,C2,1E,DB,00,
2497914,00000155,false,Rx,0,8,0A,87,F2,54,98,48,02,CA,
2498385,000001C7,false,Rx,0,4,AA,A0,FF,C0,00,00,00,00,
2498763,00000157,false,Rx,0,8,D5,D7,09,C4,FF,E0,BE,80,
2498985,000001A1,false,Rx,0,8,B2,8B,2E,34,39,0C,80,20,
2503890,0000019F,false,Rx,0,8,00,00,7D,02,00,6A,90,FE,
2507888,00000155,false,Rx,0,8,0A,87,F2,54,98,48,02,CB,
2508385,000001C7,false,Rx,0,4,AA,A0,FF,C0,00,00,00,00,
2508813,00000157,false,Rx,0,8,D5,27,09,C4,FF,E0,BE,80,
2509034,000001A1,false,Rx,0,8,B2,8B,32,34,69,0C,80,20,
2513889,0000019F,false,Rx,0,8,00,00,7D,07,00,6A,90,FE,
2517863,00000155,false,Rx,0,8,0A,87,F1,54,98,48,02,CA,
2518108,00000424,false,Rx,0,8,11,40,56,C8,3F,5E,55,40,
2518330,00000425,false,Rx,0,8,0A,D2,44,9C,3E,22,FD,10,
2518502,000001C7,false,Rx,0,4,AA,A0,FF,C0,00,00,00,00,
2518761,00000157,false,Rx,0,8,D5,77,09,C4,FF,E0,BE,80,
2519008,000001A1,false,Rx,0,8,B2,8B,38,34,29,0C,80,20,
2523897,0000019F,false,Rx,0,8,00,00,7D,0C,00,6A,90,FE,
2527891,00000155,false,Rx,0,8,0A,87,F2,54,98,48,02,CB,
2528409,000001C7,false,Rx,0,4,AA,A0,FF,C0,00,00,00,00,
2528836,00000157,false,Rx,0,8,D5,C7,09,C4,FF,E0,BE,80,
2529058,000001A1,false,Rx,0,8,B2,8B,3C,34,99,0C,80,20,
2533888,0000019F,false,Rx,0,8,00,00,7D,01,00,6A,90,FE,
2537863,00000155,false,Rx,0,8,0A,87,F1,54,98,48,02,CA,
2538408,000001C7,false,Rx,0,4,AA,A0,FF,C0,00,00,00,00,
2538762,00000157,false,Rx,0,8,D5,17,09,C4,FF,E0,BE,80,
2538983,000001A1,false,Rx,0,8,B2,CB,42,34,99,0C,80,20,
2543493,000004F7,false,Rx,0,8,00,3C,0C,22,28,B8,06,F0,
2543886,0000019F,false,Rx,0,8,00,00,7D,06,00,6A,90,FE,
2544132,00000419,false,Rx,0,6,5E,08,2A,E6,7E,00,00,00,
2547863,00000155,false,Rx,0,8,0A,87,F2,54,98,48,02,CB,
2548409,000001C7,false,Rx,0,4,AA,A0,FF,C0,00,00,00,00,
2548734,00000157,false,Rx,0,8,D5,67,09,C4,FF,E0,BE,80,
2548958,000001A1,false,Rx,0,8,B2,8B,38,34,99,0C,80,20,
2553590,00000445,false,Rx,0,7,80,55,55,65,04,82,00,00,
2553882,0000019F,false,Rx,0,8,00,00,7D,0B,00,6A,90,FE,
2557937,00000155,false,Rx,0,8,0A,87,F1,54,98,48,02,CA,
2558412,000001C7,false,Rx,0,4,AA,A0,FF,C0,00,00,00,00,
2558810,00000157,false,Rx,0,8,D5,B7,09,C4,FF,E0,BE,80,
2559031,000001A1,false,Rx,0,8,B2,CB,3C,34,99,0C,80,20,
2563513,00000428,false,Rx,0,8,00,00,00,7F,00,00,8F,00,
2563761,00000423,false,Rx,0,8,07,1D,00,02,5D,20,5D,D8,
2564006,0000019F,false,Rx,0,8,00,00,7D,00,00,6A,90,FE,
2567911,00000155,false,Rx,0,8,0A,87,F2,54,98,48,02,CB,
2568431,000001C7,false,Rx,0,4,AA,A0,FF,C0,00,00,00,00,
2568833,00000157,false,Rx,0,8,D5,07,09,C4,FF,E0,BE,80,
2569055,000001A1,false,Rx,0,8,B2,8B,38,34,99,0C,80,20,
2569301,00000426,false,Rx,0,8,00,A0,01,00,4B,C8,00,80,
2573887,0000019F,false,Rx,0,8,00,00,7D,05,00,6A,90,FE,
2577935,00000155,false,Rx,0,8,0A,87,F1,54,98,48,02,CA,
2578434,000001C7,false,Rx,0,4,AA,A0,FF,C0,00,00,00,00,
2578808,00000157,false,Rx,0,8,D5,57,09,C4,FF,E0,BE,80,
2579056,000001A1,false,Rx,0,8,B2,8B,3E,34,99,0C,80,20,
2583785,00000435,false,Rx,0,8,FF,FF,1E,6A,3B,10,00,00,
2584028,0000019F,false,Rx,0,8,00,00,7D,0A,00,6A,90,FE,
2587947,00000155,false,Rx,0,8,0A,87,F2,54,98,48,02,CA,
2588457,000001C7,false,Rx,0,4,AA,A0,FF,C0,00,00,00,00,
2588757,00000157,false,Rx,0,8,D5,A7,09,C4,FF,E0,BE,80,
2588978,000001A1,false,Rx,0,8,B2,8B,3C,34,A9,0C,80,20,
2589179,00000436,false,Rx,0,6,86,14,AB,03,FF,DC,00,00,
2593410,0000042F,false,Rx,0,2,32,20,00,00,00,00,00,00,
2593855,0000019F,false,Rx,0,8,00,00,7D,0F,00,6A,90,FE,
2594152,00000511,false,Rx,0,7,04,0E,A1,B8,2D,2B,BE,00,
2597855,00000155,false,Rx,0,8,0A,87,F1,54,98,48,02,CA,
2598427,000001C7,false,Rx,0,4,AA,A0,FF,C0,00,00,00,00,
2598830,00000157,false,Rx,0,8,D5,F7,09,C4,FF,E0,BE,80,
2599051,000001A1,false,Rx,0,8,B2,8B,3C,34,99,0C,80,20,
2603887,0000019F,false,Rx,0,8,00,00,7D,04,00,6A,90,FE,
2607860,00000155,false,Rx,0,8,0A,87,F2,54,98,48,02,CB,
2608456,000001C7,false,Rx,0,4,AA,A0,FF,C0,00,00,00,00,
2608782,00000157,false,Rx,0,8,D5,47,09,C4,FF,E0,BE,80,
2609003,000001A1,false,Rx,0,8,B2,8B,3E,34,99,0C,80,20,
2613781,0000019F,false,Rx,0,8,00,00,7D,09,00,6A,90,FE,
2617856,00000155,false,Rx,0,8,0A,87,F1,54,98,48,02,CA,
2618101,00000424,false,Rx,0,8,11,40,56,C8,3F,5E,55,40,
2618323,00000425,false,Rx,0,8,0A,D2,44,9C,3E,22,FD,10,
2618494,000001C7,false,Rx,0,4,AA,A0,FF,C0,00,00,00,00,
2618729,00000157,false,Rx,0,8,D5,97,09,C4,FF,E0,BE,80,
2618950,000001A1,false,Rx,0,8,B2,8B,54,34,99,0C,80,20,
2623779,0000019F,false,Rx,0,8,00,00,7D,0E,00,6A,90,FE,
2627857,00000155,false,Rx,0,8,0A,87,F2,54,98,48,02,CC,
2628450,000001C7,false,Rx,0,4,AA,A0,FF,C0,00,00,00,00,
2628778,000001A1,false,Rx,0,8,B2,8B,6E,34,99,0C,80,20,
2628999,00000157,false,Rx,0,8,D5,E7,09,C4,FF,E0,BE,80,
2633777,0000019F,false,Rx,0,8,00,00,7D,03,00,6A,90,FE,
2637853,00000155,false,Rx,0,8,0A,87,F1,54,98,48,02,C8,
2638449,000001C7,false,Rx,0,4,AA,A0,FF,C0,00,00,00,00,
2638782,00000157,false,Rx,0,8,D5,37,09,C4,FF,E0,BE,80,
2639000,000001A1,false,Rx,0,8,B2,8B,CC,34,49,0C,80,20,
2643578,000004F7,false,Rx,0,8,00,3C,0C,22,28,B8,06,F0,
2643798,0000019F,false,Rx,0,8,00,00,7D,08,00,6A,90,FE,
2644019,00000419,false,Rx,0,6,5E,08,2A,E6,7E,00,00,00,
2647851,00000155,false,Rx,0,8,0A,87,F2,54,98,48,02,CB,
2648448,000001C7,false,Rx,0,4,AA,A0,FF,C0,00,00,00,00,
2648776,000001A1,false,Rx,0,8,B2,8B,4E,34,99,0C,80,20,
2648997,00000157,false,Rx,0,8,D5,87,09,C4,FF,E0,BE,80,
2653575,00000445,false,Rx,0,7,80,55,55,65,04,82,00,00,
2653772,0000019F,false,Rx,0,8,00,00,7D,0D,00,6A,90,FE,
2657925,00000155,false,Rx,0,8,0A,87,F2,54,98,48,02,CA,
2658472,000001C7,false,Rx,0,4,AA,A0,FF,C0,00,00,00,00,
2658749,00000157,false,Rx,0,8,D5,D7,09,C4,FF,E0,BE,80,
2658972,000001A1,false,Rx,0,8,B2,8B,2C,34,49,0C,80,20,
2663574,00000428,false,Rx,0,8,00,00,00,7F,00,00,8F,00,
2663796,0000019F,false,Rx,0,8,00,00,7D,02,00,6A,90,FE,
2664018,00000423,false,Rx,0,8,07,1D,00,02,5D,20,5D,D8,
2667924,00000155,false,Rx,0,8,0A,87,F2,54,98,48,02,CB,
2668480,000001C7,false,Rx,0,4,AA,A0,FF,C0,00,00,00,00,
2668773,000001A1,false,Rx,0,8,B2,8B,12,34,69,0C,80,20,
2668996,00000157,false,Rx,0,8,D5,27,09,C4,FF,E0,BE,80,
2669242,00000426,false,Rx,0,8,00,A0,01,00,4B,C8,00,80,
2673774,0000019F,false,Rx,0,8,00,00,7D,07,00,6A,90,FE,
2677874,00000155,false,Rx,0,8,0A,87,F1,54,98,48,02,CA,
2678470,000001C7,false,Rx,0,4,AA,A0,FF,C0,00,00,00,00,
2678773,000001A1,false,Rx,0,8,B2,8B,32,34,69,0C,80,20,
2678995,00000157,false,Rx,0,8,D5,77,09,C4,FF,E0,BE,80,
2683723,00000435,false,Rx,0,8,FF,FF,1E,6A,3B,10,00,00,
2683944,0000019F,false,Rx,0,8,00,00,7D,0C,00,6A,90,FE,
2687922,00000155,false,Rx,0,8,0A,87,F2,54,98,48,02,CB,
2688479,000001C7,false,Rx,0,4,AA,A0,FF,C0,00,00,00,00,
2688772,000001A1,false,Rx,0,8,B2,CB,3C,34,99,0C,80,20,
2688994,00000157,false,Rx,0,8,D5,C7,09,C4,FF,E0,BE,80,
2689191,00000436,false,Rx,0,6,86,14,AB,03,FF,DC,00,00,
2693447,0000042F,false,Rx,0,2,32,20,00,00,00,00,00,00,
2693772,0000019F,false,Rx,0,8,00,00,7D,01,00,6A,90,FE,
2694043,00000511,false,Rx,0,7,04,4D,6A,71,98,38,A1,00,
2697896,00000155,false,Rx,0,8,0A,87,F1,54,98,48,02,CA,
2698469,000001C7,false,Rx,0,4,AA,A0,FF,C0,00,00,00,00,
2698746,000001A1,false,Rx,0,8,B2,CB,3C,34,89,0C,80,20,
2698993,00000157,false,Rx,0,8,D5,17,09,C4,FF,E0,BE,80,
2703771,0000019F,false,Rx,0,8,00,00,7D,06,00,6A,90,FE,
2707846,00000155,false,Rx,0,8,0A,87,F2,54,98,48,02,CB,
2708493,000001C7,false,Rx,0,4,AA,A0,FF,C0,00,00,00,00,
2708770,000001A1,false,Rx,0,8,B2,8B,38,34,99,0C,80,20,
2708992,00000157,false,Rx,0,8,D5,67,09,C4,FF,E0,BE,80,
2713770,0000019F,false,Rx,0,8,00,00,7D,0B,00,6A,90,FE,
2717845,00000155,false,Rx,0,8,0A,87,F1,54,98,48,02,CA,
2718092,00000424,false,Rx,0,8,11,40,56,C8,3F,5E,55,40,
2718313,00000425,false,Rx,0,8,0A,D2,44,9C,3E,22,FD,10,
2718485,000001C7,false,Rx,0,4,AA,A0,FF,C0,00,00,00,00,
2718744,00000157,false,Rx,0,8,D5,B7,09,C4,FF,E0,BE,80,
2718966,000001A1,false,Rx,0,8,B2,8B,3E,34,99,0C,80,20,
2723770,0000019F,false,Rx,0,8,00,00,7D,00,00,6A,90,FE,
2727844,00000155,false,Rx,0,8,0A,87,F2,54,98,48,02,CB,
2728491,000001C7,false,Rx,0,4,AA,A0,FF,C0,00,00,00,00,
2728768,000001A1,false,Rx,0,8,B2,8B,34,34,99,0C,80,20,
2728991,00000157,false,Rx,0,8,D5,07,09,C4,FF,E0,BE,80,
2733769,0000019F,false,Rx,0,8,00,00,7D,05,00,6A,90,FE,
2737844,00000155,false,Rx,0,8,0A,87,F2,54,98,48,02,CA,
2738515,000001C7,false,Rx,0,4,AA,A0,FF,C0,00,00,00,00,
2738742,000001A1,false,Rx,0,8,B2,CB,3C,34,99,0C,80,20,
2738989,00000157,false,Rx,0,8,D5,57,09,C4,FF,E0,BE,80,
2743567,000004F7,false,Rx,0,8,00,3C,0C,22,28,B8,06,F0,
2743814,0000019F,false,Rx,0,8,00,00,7D,0A,00,6A,90,FE,
2744011,00000419,false,Rx,0,6,5E,09,2A,E6,7E,00,00,00,
2747842,00000155,false,Rx,0,8,0A,87,F2,54,98,48,02,CB,
2748527,000001C7,false,Rx,0,4,AA,A0,FF,C0,00,00,00,00,
2748767,000001A1,false,Rx,0,8,B2,8B,3C,34,99,0C,80,20,
2748989,00000157,false,Rx,0,8,D5,A7,09,C4,FF,E0,BE,80,
2753572,00000445,false,Rx,0,7,80,55,55,65,04,82,00,00,
2753775,0000019F,false,Rx,0,8,00,00,7D,0F,00,6A,90,FE,
2757922,00000155,false,Rx,0,8,0A,87,F1,54,98,48,02,CB,
2758571,000001C7,false,Rx,0,4,AA,A0,FF,C0,00,00,00,00,
2758748,000001A1,false,Rx,0,8,B2,8B,34,34,99,0C,80,20,
2759001,00000157,false,Rx,0,8,D5,F7,09,C4,FF,E0,BE,80,
2763597,00000428,false,Rx,0,8,00,00,00,7F,00,00,8F,00,
2763848,0000019F,false,Rx,0,8,00,00,7D,04,00,6A,90,FE,
2764075,00000423,false,Rx,0,8,07,1D,00,02,5D,20,5D,D8,
2767871,00000155,false,Rx,0,8,0A,87,F2,54,98,48,02,CB,
2768575,000001C7,false,Rx,0,4,AA,A0,FF,C0,00,00,00,00,
2768750,00000157,false,Rx,0,8,D5,47,09,C4,FF,E0,BE,80,
2768976,000001A1,false,Rx,0,8,B2,8B,42,34,B9,0C,80,20,
2769228,00000426,false,Rx,0,8,00,A0,01,00,4B,C8,00,80,
2773775,0000019F,false,Rx,0,8,00,00,7D,09,00,6A,90,FE,
2777923,00000155,false,Rx,0,8,0A,87,F1,54,98,48,02,CA,
2778570,000001C7,false,Rx,0,4,AA,A0,FF,C0,00,00,00,00,
2778747,000001A1,false,Rx,0,8,B2,8B,4A,34,A9,0C,80,20,
2778975,00000157,false,Rx,0,8,D5,97,09,C4,FF,E0,BE,80,
2783769,00000435,false,Rx,0,8,FF,FF,1E,6A,3B,10,00,00,
2783987,0000019F,false,Rx,0,8,00,00,7D,0E,00,6A,90,FE,
2787866,00000155,false,Rx,0,8,0A,87,F2,54,98,48,02,CB,
2788565,000001C7,false,Rx,0,4,AA,A0,FF,C0,00,00,00,00,
2788764,000001A1,false,Rx,0,8,B2,8B,58,34,99,0C,80,20,
2788992,00000157,false,Rx,0,8,D5,E7,09,C4,FF,E0,BE,80,
2789195,00000436,false,Rx,0,6,86,14,AB,03,FF,DC,00,00,
2793492,0000042F,false,Rx,0,2,32,20,00,00,00,00,00,00,
2793771,0000019F,false,Rx,0,8,00,00,7D,03,00,6A,90,FE,
2794023,00000511,false,Rx,0,7,04,8C,33,2A,03,45,84,00,
2797842,00000155,false,Rx,0,8,0A,87,F1,54,98,48,02,CA,
2798566,000001C7,false,Rx,0,4,AA,A0,FF,C0,00,00,00,00,
2798761,00000157,false,Rx,0,8,D5,37,09,C4,FF,E0,BE,80,
2798983,000001A1,false,Rx,0,8,B2,8B,B0,34,99,0C,80,20,
2803773,0000019F,false,Rx,0,8,00,00,7D,08,00,6A,90,FE,
2807841,00000155,false,Rx,0,8,0A,87,F2,54,98,48,02,CB,
2808578,000001C7,false,Rx,0,4,AA,A0,FF,C0,00,00,00,00,
2808760,00000157,false,Rx,0,8,D5,87,09,C4,FF,E0,BE,80,
2808987,000001A1,false,Rx,0,8,B2,4B,AA,34,99,0C,80,20,
2813769,0000019F,false,Rx,0,8,00,00,7D,0D,00,6A,90,FE,
2817845,00000155,false,Rx,0,8,0A,87,F2,54,98,48,02,CA,
2818069,00000424,false,Rx,0,8,11,40,56,C8,3F,5E,55,40,
2818295,00000425,false,Rx,0,8,0A,D2,44,9C,3E,22,FD,10,
2818567,000001C7,false,Rx,0,4,AA,A0,FF,C0,00,00,00,00,
2818793,00000157,false,Rx,0,8,D5,D7,09,C4,FF,E0,BE,80,
2818995,000001A1,false,Rx,0,8,B2,8B,32,34,29,0C,80,20,
2823771,0000019F,false,Rx,0,8,00,00,7D,02,00,6A,90,FE,
2827841,00000155,false,Rx,0,8,0A,87,F2,54,98,48,02,CB,
2828588,000001C7,false,Rx,0,4,AA,A0,FF,C0,00,00,00,00,
2828773,00000157,false,Rx,0,8,D5,27,09,C4,FF,E0,BE,80,
2828996,000001A1,false,Rx,0,8,B2,8B,04,34,69,0C,80,20,
2833760,0000019F,false,Rx,0,8,00,00,7D,07,00,6A,90,FE,
2837842,00000155,false,Rx,0,8,0A,87,F1,54,98,48,02,CA,
2838565,000001C7,false,Rx,0,4,AA,A0,FF,C0,00,00,00,00,
2838792,00000157,false,Rx,0,8,D5,77,09,C4,FF,E0,BE,80,
2839018,000001A1,false,Rx,0,8,B2,8B,22,34,99,0C,80,20,
2843615,000004F7,false,Rx,0,8,00,3C,0C,22,28,B8,06,F0,
2843866,0000019F,false,Rx,0,8,00,00,7D,0C,00,6A,90,FE,
2844093,00000419,false,Rx,0,6,5E,09,2A,E6,7E,00,00,00,
2847835,00000155,false,Rx,0,8,0A,87,F2,54,98,48,02,CB,
2848561,000001C7,false,Rx,0,4,AA,A0,FF,C0,00,00,00,00,
2848783,00000157,false,Rx,0,8,D5,C7,09,C4,FF,E0,BE,80,
2849028,000001A1,false,Rx,0,8,B2,8B,3C,34,89,0C,80,20,
2853578,00000445,false,Rx,0,7,80,55,55,65,04,82,00,00,
2853766,0000019F,false,Rx,0,8,00,00,7D,01,00,6A,90,FE,
2857867,00000155,false,Rx,0,8,0A,87,F1,54,98,48,02,CA,
2858566,000001C7,false,Rx,0,4,AA,A0,FF,C0,00,00,00,00,
2858792,00000157,false,Rx,0,8,D5,17,09,C4,FF,E0,BE,80,
2859044,000001A1,false,Rx,0,8,B2,8B,38,34,99,0C,80,20,
2863637,00000428,false,Rx,0,8,00,00,00,7F,00,00,8F,00,
2863881,0000019F,false,Rx,0,8,00,00,7D,06,00,6A,90,FE,
2864103,00000423,false,Rx,0,8,07,1D,00,02,B2,20,B2,D8,
2867914,00000155,false,Rx,0,8,0A,87,F2,54,98,48,02,CA,
2868563,000001C7,false,Rx,0,4,AA,A0,FF,C0,00,00,00,00,
2868790,000001A1,false,Rx,0,8,B2,CB,38,34,99,0C,80,20,
2869042,00000157,false,Rx,0,8,D5,67,09,C4,FF,E0,BE,80,
2869269,00000426,false,Rx,0,8,00,A0,01,00,4B,C8,00,80,
2873738,0000019F,false,Rx,0,8,00,00,7D,0B,00,6A,90,FE,
2877859,00000155,false,Rx,0,8,0A,87,F1,54,98,48,02,CA,
2878557,000001C7,false,Rx,0,4,AA,A0,FF,C0,00,00,00,00,
2878805,00000157,false,Rx,0,8,D5,B7,09,C4,FF,E0,BE,80,
2879026,000001A1,false,Rx,0,8,B2,CB,34,34,99,0C,80,20,
2883718,00000435,false,Rx,0,8,FF,FF,1E,6A,3B,10,00,00,
2883941,0000019F,false,Rx,0,8,00,00,7D,00,00,6A,90,FE,
2887913,00000155,false,Rx,0,8,0A,87,F2,54,98,48,02,CB,
2888586,000001C7,false,Rx,0,4,AA,A0,FF,C0,00,00,00,00,
2888813,000001A1,false,Rx,0,8,B2,8B,3C,34,99,0C,80,20,
2889044,00000157,false,Rx,0,8,D5,07,09,C4,FF,E0,BE,80,
2889243,00000436,false,Rx,0,6,86,14,AB,03,FF,DC,00,00,
2893556,0000042F,false,Rx,0,2,32,20,00,00,00,00,00,00,
2893778,0000019F,false,Rx,0,8,00,00,7D,05,00,6A,90,FE,
2893999,00000511,false,Rx,0,7,04,CB,FC,E3,6E,52,67,00,
2897856,00000155,false,Rx,0,8,0A,87,F1,54,98,48,02,CA,
2898586,000001C7,false,Rx,0,4,AA,A0,FF,C0,00,00,00,00,
2898813,00000157,false,Rx,0,8,D5,57,09,C4,FF,E0,BE,80,
2899040,000001A1,false,Rx,0,8,B2,8B,3C,34,99,0C,80,20,
2903737,0000019F,false,Rx,0,8,00,00,7D,0A,00,6A,90,FE,
2907835,00000155,false,Rx,0,8,0A,87,F2,54,98,48,02,CB,
2908586,000001C7,false,Rx,0,4,AA,A0,FF,C0,00,00,00,00,
2908837,00000157,false,Rx,0,8,D5,A7,09,C4,FF,E0,BE,80,
2909064,000001A1,false,Rx,0,8,B2,4B,3C,34,99,0C,80,20,
2913731,0000019F,false,Rx,0,8,00,00,7D,0F,00,6A,90,FE,
2917835,00000155,false,Rx,0,8,0A,87,F2,54,98,48,02,CB,
2918060,00000424,false,Rx,0,8,11,40,56,C8,3F,5E,AA,40,
2918287,00000425,false,Rx,0,8,0A,D2,44,9C,3E,22,FD,10,
2918608,000001C7,false,Rx,0,4,AA,A0,FF,C0,00,00,00,00,
2918835,00000157,false,Rx,0,8,D5,F7,09,C4,FF,E0,BE,80,
2919062,000001A1,false,Rx,0,8,B2,8B,3C,34,99,0C,80,20,
2923758,0000019F,false,Rx,0,8,00,00,7D,04,00,6A,90,FE,
2927829,00000155,false,Rx,0,8,0A,87,F3,54,98,48,02,CB,
2928603,000001C7,false,Rx,0,4,AA,A0,FF,C0,00,00,00,00,
2928825,00000157,false,Rx,0,8,D5,47,09,C4,FF,E0,BE,80,
2929072,000001A1,false,Rx,0,8,B2,8B,3E,34,99,0C,80,20,
2933733,0000019F,false,Rx,0,8,00,00,7D,09,00,6A,90,FE,
2937833,00000155,false,Rx,0,8,0A,87,F1,54,98,48,02,CB,
2938608,000001C7,false,Rx,0,4,AA,A0,FF,C0,00,00,00,00,
2938833,00000157,false,Rx,0,8,D5,97,09,C4,FF,E0,BE,80,
2939060,000001A1,false,Rx,0,8,B2,8B,48,34,99,0C,80,20,
2943677,000004F7,false,Rx,0,8,00,3C,0C,22,28,B8,06,F0,
2943898,0000019F,false,Rx,0,8,00,00,7D,0E,00,6A,90,FE,
2944195,00000419,false,Rx,0,6,5E,08,2A,E6,7E,00,00,00,
2947831,00000155,false,Rx,0,8,0A,87,F2,54,98,48,02,CA,
2948606,000001C7,false,Rx,0,4,AA,A0,FF,C0,00,00,00,00,
2948833,00000157,false,Rx,0,8,D5,E7,09,C4,FF,E0,BE,80,
2949060,000001A1,false,Rx,0,8,B2,8B,4E,34,B9,0C,80,20,
2950459,0000069F,false,Rx,0,4,71,30,28,2F,00,00,00,00,
2953556,00000445,false,Rx,0,7,80,55,AA,65,04,82,00,00,
2953732,0000019F,false,Rx,0,8,00,00,7D,03,00,6A,90,FE,
2957876,00000155,false,Rx,0,8,0A,87,F1,54,98,48,02,CA,
2958625,000001C7,false,Rx,0,4,AA,A0,FF,C0,00,00,00,00,
2958848,00000157,false,Rx,0,8,D5,37,09,C4,FF,E0,BE,80,
2959069,000001A1,false,Rx,0,8,B2,8B,A0,34,A9,0C,80,20,
2963680,00000428,false,Rx,0,8,00,00,00,7F,00,00,8F,00,
2963932,0000019F,false,Rx,0,8,00,00,7D,08,00,6A,90,FE,
2964159,00000423,false,Rx,0,8,07,1D,00,02,B2,20,B2,D8,
2967854,00000155,false,Rx,0,8,0A,87,F2,54,98,48,02,C9,
2968631,000001C7,false,Rx,0,4,AA,A0,FF,C0,00,00,00,00,
2968860,00000157,false,Rx,0,8,D5,87,09,C4,FF,E0,BE,80,
2969086,000001A1,false,Rx,0,8,B2,8B,EE,34,69,0C,80,20,
2969313,00000426,false,Rx,0,8,00,A0,01,00,4B,C8,00,80,
2973726,0000019F,false,Rx,0,8,00,00,7D,0D,00,6A,90,FE,
2977876,00000155,false,Rx,0,8,0A,87,F1,54,98,48,02,CA,
2978632,000001C7,false,Rx,0,4,AA,A0,FF,C0,00,00,00,00,
2978857,00000157,false,Rx,0,8,D5,D7,09,C4,FF,E0,BE,80,
2979084,000001A1,false,Rx,0,8,B2,CB,3C,34,69,0C,80,20,
2983680,00000435,false,Rx,0,8,FF,FF,1E,6A,3B,10,00,00,
2983932,0000019F,false,Rx,0,8,00,00,7D,02,00,6A,90,FE,
2987854,00000155,false,Rx,0,8,0A,87,F2,54,98,48,02,CB,
2988629,000001C7,false,Rx,0,4,AA,A0,FF,C0,00,00,00,00,
2988858,00000157,false,Rx,0,8,D5,27,09,C4,FF,E0,BE,80,
2989082,000001A1,false,Rx,0,8,B2,8B,26,34,39,0C,80,20,
2989285,00000436,false,Rx,0,6,86,14,AB,03,FF,DC,00,00,
2993605,0000042F,false,Rx,0,2,32,20,00,00,00,00,00,00,
2993830,0000019F,false,Rx,0,8,00,00,7D,07,00,6A,90,FE,
2994107,00000511,false,Rx,0,7,04,0A,C5,9C,D9,5F,4A,00,
2997834,00000155,false,Rx,0,8,0A,87,F2,54,98,48,02,CA,
2998629,000001C7,false,Rx,0,4,AA,A0,FF,C0,00,00,00,00,
2998856,00000157,false,Rx,0,8,D5,77,09,C4,FF,E0,BE,80,
2999108,000001A1,false,Rx,0,8,B2,8B,18,34,89,0C,80,20,
3003731,0000019F,false,Rx,0,8,00,00,7D,0C,00,6A,90,FE,
3007826,00000155,false,Rx,0,8,0A,87,F2,54,98,48,02,CB,
3008624,000001C7,false,Rx,0,4,AA,A0,FF,C0,00,00,00,00,
3008871,00000157,false,Rx,0,8,D5,C7,09,C4,FF,E0,BE,80,
3009093,000001A1,false,Rx,0,8,B2,8B,3C,34,79,0C,80,20,
3013728,0000019F,false,Rx,0,8,00,00,7D,01,00,6A,90,FE,
3017805,00000155,false,Rx,0,8,0A,87,F1,54,98,48,02,CA,
3018059,00000424,false,Rx,0,8,11,40,56,C8,3F,5E,AA,40,
3018281,00000425,false,Rx,0,8,0A,D2,44,9C,3E,22,FD,10,
3018653,000001C7,false,Rx,0,4,AA,A0,FF,C0,00,00,00,00,
3018879,00000157,false,Rx,0,8,D5,17,09,C4,FF,E0,BE,80,
3019105,000001A1,false,Rx,0,8,B2,8B,3C,34,99,0C,80,20,
3023728,0000019F,false,Rx,0,8,00,00,7D,06,00,6A,90,FE,
3027830,00000155,false,Rx,0,8,0A,87,F2,54,98,48,02,CB,
3028652,000001C7,false,Rx,0,4,AA,A0,FF,C0,00,00,00,00,
3028879,00000157,false,Rx,0,8,D5,67,09,C4,FF,E0,BE,80,
3029105,000001A1,false,Rx,0,8,B2,CB,32,34,99,0C,80,20,
3033729,0000019F,false,Rx,0,8,00,00,7D,0B,00,6A,90,FE,
3037824,00000155,false,Rx,0,8,0A,87,F1,54,98,48,02,CA,
3038545,000001C7,false,Rx,0,4,AA,A0,FF,C0,00,00,00,00,
3038791,00000157,false,Rx,0,8,D5,B7,09,C4,FF,E0,BE,80,
3039013,000001A1,false,Rx,0,8,B2,CB,3C,34,99,0C,80,20,
3043623,000004F7,false,Rx,0,8,00,3C,0C,22,28,B8,06,F0,
3043866,0000019F,false,Rx,0,8,00,00,7D,00,00,6A,90,FE,
3044090,00000419,false,Rx,0,6,5E,09,2A,E6,7E,00,00,00,
3047826,00000155,false,Rx,0,8,0A,87,F2,54,98,48,02,CB,
3048575,000001C7,false,Rx,0,4,AA,A0,FF,C0,00,00,00,00,
3048802,00000157,false,Rx,0,8,D5,07,09,C4,FF,E0,BE,80,
3049026,000001A1,false,Rx,0,8,B2,CB,42,34,99,0C,80,20,
3053554,00000445,false,Rx,0,7,80,55,AA,65,04,82,00,00,
3053726,0000019F,false,Rx,0,8,00,00,7D,05,00,6A,90,FE,
3057873,00000155,false,Rx,0,8,0A,87,F1,54,98,48,02,CA,
3058581,000001C7,false,Rx,0,4,AA,A0,FF,C0,00,00,00,00,
3058791,00000157,false,Rx,0,8,D5,57,09,C4,FF,E0,BE,80,
3059013,000001A1,false,Rx,0,8,B2,8B,3C,34,79,0C,80,20,
3063650,00000428,false,Rx,0,8,00,00,00,7F,00,00,8F,00,
3063875,0000019F,false,Rx,0,8,00,00,7D,0A,00,6A,90,FE,
3064126,00000423,false,Rx,0,8,07,1D,00,02,B2,20,B2,D8,
3067876,00000155,false,Rx,0,8,0A,87,F2,54,98,48,02,CB,
3068573,000001C7,false,Rx,0,4,AA,A0,FF,C0,00,00,00,00,
3068800,00000157,false,Rx,0,8,D5,A7,09,C4,FF,E0,BE,80,
3069027,000001A1,false,Rx,0,8,B2,8B,38,34,99,0C,80,20,
3069279,00000426,false,Rx,0,8,00,A0,01,00,4B,C8,00,80,
3073728,0000019F,false,Rx,0,8,00,00,7D,0F,00,6A,90,FE,
3077870,00000155,false,Rx,0,8,0A,87,F1,54,98,48,02,CB,
3078567,000001C7,false,Rx,0,4,AA,A0,FF,C0,00,00,00,00,
3078816,00000157,false,Rx,0,8,D5,F7,09,C4,FF,E0,BE,80,
3079039,000001A1,false,Rx,0,8,B2,8B,3C,34,99,0C,80,20,
3083700,00000435,false,Rx,0,8,FF,FF,1E,6A,3B,10,00,00,
3083928,0000019F,false,Rx,0,8,00,00,7D,04,00,6A,90,FE,
3087843,00000155,false,Rx,0,8,0A,87,F3,54,98,48,02,CB,
3088567,000001C7,false,Rx,0,4,AA,A0,FF,C0,00,00,00,00,
3088814,00000157,false,Rx,0,8,D5,47,09,C4,FF,E0,BE,80,
3089035,000001A1,false,Rx,0,8,B2,8B,3C,34,99,0C,80,20,
3089255,00000436,false,Rx,0,6,86,14,AB,03,FF,DC,00,00,
3093547,0000042F,false,Rx,0,2,32,20,00,00,00,00,00,00,
3093772,0000019F,false,Rx,0,8,00,00,7D,09,00,6A,90,FE,
3093999,00000511,false,Rx,0,7,04,49,8E,55,44,6C,2D,00,
3097897,00000155,false,Rx,0,8,0A,87,F1,54,98,48,02,CA,
3098595,000001C7,false,Rx,0,4,AA,A0,FF,C0,00,00,00,00,
3098827,00000157,false,Rx,0,8,D5,97,09,C4,FF,E0,BE,80,
3099051,000001A1,false,Rx,0,8,B2,CB,3E,34,99,0C,80,20,
3103715,0000019F,false,Rx,0,8,00,00,7D,0E,00,6A,90,FE,
3107795,00000155,false,Rx,0,8,0A,87,F2,54,98,48,02,CA,
3108600,000001C7,false,Rx,0,4,AA,A0,FF,C0,00,00,00,00,
3108822,00000157,false,Rx,0,8,D5,E7,09,C4,FF,E0,BE,80,
3109049,000001A1,false,Rx,0,8,B2,CB,42,34,A9,0C,80,20,
3113720,0000019F,false,Rx,0,8,00,00,7D,03,00,6A,90,FE,
3117791,00000155,false,Rx,0,8,0A,87,F1,54,98,48,02,CA,
3118036,00000424,false,Rx,0,8,11,40,56,C8,3F,5E,AA,40,
3118257,00000425,false,Rx,0,8,0A,D2,44,9C,3E,22,FD,10,
3118589,000001C7,false,Rx,0,4,AA,A0,FF,C0,00,00,00,00,
3118851,00000157,false,Rx,0,8,D5,37,09,C4,FF,E0,BE,80,
3119078,000001A1,false,Rx,0,8,B2,8B,74,34,99,0C,80,20,
3123721,0000019F,false,Rx,0,8,00,00,7D,08,00,6A,90,FE,
3127816,00000155,false,Rx,0,8,0A,87,F2,54,98,48,02,C9,
3128594,000001C7,false,Rx,0,4,AA,A0,FF,C0,00,00,00,00,
3128819,00000157,false,Rx,0,8,D5,87,09,C4,FF,E0,BE,80,
3129046,000001A1,false,Rx,0,8,B2,8B,B0,34,B9,0C,80,20,
3133719,0000019F,false,Rx,0,8,00,00,7D,0D,00,6A,90,FE,
3137787,00000155,false,Rx,0,8,0A,87,F1,54,98,48,02,CA,
3138587,000001C7,false,Rx,0,4,AA,A0,FF,C0,00,00,00,00,
3138834,00000157,false,Rx,0,8,D5,D7,09,C4,FF,E0,BE,80,
3139057,000001A1,false,Rx,0,8,B2,8B,3C,34,69,0C,80,20,
3143667,000004F7,false,Rx,0,8,00,3C,0C,22,28,B8,06,F0,
3143919,0000019F,false,Rx,0,8,00,00,7D,02,00,6A,90,FE,
3144171,00000419,false,Rx,0,6,5E,09,2A,E6,7E,00,00,00,
3147818,00000155,false,Rx,0,8,0A,87,F2,54,98,48,02,CB,
3148617,000001C7,false,Rx,0,4,AA,A0,FF,C0,00,00,00,00,
3148843,00000157,false,Rx,0,8,D5,27,09,C4,FF,E0,BE,80,
3149070,000001A1,false,Rx,0,8,B2,8B,2E,34,49,0C,80,20,
3153462,00000445,false,Rx,0,7,80,55,AA,65,04,82,00,00,
3153711,0000019F,false,Rx,0,8,00,00,7D,07,00,6A,90,FE,
3157867,00000155,false,Rx,0,8,0A,87,F1,54,98,48,02,CA,
3158614,000001C7,false,Rx,0,4,AA,A0,FF,C0,00,00,00,00,
3158841,00000157,false,Rx,0,8,D5,77,09,C4,FF,E0,BE,80,
3159068,000001A1,false,Rx,0,8,B2,CB,26,34,49,0C,80,20,
3163691,00000423,false,Rx,0,8,07,1D,00,02,B2,20,B2,D9,
3163917,0000019F,false,Rx,0,8,00,00,7D,0C,00,6A,90,FE,
3164169,00000428,false,Rx,0,8,00,00,00,7F,00,00,8F,00,
3167835,00000155,false,Rx,0,8,0A,87,F2,54,98,48,02,CB,
3168610,000001C7,false,Rx,0,4,AA,A0,FF,C0,00,00,00,00,
3168832,00000157,false,Rx,0,8,D5,C7,09,C4,FF,E0,BE,80,
3169079,000001A1,false,Rx,0,8,B2,8B,46,34,79,0C,80,20,
3169326,00000426,false,Rx,0,8,00,A0,01,00,4B,C8,00,80,
3173718,0000019F,false,Rx,0,8,00,00,7D,01,00,6A,90,FE,
3177865,00000155,false,Rx,0,8,0A,87,F2,54,98,48,02,CA,
3178615,000001C7,false,Rx,0,4,AA,A0,FF,C0,00,00,00,00,
3178866,00000157,false,Rx,0,8,D5,17,09,C4,FF,E0,BE,80,
3179092,000001A1,false,Rx,0,8,B2,8B,3C,34,99,0C,80,20,
3183686,00000435,false,Rx,0,8,FF,FF,1E,6A,3B,10,00,00,
3183905,0000019F,false,Rx,0,8,00,00,7D,06,00,6A,90,FE,
3187840,00000155,false,Rx,0,8,0A,87,F2,54,98,48,02,CB,
3188687,00000157,false,Rx,0,8,D5,67,09,C4,FF,E0,BE,80,
3188916,000001A1,false,Rx,0,8,B2,8B,38,34,99,0C,80,20,
3189091,000001C7,false,Rx,0,4,AA,A0,FF,C0,00,00,00,00,
3189293,00000436,false,Rx,0,6,86,14,AB,03,FF,DC,00,00,
3193712,0000019F,false,Rx,0,8,00,00,7D,0B,00,6A,90,FE,
3193813,0000042F,false,Rx,0,2,32,20,00,00,00,00,00,00,
3194040,00000511,false,Rx,0,7,04,88,57,0E,AF,79,10,00,
3197814,00000155,false,Rx,0,8,0A,87,F1,54,98,48,02,CA,
3198687,000001A1,false,Rx,0,8,B2,CB,3C,34,99,0C,80,20,
3198910,00000157,false,Rx,0,8,D5,B7,09,C4,FF,E0,BE,80,
3199081,000001C7,false,Rx,0,4,AA,A0,FF,C0,00,00,00,00,
3203683,0000019F,false,Rx,0,8,00,00,7D,00,00,6A,90,FE,
3207822,00000155,false,Rx,0,8,0A,87,F2,54,98,48,02,CB,
3208692,000001A1,false,Rx,0,8,B2,CB,3C,34,99,0C,80,20,
3208914,00000157,false,Rx,0,8,D5,07,09,C4,FF,E0,BE,80,
3209091,000001C7,false,Rx,0,4,AA,A0,FF,C0,00,00,00,00,
3213714,0000019F,false,Rx,0,8,00,00,7D,05,00,6A,90,FE,
3217782,00000155,false,Rx,0,8,0A,87,F1,54,98,48,02,CA,
3218027,00000424,false,Rx,0,8,11,40,56,C8,3F,5E,AA,40,
3218250,00000425,false,Rx,0,8,0A,D2,44,9C,3E,22,FD,10,
3218688,000001A1,false,Rx,0,8,B2,8B,38,34,99,0C,80,20,
3218902,00000157,false,Rx,0,8,D5,57,09,C4,FF,E0,BE,80,
3219075,000001C7,false,Rx,0,4,AA,A0,FF,C0,00,00,00,00,
3223687,0000019F,false,Rx,0,8,00,00,7D,0A,00,6A,90,FE,
3227810,00000155,false,Rx,0,8,0A,87,F2,54,98,48,02,CA,
3228685,00000157,false,Rx,0,8,D5,A7,09,C4,FF,E0,BE,80,
3228912,000001A1,false,Rx,0,8,B2,8B,38,34,99,0C,80,20,
3229088,000001C7,false,Rx,0,4,AA,A0,FF,C0,00,00,00,00,
3233684,0000019F,false,Rx,0,8,00,00,7D,0F,00,6A,90,FE,
3237785,00000155,false,Rx,0,8,0A,87,F1,54,98,48,02,CA,
3238683,000001A1,false,Rx,0,8,B2,8B,3C,34,99,0C,80,20,
3238910,00000157,false,Rx,0,8,D5,F7,09,C4,FF,E0,BE,80,
3239088,000001C7,false,Rx,0,4,AA,A0,FF,C0,00,00,00,00,
3243709,0000019F,false,Rx,0,8,00,00,7D,04,00,6A,90,FE,
3243936,000004F7,false,Rx,0,8,00,3C,0C,22,28,B8,06,F0,
3244137,00000419,false,Rx,0,6,5E,09,2A,E6,7E,00,00,00,
3247782,00000155,false,Rx,0,8,0A,87,F2,54,98,48,02,CB,
3248683,000001A1,false,Rx,0,8,B2,8B,3C,34,A9,0C,80,20,
3248911,00000157,false,Rx,0,8,D5,47,09,C4,FF,E0,BE,80,
3249087,000001C7,false,Rx,0,4,AA,A0,FF,C0,00,00,00,00,
3253459,00000445,false,Rx,0,7,80,55,AA,65,04,82,00,00,
3253682,0000019F,false,Rx,0,8,00,00,7D,09,00,6A,90,FE,
3257833,00000155,false,Rx,0,8,0A,87,F1,54,98,48,02,CB,
3258676,000001A1,false,Rx,0,8,B2,8B,42,34,99,0C,80,20,
3258898,00000157,false,Rx,0,8,D5,97,09,C4,FF,E0,BE,80,
3259069,000001C7,false,Rx,0,4,AA,A0,FF,C0,00,00,00,00,
3263652,00000423,false,Rx,0,8,07,1D,00,02,B2,20,B2,D8,
3263873,0000019F,false,Rx,0,8,00,00,7D,0E,00,6A,90,FE,
3264121,00000428,false,Rx,0,8,00,00,00,7F,00,00,8F,00,
3267851,00000155,false,Rx,0,8,0A,87,F3,54,98,48,02,CA,
3268675,000001A1,false,Rx,0,8,B2,8B,42,34,99,0C,80,20,
3268897,00000157,false,Rx,0,8,D5,E7,09,C4,FF,E0,BE,80,
3269068,000001C7,false,Rx,0,4,AA,A0,FF,C0,00,00,00,00,
3269316,00000426,false,Rx,0,8,00,A0,01,00,4B,C8,00,80,
3273693,0000019F,false,Rx,0,8,00,00,7D,03,00,6A,90,FE,
3277827,00000155,false,Rx,0,8,0A,87,F1,54,98,48,02,CA,
3278675,000001A1,false,Rx,0,8,B2,8B,6E,34,B9,0C,80,20,
3278896,00000157,false,Rx,0,8,D5,37,09,C4,FF,E0,BE,80,
3279067,000001C7,false,Rx,0,4,AA,A0,FF,C0,00,00,00,00,
3283676,00000435,false,Rx,0,8,FF,FF,1E,6A,3B,10,00,00,
3283920,0000019F,false,Rx,0,8,00,00,7D,08,00,6A,90,FE,
3287852,00000155,false,Rx,0,8,0A,87,F2,54,98,48,02,CB,
3288676,000001A1,false,Rx,0,8,B2,8B,8A,34,C9,0C,80,20,
3288898,00000157,false,Rx,0,8,D5,87,09,C4,FF,E0,BE,80,
3289072,000001C7,false,Rx,0,4,AA,A0,FF,C0,00,00,00,00,
3289271,00000436,false,Rx,0,6,86,14,AB,03,FF,DC,00,00,
3293678,0000019F,false,Rx,0,8,00,00,7D,0D,00,6A,90,FE,
3293795,0000042F,false,Rx,0,2,32,20,00,00,00,00,00,00,
3294016,00000511,false,Rx,0,7,04,C7,20,C7,1A,86,F3,00,
3297825,00000155,false,Rx,0,8,0A,87,F1,54,98,48,02,CA,
3298672,000001A1,false,Rx,0,8,B2,8B,7A,34,59,0C,80,20,
3298894,00000157,false,Rx,0,8,D5,D7,09,C4,FF,E0,BE,80,
3299066,000001C7,false,Rx,0,4,AA,A0,FF,C0,00,00,00,00,
3303677,0000019F,false,Rx,0,8,00,00,7D,02,00,6A,90,FE,
3307775,00000155,false,Rx,0,8,0A,87,F2,54,98,48,02,CB,
3308672,000001A1,false,Rx,0,8,B2,8B,34,34,69,0C,80,20,
3308894,00000157,false,Rx,0,8,D5,27,09,C4,FF,E0,BE,80,
3309066,000001C7,false,Rx,0,4,AA,A0,FF,C0,00,00,00,00,
3313676,0000019F,false,Rx,0,8,00,00,7D,07,00,6A,90,FE,
3317773,00000155,false,Rx,0,8,0A,87,F1,54,98,48,02,CA,
3318017,00000424,false,Rx,0,8,11,40,56,C8,3F,5E,AA,40,
3318239,00000425,false,Rx,0,8,0A,D2,44,9C,3E,22,FD,10,
3318671,000001A1,false,Rx,0,8,B2,4B,28,34,49,0C,80,20,
3318892,00000157,false,Rx,0,8,D5,77,09,C4,FF,E0,BE,80,
3319064,000001C7,false,Rx,0,4,AA,A0,FF,C0,00,00,00,00,
3323674,0000019F,false,Rx,0,8,00,00,7D,0C,00,6A,90,FE,
3327796,00000155,false,Rx,0,8,0A,87,F3,54,98,48,02,CB,
3328669,000001A1,false,Rx,0,8,B2,8B,4C,34,99,0C,80,20,
3328890,00000157,false,Rx,0,8,D5,C7,09,C4,FF,E0,BE,80,
3329062,000001C7,false,Rx,0,4,AA,A0,FF,C0,00,00,00,00,
3333669,0000019F,false,Rx,0,8,00,00,7D,01,00,6A,90,FE,
3337769,00000155,false,Rx,0,8,0A,87,F1,54,98,48,02,CA,
3338643,000001A1,false,Rx,0,8,B2,CB,3C,34,99,0C,80,20,
3338889,00000157,false,Rx,0,8,D5,17,09,C4,FF,E0,BE,80,
3339062,000001C7,false,Rx,0,4,AA,A0,FF,C0,00,00,00,00,
3343668,0000019F,false,Rx,0,8,00,00,7D,06,00,6A,90,FE,
3343915,000004F7,false,Rx,0,8,00,3C,0C,22,28,B8,06,F0,
3344112,00000419,false,Rx,0,6,5E,09,2A,E6,7E,00,00,00,
3347767,00000155,false,Rx,0,8,0A,87,F2,54,98,48,02,CB,
3348667,000001A1,false,Rx,0,8,B2,CB,3C,34,99,0C,80,20,
3348889,00000157,false,Rx,0,8,D5,67,09,C4,FF,E0,BE,80,
3349061,000001C7,false,Rx,0,4,AA,A0,FF,C0,00,00,00,00,
3353442,00000445,false,Rx,0,7,80,55,AA,65,04,82,00,00,
3353666,0000019F,false,Rx,0,8,00,00,7D,0B,00,6A,90,FE,
3357842,00000155,false,Rx,0,8,0A,87,F1,54,98,48,02,CA,
3358666,000001A1,false,Rx,0,8,B2,CB,3C,34,89,0C,80,20,
3358888,00000157,false,Rx,0,8,D5,B7,09,C4,FF,E0,BE,80,
3359060,000001C7,false,Rx,0,4,AA,A0,FF,C0,00,00,00,00,
3363666,0000019F,false,Rx,0,8,00,00,7D,00,00,6A,90,FE,
3363912,00000423,false,Rx,0,8,07,1D,00,02,5D,20,5D,D8,
3364159,00000428,false,Rx,0,8,00,00,00,7F,00,00,8F,00,
3367816,00000155,false,Rx,0,8,0A,87,F2,54,98,48,02,CB,
3368665,000001A1,false,Rx,0,8,B2,8B,3C,34,99,0C,80,20,
3368887,00000157,false,Rx,0,8,D5,07,09,C4,FF,E0,BE,80,
3369059,000001C7,false,Rx,0,4,AA,A0,FF,C0,00,00,00,00,
3369308,00000426,false,Rx,0,8,00,A0,01,00,4B,C8,00,80,
3373665,0000019F,false,Rx,0,8,00,00,7D,05,00,6A,90,FE,
3377842,00000155,false,Rx,0,8,0A,87,F1,54,98,48,02,CA,
3378665,000001A1,false,Rx,0,8,B2,8B,38,34,99,0C,80,20,
3378886,00000157,false,Rx,0,8,D5,57,09,C4,FF,E0,BE,80,
3379058,000001C7,false,Rx,0,4,AA,A0,FF,C0,00,00,00,00,
3383692,0000019F,false,Rx,0,8,00,00,7D,0A,00,6A,90,FE,
3383941,00000435,false,Rx,0,8,FF,FF,1E,6A,3B,10,00,00,
3387843,00000155,false,Rx,0,8,0A,87,F2,54,98,48,02,CA,
3388693,000001A1,false,Rx,0,8,B2,8B,42,34,99,0C,80,20,
3388915,00000157,false,Rx,0,8,D5,A7,09,C4,FF,E0,BE,80,
3389087,000001C7,false,Rx,0,4,AA,A0,FF,C0,00,00,00,00,
3389285,00000436,false,Rx,0,6,86,14,AB,03,FF,DC,00,00,
3393667,0000019F,false,Rx,0,8,00,00,7D,0F,00,6A,90,FE,
3393787,0000042F,false,Rx,0,2,32,20,00,00,00,00,00,00,
3394008,00000511,false,Rx,0,7,04,06,E9,80,85,93,D6,00,
3397765,00000155,false,Rx,0,8,0A,87,F1,54,98,48,02,CA,
3398665,000001A1,false,Rx,0,8,B2,8B,3E,34,99,0C,80,20,
3398887,00000157,false,Rx,0,8,D5,F7,09,C4,FF,E0,BE,80,
3399059,000001C7,false,Rx,0,4,AA,A0,FF,C0,00,00,00,00,
3403668,0000019F,false,Rx,0,8,00,00,7D,04,00,6A,90,FE,
3407766,00000155,false,Rx,0,8,0A,87,F2,54,98,48,02,CB,
3408665,000001A1,false,Rx,0,8,B2,8B,3E,34,99,0C,80,20,
3408887,00000157,false,Rx,0,8,D5,47,09,C4,FF,E0,BE,80,
3409059,000001C7,false,Rx,0,4,AA,A0,FF,C0,00,00,00,00,
3413665,0000019F,false,Rx,0,8,00,00,7D,09,00,6A,90,FE,
3417769,00000155,false,Rx,0,8,0A,87,F1,54,98,48,02,CB,
3417986,00000424,false,Rx,0,8,11,40,56,C8,3F,5E,55,40,
3418233,00000425,false,Rx,0,8,0A,D2,44,9C,3E,22,FD,10,
3418676,000001A1,false,Rx,0,8,B2,8B,42,34,99,0C,80,20,
3418924,00000157,false,Rx,0,8,D5,97,09,C4,FF,E0,BE,80,
3419093,000001C7,false,Rx,0,4,AA,A0,FF,C0,00,00,00,00,
3423699,0000019F,false,Rx,0,8,00,00,7D,0E,00,6A,90,FE,
3427826,00000155,false,Rx,0,8,0A,87,F2,54,98,48,02,CB,
3428667,000001A1,false,Rx,0,8,B2,8B,3C,34,99,0C,80,20,
3428886,00000157,false,Rx,0,8,D5,E7,09,C4,FF,E0,BE,80,
3429059,000001C7,false,Rx,0,4,AA,A0,FF,C0,00,00,00,00,
3433667,0000019F,false,Rx,0,8,00,00,7D,03,00,6A,90,FE,
3437765,00000155,false,Rx,0,8,0A,87,F1,54,98,48,02,CB,
3438639,000001A1,false,Rx,0,8,B2,8B,5E,34,99,0C,80,20,
3438885,00000157,false,Rx,0,8,D5,37,09,C4,FF,E0,BE,80,
3439063,000001C7,false,Rx,0,4,AA,A0,FF,C0,00,00,00,00,
3443664,0000019F,false,Rx,0,8,00,00,7D,08,00,6A,90,FE,
3443909,000004F7,false,Rx,0,8,00,3C,0C,22,28,B8,06,F0,
3444106,00000419,false,Rx,0,6,5E,09,2A,E6,7E,00,00,00,
3447763,00000155,false,Rx,0,8,0A,87,F2,54,98,48,02,CA,
3448637,000001A1,false,Rx,0,8,B2,8B,6A,34,A9,0C,80,20,
3448885,00000157,false,Rx,0,8,D5,87,09,C4,FF,E0,BE,80,
3449033,000001C7,false,Rx,0,4,AA,A0,FF,C0,00,00,00,00,
3453438,00000445,false,Rx,0,7,80,55,55,65,04,82,00,00,
3453668,0000019F,false,Rx,0,8,00,00,7D,0D,00,6A,90,FE,
3457822,00000155,false,Rx,0,8,0A,87,F1,54,98,48,02,CA,
3458677,000001A1,false,Rx,0,8,B2,8B,AE,34,A9,0C,80,20,
3458925,00000157,false,Rx,0,8,D5,D7,09,C4,FF,E0,BE,80,
3459095,000001C7,false,Rx,0,4,AA,A0,FF,C0,00,00,00,00,
3463696,0000019F,false,Rx,0,8,00,00,7D,02,00,6A,90,FE,
3463945,00000423,false,Rx,0,8,07,1D,00,02,5D,20,5D,D9,
3464170,00000428,false,Rx,0,8,00,00,00,7F,00,00,8F,00,
3467870,00000155,false,Rx,0,8,0A,87,F2,54,98,48,02,CA,
3468700,000001A1,false,Rx,0,8,B2,8B,3E,34,69,0C,80,20,
3468922,00000157,false,Rx,0,8,D5,27,09,C4,FF,E0,BE,80,
3469077,000001C7,false,Rx,0,4,AA,A0,FF,C0,00,00,00,00,
3469302,00000426,false,Rx,0,8,00,A0,01,00,4B,C8,00,80,
3473694,0000019F,false,Rx,0,8,00,00,7D,07,00,6A,90,FE,
3477819,00000155,false,Rx,0,8,0A,87,F1,54,98,48,02,CA,
3478669,000001A1,false,Rx,0,8,B2,8B,2E,34,49,0C,80,20,
3478916,00000157,false,Rx,0,8,D5,77,09,C4,FF,E0,BE,80,
3479088,000001C7,false,Rx,0,4,AA,A0,FF,C0,00,00,00,00,
3483703,0000019F,false,Rx,0,8,00,00,7D,0C,00,6A,90,FE,
3483946,00000435,false,Rx,0,8,FF,FF,1E,6A,3B,10,00,00,
3487877,00000155,false,Rx,0,8,0A,87,F2,54,98,48,02,CA,
3488674,000001A1,false,Rx,0,8,B2,8B,12,34,59,0C,80,20,
3488921,00000157,false,Rx,0,8,D5,C7,09,C4,FF,E0,BE,80,
3489093,000001C7,false,Rx,0,4,AA,A0,FF,C0,00,00,00,00,
3489287,00000436,false,Rx,0,6,86,14,AB,03,FF,DC,00,00,
3493667,0000019F,false,Rx,0,8,00,00,7D,01,00,6A,90,FE,
3493807,0000042F,false,Rx,0,2,32,20,00,00,00,00,00,00,
3494002,00000511,false,Rx,0,7,04,45,B2,39,F0,A0,B9,00,
3497823,00000155,false,Rx,0,8,0A,87,F1,54,98,48,02,CA,
3498666,000001A1,false,Rx,0,8,B2,8B,3C,34,99,0C,80,20,
3498884,00000157,false,Rx,0,8,D5,17,09,C4,FF,E0,BE,80,
3499055,000001C7,false,Rx,0,4,AA,A0,FF,C0,00,00,00,00,
3503682,0000019F,false,Rx,0,8,00,00,7D,06,00,6A,90,FE,
3507762,00000155,false,Rx,0,8,0A,87,F2,54,98,48,02,CB,
3508634,000001A1,false,Rx,0,8,B2,8B,3C,34,99,0C,80,20,
3508878,00000157,false,Rx,0,8,D5,67,09,C4,FF,E0,BE,80,
3509050,000001C7,false,Rx,0,4,AA,A0,FF,C0,00,00,00,00,
3513659,0000019F,false,Rx,0,8,00,00,7D,0B,00,6A,90,FE,
3517760,00000155,false,Rx,0,8,0A,87,F1,54,98,48,02,CA,
3517980,00000424,false,Rx,0,8,11,40,56,C8,3F,5E,55,40,
3518226,00000425,false,Rx,0,8,0A,D2,44,9C,3E,22,FD,10,
3518631,000001A1,false,Rx,0,8,B2,CB,3C,34,99,0C,80,20,
3518878,00000157,false,Rx,0,8,D5,B7,09,C4,FF,E0,BE,80,
3519025,000001C7,false,Rx,0,4,AA,A0,FF,C0,00,00,00,00,
3523663,0000019F,false,Rx,0,8,00,00,7D,00,00,6A,90,FE,
3527759,00000155,false,Rx,0,8,0A,87,F2,54,98,48,02,CB,
3528660,000001A1,false,Rx,0,8,B2,CB,34,34,99,0C,80,20,
3528909,00000157,false,Rx,0,8,D5,07,09,C4,FF,E0,BE,80,
3529073,000001C7,false,Rx,0,4,AA,A0,FF,C0,00,00,00,00,
3533658,0000019F,false,Rx,0,8,00,00,7D,05,00,6A,90,FE,
3537756,00000155,false,Rx,0,8,0A,87,F1,54,98,48,02,CA,
3538630,000001A1,false,Rx,0,8,B2,CB,3C,34,99,0C,80,20,
3538851,00000157,false,Rx,0,8,D5,57,09,C4,FF,E0,BE,80,
3539024,000001C7,false,Rx,0,4,AA,A0,FF,C0,00,00,00,00,
3543657,0000019F,false,Rx,0,8,00,00,7D,0A,00,6A,90,FE,
3543900,000004F7,false,Rx,0,8,00,3C,0C,22,28,B8,06,F0,
3544118,00000419,false,Rx,0,6,5E,09,2A,E6,7E,00,00,00,
3547756,00000155,false,Rx,0,8,0A,87,F2,54,98,48,02,CB,
3548628,000001A1,false,Rx,0,8,B2,8B,3C,34,99,0C,80,20,
3548874,00000157,false,Rx,0,8,D5,A7,09,C4,FF,E0,BE,80,
3549048,000001C7,false,Rx,0,4,AA,A0,FF,C0,00,00,00,00,
3553405,00000445,false,Rx,0,7,80,55,55,65,04,82,00,00,
3553650,0000019F,false,Rx,0,8,00,00,7D,0F,00,6A,90,FE,
3557805,00000155,false,Rx,0,8,0A,87,F1,54,98,48,02,CA,
3558626,000001A1,false,Rx,0,8,B2,8B,38,34,99,0C,80,20,
3558872,00000157,false,Rx,0,8,D5,F7,09,C4,FF,E0,BE,80,
3559047,000001C7,false,Rx,0,4,AA,A0,FF,C0,00,00,00,00,
3563580,00000423,false,Rx,0,8,07,1D,00,02,5D,20,5D,D8,
3563824,0000019F,false,Rx,0,8,00,00,7D,04,00,6A,90,FE,
3564071,00000428,false,Rx,0,8,00,00,00,7F,00,00,8F,00,
3567779,00000155,false,Rx,0,8,0A,87,F2,54,98,48,02,CA,
3568626,000001A1,false,Rx,0,8,B2,8B,3C,34,99,0C,80,20,
3568875,00000157,false,Rx,0,8,D5,47,09,C4,FF,E0,BE,80,
3569023,000001C7,false,Rx,0,4,AA,A0,FF,C0,00,00,00,00,
3569270,00000426,false,Rx,0,8,00,A0,01,00,4B,C8,00,80,
3573654,0000019F,false,Rx,0,8,00,00,7D,09,00,6A,90,FE,
3577803,00000155,false,Rx,0,8,0A,87,F1,54,98,48,02,CA,
3578633,000001A1,false,Rx,0,8,B2,8B,3C,34,99,0C,80,20,
3578871,00000157,false,Rx,0,8,D5,97,09,C4,FF,E0,BE,80,
3579043,000001C7,false,Rx,0,4,AA,A0,FF,C0,00,00,00,00,
3583653,0000019F,false,Rx,0,8,00,00,7D,0E,00,6A,90,FE,
3583869,00000435,false,Rx,0,8,FF,FF,1E,6A,3B,10,00,00,
3587801,00000155,false,Rx,0,8,0A,87,F2,54,98,48,02,CB,
3588638,000001A1,false,Rx,0,8,B2,CB,42,34,99,0C,80,20,
3588868,00000157,false,Rx,0,8,D5,E7,09,C4,FF,E0,BE,80,
3589040,000001C7,false,Rx,0,4,AA,A0,FF,C0,00,00,00,00,
3589214,00000436,false,Rx,0,6,86,14,AB,03,FF,DC,00,00,
3593695,0000019F,false,Rx,0,8,00,00,7D,03,00,6A,90,FE,
3593795,0000042F,false,Rx,0,2,32,20,00,00,00,00,00,00,
3593992,00000511,false,Rx,0,7,04,84,7B,F2,5B,AD,9C,00,
3597762,00000155,false,Rx,0,8,0A,87,F1,54,98,48,02,CA,
3598637,000001A1,false,Rx,0,8,B2,8B,4C,34,99,0C,80,20,
3598883,00000157,false,Rx,0,8,D5,37,09,C4,FF,E0,BE,80,
3599027,000001C7,false,Rx,0,4,AA,A0,FF,C0,00,00,00,00,
3603658,0000019F,false,Rx,0,8,00,00,7D,08,00,6A,90,FE,
3607797,00000155,false,Rx,0,8,0A,87,F2,54,98,48,02,CA,
3608638,000001A1,false,Rx,0,8,B2,8B,5E,34,99,0C,80,20,
3608895,00000157,false,Rx,0,8,D5,87,09,C4,FF,E0,BE,80,
3609066,000001C7,false,Rx,0,4,AA,A0,FF,C0,00,00,00,00,
3613662,0000019F,false,Rx,0,8,00,00,7D,0D,00,6A,90,FE,
3617816,00000155,false,Rx,0,8,0A,87,F1,54,98,48,02,CA,
3618017,00000424,false,Rx,0,8,11,40,56,C8,3F,5E,55,40,
3618241,00000425,false,Rx,0,8,0A,D2,44,9C,3E,22,FD,10,
3618671,000001A1,false,Rx,0,8,B2,8B,AE,34,99,0C,80,20,
3618892,00000157,false,Rx,0,8,D5,D7,09,C4,FF,E0,BE,80,
3619064,000001C7,false,Rx,0,4,AA,A0,FF,C0,00,00,00,00,
3623662,0000019F,false,Rx,0,8,00,00,7D,02,00,6A,90,FE,
3627795,00000155,false,Rx,0,8,0A,87,F2,54,98,48,02,CD,
3628669,000001A1,false,Rx,0,8,B2,8B,62,34,69,0C,80,20,
3628916,00000157,false,Rx,0,8,D5,27,09,C4,FF,E0,BE,80,
3629019,000001C7,false,Rx,0,4,AA,A0,FF,C0,00,00,00,00,
3633730,0000019F,false,Rx,0,8,00,00,7D,07,00,6A,90,FE,
3637796,00000155,false,Rx,0,8,0A,87,F1,54,98,48,02,CA,
3638672,000001A1,false,Rx,0,8,B2,8B,3C,34,69,0C,80,20,
3638892,00000157,false,Rx,0,8,D5,77,09,C4,FF,E0,BE,80,
3639062,000001C7,false,Rx,0,4,AA,A0,FF,C0,00,00,00,00,
3643693,0000019F,false,Rx,0,8,00,00,7D,0C,00,6A,90,FE,
3643966,000004F7,false,Rx,0,8,00,3C,0C,22,28,B8,06,F0,
3644187,00000419,false,Rx,0,6,5E,09,2A,E6,7E,00,00,00,
3647799,00000155,false,Rx,0,8,0A,87,F2,54,98,48,02,CB,
3648675,000001A1,false,Rx,0,8,B2,8B,06,34,59,0C,80,20,
3648896,00000157,false,Rx,0,8,D5,C7,09,C4,FF,E0,BE,80,
3649069,000001C7,false,Rx,0,4,AA,A0,FF,C0,00,00,00,00,
3653442,00000445,false,Rx,0,7,80,55,55,65,04,82,00,00,
3653697,0000019F,false,Rx,0,8,00,00,7D,01,00,6A,90,FE,
3657784,00000155,false,Rx,0,8,0A,87,F1,54,98,48,02,CA,
3658675,000001A1,false,Rx,0,8,B2,8B,22,34,99,0C,80,20,
3658921,00000157,false,Rx,0,8,D5,17,09,C4,FF,E0,BE,80,
3659067,000001C7,false,Rx,0,4,AA,A0,FF,C0,00,00,00,00,
3663692,0000019F,false,Rx,0,8,00,00,7D,06,00,6A,90,FE,
3663914,00000423,false,Rx,0,8,07,1D,00,02,5D,20,5D,D9,
3664160,00000428,false,Rx,0,8,00,00,00,7F,00,00,8F,00,
3667873,00000155,false,Rx,0,8,0A,87,F2,54,98,48,02,CB,
3668672,000001A1,false,Rx,0,8,B2,CB,3E,34,99,0C,80,20,
3668922,00000157,false,Rx,0,8,D5,67,09,C4,FF,E0,BE,80,
3669066,000001C7,false,Rx,0,4,AA,A0,FF,C0,00,00,00,00,
3669313,00000426,false,Rx,0,8,00,A0,01,00,4B,C8,00,80,
3673701,0000019F,false,Rx,0,8,00,00,7D,0B,00,6A,90,FE,
3677821,00000155,false,Rx,0,8,0A,87,F2,54,98,48,02,CA,
3678672,000001A1,false,Rx,0,8,B2,8B,38,34,99,0C,80,20,
3678918,00000157,false,Rx,0,8,D5,B7,09,C4,FF,E0,BE,80,
3679068,000001C7,false,Rx,0,4,AA,A0,FF,C0,00,00,00,00,
3683671,00000435,false,Rx,0,8,FF,FF,1E,6A,3B,10,00,00,
3683897,0000019F,false,Rx,0,8,00,00,7D,00,00,6A,90,FE,
3687870,00000155,false,Rx,0,8,0A,87,F2,54,98,48,02,CB,
3688671,000001A1,false,Rx,0,8,B2,CB,3C,34,99,0C,80,20,
3688918,00000157,false,Rx,0,8,D5,07,09,C4,FF,E0,BE,80,
3689066,000001C7,false,Rx,0,4,AA,A0,FF,C0,00,00,00,00,
3689265,00000436,false,Rx,0,6,86,14,AB,03,FF,DC,00,00,
3693696,0000019F,false,Rx,0,8,00,00,7D,05,00,6A,90,FE,
3693968,00000511,false,Rx,0,7,04,C3,44,AB,C6,BA,7F,00,
3694098,0000042F,false,Rx,0,2,32,20,00,00,00,00,00,00,
3697806,00000155,false,Rx,0,8,0A,87,F1,54,98,48,02,CA,
3698669,000001A1,false,Rx,0,8,B2,CB,38,34,99,0C,80,20,
3698892,00000157,false,Rx,0,8,D5,57,09,C4,FF,E0,BE,80,
3699064,000001C7,false,Rx,0,4,AA,A0,FF,C0,00,00,00,00,
3703694,0000019F,false,Rx,0,8,00,00,7D,0A,00,6A,90,FE,
3707778,00000155,false,Rx,0,8,0A,87,F2,54,98,48,02,CB,
3708647,000001A1,false,Rx,0,8,B2,8B,3C,34,99,0C,80,20,
3708894,00000157,false,Rx,0,8,D5,A7,09,C4,FF,E0,BE,80,
3709041,000001C7,false,Rx,0,4,AA,A0,FF,C0,00,00,00,00,
3713671,0000019F,false,Rx,0,8,00,00,7D,0F,00,6A,90,FE,
3717772,00000155,false,Rx,0,8,0A,87,F1,54,98,48,02,CA,
3717963,00000424,false,Rx,0,8,11,40,56,C8,3F,5E,55,40,
3718239,00000425,false,Rx,0,8,0A,D2,44,9C,3E,22,FD,10,
3718646,000001A1,false,Rx,0,8,B2,CB,3E,34,89,0C,80,20,
3718895,00000157,false,Rx,0,8,D5,F7,09,C4,FF,E0,BE,80,
3719040,000001C7,false,Rx,0,4,AA,A0,FF,C0,00,00,00,00,
3723673,0000019F,false,Rx,0,8,00,00,7D,04,00,6A,90,FE,
3727770,00000155,false,Rx,0,8,0A,87,F2,54,98,48,02,CB,
3728645,000001A1,false,Rx,0,8,B2,8B,38,34,99,0C,80,20,
3728892,00000157,false,Rx,0,8,D5,47,09,C4,FF,E0,BE,80,
3729064,000001C7,false,Rx,0,4,AA,A0,FF,C0,00,00,00,00,
3733670,0000019F,false,Rx,0,8,00,00,7D,09,00,6A,90,FE,
3737769,00000155,false,Rx,0,8,0A,87,F1,54,98,48,02,CA,
3738647,000001A1,false,Rx,0,8,B2,8B,3C,34,99,0C,80,20,
3738868,00000157,false,Rx,0,8,D5,97,09,C4,FF,E0,BE,80,
3739043,000001C7,false,Rx,0,4,AA,A0,FF,C0,00,00,00,00,
3743669,0000019F,false,Rx,0,8,00,00,7D,0E,00,6A,90,FE,
3743916,00000419,false,Rx,0,6,5E,09,2A,E6,7E,00,00,00,
3744162,000004F7,false,Rx,0,8,00,3C,0C,22,28,B8,06,F0,
3747768,00000155,false,Rx,0,8,0A,87,F2,54,98,48,02,CB,
3748645,000001A1,false,Rx,0,8,B2,8B,3C,34,99,0C,80,20,
3748868,00000157,false,Rx,0,8,D5,E7,09,C4,FF,E0,BE,80,
3749052,000001C7,false,Rx,0,4,AA,A0,FF,C0,00,00,00,00,
3753393,00000445,false,Rx,0,7,80,55,55,65,04,82,00,00,
3753643,0000019F,false,Rx,0,8,00,00,7D,03,00,6A,90,FE,
3757787,00000155,false,Rx,0,8,0A,87,F1,54,98,48,02,CB,
3758642,000001A1,false,Rx,0,8,B2,8B,46,34,99,0C,80,20,
3758869,00000157,false,Rx,0,8,D5,37,09,C4,FF,E0,BE,80,
3759024,000001C7,false,Rx,0,4,AA,A0,FF,C0,00,00,00,00,
3763615,00000423,false,Rx,0,8,07,1D,00,02,5D,20,5D,D8,
3763856,0000019F,false,Rx,0,8,00,00,7D,08,00,6A,90,FE,
3764078,00000428,false,Rx,0,8,00,00,00,7F,00,00,8F,00,
3767793,00000155,false,Rx,0,8,0A,87,F2,54,98,48,02,CA,
3768641,000001A1,false,Rx,0,8,B2,8B,50,34,99,0C,80,20,
3768864,00000157,false,Rx,0,8,D5,87,09,C4,FF,E0,BE,80,
3769036,000001C7,false,Rx,0,4,AA,A0,FF,C0,00,00,00,00,
3769286,00000426,false,Rx,0,8,00,A0,01,00,4B,C8,00,80,
3773621,0000019F,false,Rx,0,8,00,00,7D,0D,00,6A,90,FE,
3777792,00000155,false,Rx,0,8,0A,87,F1,54,98,48,02,CD,
3778614,000001A1,false,Rx,0,8,B2,8B,C0,34,69,0C,80,20,
3778831,00000157,false,Rx,0,8,D5,D7,09,C4,FF,E0,BE,80,
3779003,000001C7,false,Rx,0,4,AA,A0,FF,C0,00,00,00,00,
3783587,00000435,false,Rx,0,8,FF,FF,1E,6A,3B,10,00,00,
3783807,0000019F,false,Rx,0,8,00,00,7D,02,00,6A,90,FE,
3787762,00000155,false,Rx,0,8,0A,87,F2,54,98,48,02,CB,
3788610,000001A1,false,Rx,0,8,B2,8B,CA,34,B9,0C,80,20,
3788831,00000157,false,Rx,0,8,D5,27,09,C4,FF,E0,BE,80,
3789003,000001C7,false,Rx,0,4,AA,A0,FF,C0,00,00,00,00,
3789199,00000436,false,Rx,0,6,86,14,AB,03,FF,DC,00,00,
3793610,0000019F,false,Rx,0,8,00,00,7D,07,00,6A,90,FE,
3793888,00000511,false,Rx,0,7,04,02,0D,64,31,C7,62,00,
3794027,0000042F,false,Rx,0,2,32,20,00,00,00,00,00,00,
3797734,00000155,false,Rx,0,8,0A,87,F1,54,98,48,02,CA,
3798607,000001A1,false,Rx,0,8,B2,8B,34,34,49,0C,80,20,
3798827,00000157,false,Rx,0,8,D5,77,09,C4,FF,E0,BE,80,
3799001,000001C7,false,Rx,0,4,AA,A0,FF,C0,00,00,00,00,
3803609,0000019F,false,Rx,0,8,00,00,7D,0C,00,6A,90,FE,
3807746,00000155,false,Rx,0,8,0A,87,F2,54,98,48,02,CB,
3808615,000001A1,false,Rx,0,8,B2,8B,12,34,49,0C,80,20,
3808834,00000157,false,Rx,0,8,D5,C7,09,C4,FF,E0,BE,80,
3809005,000001C7,false,Rx,0,4,AA,A0,FF,C0,00,00,00,00,
3813612,0000019F,false,Rx,0,8,00,00,7D,01,00,6A,90,FE,
3817732,00000155,false,Rx,0,8,0A,87,F1,54,98,48,02,CA,
3817951,00000424,false,Rx,0,8,11,40,56,C8,3F,5E,55,40,
3818199,00000425,false,Rx,0,8,0A,D2,44,9C,3E,22,FD,10,
3818604,000001A1,false,Rx,0,8,B2,8B,1E,34,49,0C,80,20,
3818825,00000157,false,Rx,0,8,D5,17,09,C4,FF,E0,BE,80,
3818998,000001C7,false,Rx,0,4,AA,A0,FF,C0,00,00,00,00,
3823608,0000019F,false,Rx,0,8,00,00,7D,06,00,6A,90,FE,
3827730,00000155,false,Rx,0,8,0A,87,F2,54,98,48,02,CA,
3828604,000001A1,false,Rx,0,8,B2,8B,2C,34,A9,0C,80,20,
3828825,00000157,false,Rx,0,8,D5,67,09,C4,FF,E0,BE,80,
3828996,000001C7,false,Rx,0,4,AA,A0,FF,C0,00,00,00,00,
3833606,0000019F,false,Rx,0,8,00,00,7D,0B,00,6A,90,FE,
3837729,00000155,false,Rx,0,8,0A,87,F1,54,98,48,02,CA,
3838626,000001A1,false,Rx,0,8,B2,CB,3C,34,99,0C,80,20,
3838848,00000157,false,Rx,0,8,D5,B7,09,C4,FF,E0,BE,80,
3839012,000001C7,false,Rx,0,4,AA,A0,FF,C0,00,00,00,00,
3843651,0000019F,false,Rx,0,8,00,00,7D,00,00,6A,90,FE,
3843900,00000419,false,Rx,0,6,5E,08,2A,E6,7E,00,00,00,
3844137,000004F7,false,Rx,0,8,00,3C,0C,22,28,B8,06,F0,
3847725,00000155,false,Rx,0,8,0A,87,F3,54,98,48,02,CB,
3848604,000001A1,false,Rx,0,8,B2,CB,42,34,99,0C,80,20,
3848879,00000157,false,Rx,0,8,D5,07,09,C4,FF,E0,BE,80,
3849020,000001C7,false,Rx,0,4,AA,A0,FF,C0,00,00,00,00,
3853377,00000445,false,Rx,0,7,80,55,55,65,04,82,00,00,
3853624,0000019F,false,Rx,0,8,00,00,7D,05,00,6A,90,FE,
3857751,00000155,false,Rx,0,8,0A,87,F1,54,98,48,02,CA,
3858600,000001A1,false,Rx,0,8,B2,8B,38,34,99,0C,80,20,
3858822,00000157,false,Rx,0,8,D5,57,09,C4,FF,E0,BE,80,
3858994,000001C7,false,Rx,0,4,AA,A0,FF,C0,00,00,00,00,
3863575,00000423,false,Rx,0,8,07,1D,00,02,B2,20,B2,D8,
3863795,0000019F,false,Rx,0,8,00,00,7D,0A,00,6A,90,FE,
3864071,00000428,false,Rx,0,8,00,00,00,7F,00,00,8F,00,
3867814,00000155,false,Rx,0,8,0A,87,F2,54,98,48,02,CB,
3868632,000001A1,false,Rx,0,8,B2,8B,38,34,99,0C,80,20,
3868849,00000157,false,Rx,0,8,D5,A7,09,C4,FF,E0,BE,80,
3869019,000001C7,false,Rx,0,4,AA,A0,FF,C0,00,00,00,00,
3869275,00000426,false,Rx,0,8,00,A0,01,00,4B,C8,00,80,
3873627,0000019F,false,Rx,0,8,00,00,7D,0F,00,6A,90,FE,
3877754,00000155,false,Rx,0,8,0A,87,F1,54,98,48,02,CA,
3878625,000001A1,false,Rx,0,8,B2,8B,38,34,99,0C,80,20,
3878847,00000157,false,Rx,0,8,D5,F7,09,C4,FF,E0,BE,80,
3879020,000001C7,false,Rx,0,4,AA,A0,FF,C0,00,00,00,00,
3883623,00000435,false,Rx,0,8,FF,FF,1E,6A,3B,10,00,00,
3883869,0000019F,false,Rx,0,8,00,00,7D,04,00,6A,90,FE,
3887822,00000155,false,Rx,0,8,0A,87,F2,54,98,48,02,CC,
3888587,000001A1,false,Rx,0,8,B2,8B,3C,34,A9,0C,80,20,
3888869,00000157,false,Rx,0,8,D5,47,09,C4,FF,E0,BE,80,
3889002,000001C7,false,Rx,0,4,AA,A0,FF,C0,00,00,00,00,
3889238,00000436,false,Rx,0,6,86,14,AB,03,FF,DC,00,00,
3893702,0000019F,false,Rx,0,8,00,00,7D,09,00,6A,90,FE,
3893884,00000511,false,Rx,0,7,04,41,D6,1D,9C,D4,45,00,
3894027,0000042F,false,Rx,0,2,32,20,00,00,00,00,00,00,
3897756,00000155,false,Rx,0,8,0A,87,F2,54,98,48,02,CA,
3898585,000001A1,false,Rx,0,8,B2,8B,42,34,99,0C,80,20,
3898832,00000157,false,Rx,0,8,D5,97,09,C4,FF,E0,BE,80,
3899003,000001C7,false,Rx,0,4,AA,A0,FF,C0,00,00,00,00,
3903612,0000019F,false,Rx,0,8,00,00,7D,0E,00,6A,90,FE,
3907711,00000155,false,Rx,0,8,0A,87,F3,54,98,48,02,CB,
3908610,000001A1,false,Rx,0,8,B2,8B,3C,34,99,0C,80,20,
3908834,00000157,false,Rx,0,8,D5,E7,09,C4,FF,E0,BE,80,
3908998,000001C7,false,Rx,0,4,AA,A0,FF,C0,00,00,00,00,
3913605,0000019F,false,Rx,0,8,00,00,7D,03,00,6A,90,FE,
3917706,00000155,false,Rx,0,8,0A,87,F1,54,98,48,02,CB,
3917957,00000424,false,Rx,0,8,11,40,56,C8,3F,5E,AA,40,
3918177,00000425,false,Rx,0,8,0A,D2,44,9C,3E,22,FD,10,
3918610,000001A1,false,Rx,0,8,B2,8B,3E,34,99,0C,80,20,
3918832,00000157,false,Rx,0,8,D5,37,09,C4,FF,E0,BE,80,
3919001,000001C7,false,Rx,0,4,AA,A0,FF,C0,00,00,00,00,
3923606,0000019F,false,Rx,0,8,00,00,7D,08,00,6A,90,FE,
3927725,00000155,false,Rx,0,8,0A,87,F2,54,98,48,02,CB,
3928600,000001A1,false,Rx,0,8,B2,8B,48,34,99,0C,80,20,
3928819,00000157,false,Rx,0,8,D5,87,09,C4,FF,E0,BE,80,
3928993,000001C7,false,Rx,0,4,AA,A0,FF,C0,00,00,00,00,
3933606,0000019F,false,Rx,0,8,00,00,7D,0D,00,6A,90,FE,
3937713,00000155,false,Rx,0,8,0A,87,F1,54,98,48,02,CB,
3938585,000001A1,false,Rx,0,8,B2,8B,7E,34,99,0C,80,20,
3938825,00000157,false,Rx,0,8,D5,D7,09,C4,FF,E0,BE,80,
3938995,000001C7,false,Rx,0,4,AA,A0,FF,C0,00,00,00,00,
3943610,0000019F,false,Rx,0,8,00,00,7D,02,00,6A,90,FE,
3943869,00000419,false,Rx,0,6,5E,08,2A,E6,7E,00,00,00,
3944095,000004F7,false,Rx,0,8,00,3C,0C,22,28,B8,06,F0,
3947777,00000155,false,Rx,0,8,0A,87,F2,54,98,48,02,CA,
3948649,000001A1,false,Rx,0,8,B2,8B,BC,34,99,0C,80,20,
3948872,00000157,false,Rx,0,8,D5,27,09,C4,FF,E0,BE,80,
3948992,000001C7,false,Rx,0,4,AA,A0,FF,C0,00,00,00,00,
3950424,0000069F,false,Rx,0,4,71,30,28,2F,00,00,00,00,
3953399,00000445,false,Rx,0,7,80,55,AA,65,04,82,00,00,
3953650,0000019F,false,Rx,0,8,00,00,7D,07,00,6A,90,FE,
3957822,00000155,false,Rx,0,8,0A,87,F1,54,98,48,02,CA,
3958607,000001A1,false,Rx,0,8,B2,8B,38,34,29,0C,80,20,
3958821,00000157,false,Rx,0,8,D5,77,09,C4,FF,E0,BE,80,
3958996,000001C7,false,Rx,0,4,AA,A0,FF,C0,00,00,00,00,
3963565,00000423,false,Rx,0,8,07,1D,00,02,B2,20,B2,D8,
3963803,0000019F,false,Rx,0,8,00,00,7D,0C,00,6A,90,FE,
3964046,00000428,false,Rx,0,8,00,00,00,7F,00,00,8F,00,
3967758,00000155,false,Rx,0,8,0A,87,F2,54,98,48,02,CA,
3968604,000001A1,false,Rx,0,8,B2,8B,26,34,69,0C,80,20,
3968824,00000157,false,Rx,0,8,D5,C7,09,C4,FF,E0,BE,80,
3968995,000001C7,false,Rx,0,4,AA,A0,FF,C0,00,00,00,00,
3969218,00000426,false,Rx,0,8,00,A0,01,00,4B,C8,00,80,
3973604,0000019F,false,Rx,0,8,00,00,7D,01,00,6A,90,FE,
3977772,00000155,false,Rx,0,8,0A,87,F1,54,98,48,02,CA,
3978596,000001A1,false,Rx,0,8,B2,8B,1E,34,59,0C,80,20,
3978821,00000157,false,Rx,0,8,D5,17,09,C4,FF,E0,BE,80,
3978988,000001C7,false,Rx,0,4,AA,A0,FF,C0,00,00,00,00,
3983580,00000435,false,Rx,0,8,FF,FF,1E,6A,3B,10,00,00,
3983821,0000019F,false,Rx,0,8,00,00,7D,06,00,6A,90,FE,
3987748,00000155,false,Rx,0,8,0A,87,F2,54,98,48,02,CB,
3988567,000001A1,false,Rx,0,8,B2,8B,42,34,A9,0C,80,20,
3988813,00000157,false,Rx,0,8,D5,67,09,C4,FF,E0,BE,80,
3988984,000001C7,false,Rx,0,4,AA,A0,FF,C0,00,00,00,00,
3989183,00000436,false,Rx,0,6,86,14,AB,03,FF,DC,00,00,
3993592,0000019F,false,Rx,0,8,00,00,7D,0B,00,6A,90,FE,
3993863,00000511,false,Rx,0,7,04,80,9F,D6,07,E1,28,00,
3994011,0000042F,false,Rx,0,2,32,20,00,00,00,00,00,00,
3997720,00000155,false,Rx,0,8,0A,87,F1,54,98,48,02,CA,
3998568,000001A1,false,Rx,0,8,B2,CB,3C,34,B9,0C,80,20,
3998813,00000157,false,Rx,0,8,D5,B7,09,C4,FF,E0,BE,80,
3998989,000001C7,false,Rx,0,4,AA,A0,FF,C0,00,00,00,00,
4003601,0000019F,false,Rx,0,8,00,00,7D,00,00,6A,90,FE,
4007695,00000155,false,Rx,0,8,0A,87,F2,54,98,48,02,CB,
4008568,000001A1,false,Rx,0,8,B2,CB,3C,34,99,0C,80,20,
4008815,00000157,false,Rx,0,8,D5,07,09,C4,FF,E0,BE,80,
4008989,000001C7,false,Rx,0,4,AA,A0,FF,C0,00,00,00,00,
4013631,0000019F,false,Rx,0,8,00,00,7D,05,00,6A,90,FE,
4017728,00000155,false,Rx,0,8,0A,87,F1,54,98,48,02,CA,
4017976,00000424,false,Rx,0,8,11,40,56,C8,3F,5E,AA,40,
4018191,00000425,false,Rx,0,8,0A,D2,44,9C,3E,22,FD,10,
4018621,000001A1,false,Rx,0,8,B2,CB,3E,34,99,0C,80,20,
4018844,00000157,false,Rx,0,8,D5,57,09,C4,FF,E0,BE,80,
4018999,000001C7,false,Rx,0,4,AA,A0,FF,C0,00,00,00,00,
4023600,0000019F,false,Rx,0,8,00,00,7D,0A,00,6A,90,FE,
4027721,00000155,false,Rx,0,8,0A,87,F2,54,98,48,02,CB,
4028567,000001A1,false,Rx,0,8,B2,CB,38,34,B9,0C,80,20,
4028809,00000157,false,Rx,0,8,D5,A7,09,C4,FF,E0,BE,80,
4028982,000001C7,false,Rx,0,4,AA,A0,FF,C0,00,00,00,00,
4033622,0000019F,false,Rx,0,8,00,00,7D,0F,00,6A,90,FE,
4037692,00000155,false,Rx,0,8,0A,87,F1,54,98,48,02,CA,
4038562,000001A1,false,Rx,0,8,B2,8B,34,34,99,0C,80,20,
4038808,00000157,false,Rx,0,8,D5,F7,09,C4,FF,E0,BE,80,
4038980,000001C7,false,Rx,0,4,AA,A0,FF,C0,00,00,00,00,
4043589,0000019F,false,Rx,0,8,00,00,7D,04,00,6A,90,FE,
4043856,00000419,false,Rx,0,6,5E,09,2A,E6,7E,00,00,00,
4044079,000004F7,false,Rx,0,8,00,3C,0C,22,28,B8,06,F0,
4047686,00000155,false,Rx,0,8,0A,87,F2,54,98,48,02,CB,
4048588,000001A1,false,Rx,0,8,B2,CB,3E,34,99,0C,80,20,
4048807,00000157,false,Rx,0,8,D5,47,09,C4,FF,E0,BE,80,
4048978,000001C7,false,Rx,0,4,AA,A0,FF,C0,00,00,00,00,
4053336,00000445,false,Rx,0,7,80,55,AA,65,04,82,00,00,
4053584,0000019F,false,Rx,0,8,00,00,7D,09,00,6A,90,FE,
4057761,00000155,false,Rx,0,8,0A,87,F1,54,98,48,02,CA,
4058558,000001A1,false,Rx,0,8,B2,8B,42,34,99,0C,80,20,
4058805,00000157,false,Rx,0,8,D5,97,09,C4,FF,E0,BE,80,
4058976,000001C7,false,Rx,0,4,AA,A0,FF,C0,00,00,00,00,
4063566,00000423,false,Rx,0,8,07,1D,00,02,B2,20,B2,D8,
4063810,0000019F,false,Rx,0,8,00,00,7D,0E,00,6A,90,FE,
4064054,00000428,false,Rx,0,8,00,00,00,7F,00,00,8F,00,
4067760,00000155,false,Rx,0,8,0A,87,F2,54,98,48,02,CB,
4068558,000001A1,false,Rx,0,8,B2,8B,3C,34,99,0C,80,20,
4068804,00000157,false,Rx,0,8,D5,E7,09,C4,FF,E0,BE,80,
4068991,000001C7,false,Rx,0,4,AA,A0,FF,C0,00,00,00,00,
4069205,00000426,false,Rx,0,8,00,A0,01,00,4B,C8,00,80,
4073583,0000019F,false,Rx,0,8,00,00,7D,03,00,6A,90,FE,
4077760,00000155,false,Rx,0,8,0A,87,F1,54,98,48,02,CA,
4078556,000001A1,false,Rx,0,8,B2,8B,42,34,99,0C,80,20,
4078804,00000157,false,Rx,0,8,D5,37,09,C4,FF,E0,BE,80,
4078952,000001C7,false,Rx,0,4,AA,A0,FF,C0,00,00,00,00,
4083590,0000019F,false,Rx,0,8,00,00,7D,08,00,6A,90,FE,
4083809,00000435,false,Rx,0,8,FF,FF,1E,6A,3B,10,00,00,
4087760,00000155,false,Rx,0,8,0A,87,F2,54,98,48,02,CB,
4088560,000001A1,false,Rx,0,8,B2,8B,42,34,99,0C,80,20,
4088805,00000157,false,Rx,0,8,D5,87,09,C4,FF,E0,BE,80,
4088952,000001C7,false,Rx,0,4,AA,A0,FF,C0,00,00,00,00,
4089173,00000436,false,Rx,0,6,86,14,AB,03,FF,DC,00,00,
4093583,0000019F,false,Rx,0,8,00,00,7D,0D,00,6A,90,FE,
4093854,00000511,false,Rx,0,7,04,BF,68,8F,72,EE,0B,00,
4093976,0000042F,false,Rx,0,2,32,20,00,00,00,00,00,00,
4097737,00000155,false,Rx,0,8,0A,87,F1,54,98,48,02,CB,
4098582,000001A1,false,Rx,0,8,B2,8B,7C,34,99,0C,80,20,
4098804,00000157,false,Rx,0,8,D5,D7,09,C4,FF,E0,BE,80,
4098980,000001C7,false,Rx,0,4,AA,A0,FF,C0,00,00,00,00,
4103600,0000019F,false,Rx,0,8,00,00,7D,02,00,6A,90,FE,
4107719,00000155,false,Rx,0,8,0A,87,F2,54,98,48,02,CB,
4108591,000001A1,false,Rx,0,8,B2,8B,B2,34,69,0C,80,20,
4108839,00000157,false,Rx,0,8,D5,27,09,C4,FF,E0,BE,80,
4109010,000001C7,false,Rx,0,4,AA,A0,FF,C0,00,00,00,00,
4113584,0000019F,false,Rx,0,8,00,00,7D,07,00,6A,90,FE,
4117688,00000155,false,Rx,0,8,0A,87,F1,54,98,48,02,CA,
4117927,00000424,false,Rx,0,8,11,40,56,C8,3F,5E,AA,40,
4118149,00000425,false,Rx,0,8,0A,D2,44,9C,3E,22,FD,10,
4118555,000001A1,false,Rx,0,8,B2,8B,52,34,99,0C,80,20,
4118801,00000157,false,Rx,0,8,D5,77,09,C4,FF,E0,BE,80,
4118974,000001C7,false,Rx,0,4,AA,A0,FF,C0,00,00,00,00,
4123580,0000019F,false,Rx,0,8,00,00,7D,0C,00,6A,90,FE,
4127685,00000155,false,Rx,0,8,0A,87,F2,54,98,48,02,C9,
4128580,000001A1,false,Rx,0,8,B2,8B,34,34,59,0C,80,20,
4128801,00000157,false,Rx,0,8,D5,C7,09,C4,FF,E0,BE,80,
4128973,000001C7,false,Rx,0,4,AA,A0,FF,C0,00,00,00,00,
4133579,0000019F,false,Rx,0,8,00,00,7D,01,00,6A,90,FE,
4137678,00000155,false,Rx,0,8,0A,87,F1,54,98,48,02,CA,
4138553,000001A1,false,Rx,0,8,B2,8B,2C,34,69,0C,80,20,
4138799,00000157,false,Rx,0,8,D5,17,09,C4,FF,E0,BE,80,
4138997,000001C7,false,Rx,0,4,AA,A0,FF,C0,00,00,00,00,
4143619,0000019F,false,Rx,0,8,00,00,7D,06,00,6A,90,FE,
4143888,00000419,false,Rx,0,6,5E,09,2A,E6,7E,00,00,00,
4144109,000004F7,false,Rx,0,8,00,3C,0C,22,28,B8,06,F0,
4147716,00000155,false,Rx,0,8,0A,87,F2,54,98,48,02,CB,
4148588,000001A1,false,Rx,0,8,B2,8B,54,34,59,0C,80,20,
4148835,00000157,false,Rx,0,8,D5,67,09,C4,FF,E0,BE,80,
4149033,000001C7,false,Rx,0,4,AA,A0,FF,C0,00,00,00,00,
4153284,00000445,false,Rx,0,7,80,55,AA,65,04,82,00,00,
4153599,0000019F,false,Rx,0,8,00,00,7D,0B,00,6A,90,FE,
4157787,00000155,false,Rx,0,8,0A,87,F1,54,98,48,02,CA,
4158589,000001A1,false,Rx,0,8,B2,CB,3C,34,99,0C,80,20,
4158819,00000157,false,Rx,0,8,D5,B7,09,C4,FF,E0,BE,80,
4159033,000001C7,false,Rx,0,4,AA,A0,FF,C0,00,00,00,00,
4163581,0000019F,false,Rx,0,8,00,00,7D,00,00,6A,90,FE,
4163802,00000423,false,Rx,0,8,07,1D,00,02,B2,20,B2,D9,
4164074,00000428,false,Rx,0,8,00,00,00,7F,00,00,8F,00,
4167733,00000155,false,Rx,0,8,0A,87,F2,54,98,48,02,CB,
4168556,000001A1,false,Rx,0,8,B2,8B,3E,34,99,0C,80,20,
4168800,00000157,false,Rx,0,8,D5,07,09,C4,FF,E0,BE,80,
4169045,00000426,false,Rx,0,8,00,A0,01,00,4B,C8,00,80,
4169217,000001C7,false,Rx,0,4,AA,A0,FF,C0,00,00,00,00,
4173611,0000019F,false,Rx,0,8,00,00,7D,05,00,6A,90,FE,
4177753,00000155,false,Rx,0,8,0A,87,F1,54,98,48,02,CA,
4178586,000001A1,false,Rx,0,8,B2,CB,3C,34,99,0C,80,20,
4178832,00000157,false,Rx,0,8,D5,57,09,C4,FF,E0,BE,80,
4179031,000001C7,false,Rx,0,4,AA,A0,FF,C0,00,00,00,00,
4183610,0000019F,false,Rx,0,8,00,00,7D,0A,00,6A,90,FE,
4183833,00000435,false,Rx,0,8,FF,FF,1E,6A,3B,10,00,00,
4187759,00000155,false,Rx,0,8,0A,87,F2,54,98,48,02,CB,
4188586,000001A1,false,Rx,0,8,B2,8B,3C,34,99,0C,80,20,
4188832,00000157,false,Rx,0,8,D5,A7,09,C4,FF,E0,BE,80,
4189027,00000436,false,Rx,0,6,86,14,AB,03,FF,DC,00,00,
4189200,000001C7,false,Rx,0,4,AA,A0,FF,C0,00,00,00,00,
4193611,0000019F,false,Rx,0,8,00,00,7D,0F,00,6A,90,FE,
4193882,00000511,false,Rx,0,7,04,FE,31,48,DD,FB,EE,00,
4193972,0000042F,false,Rx,0,2,32,20,00,00,00,00,00,00,
4197711,00000155,false,Rx,0,8,0A,87,F1,54,98,48,02,CA,
4198583,000001A1,false,Rx,0,8,B2,8B,38,34,99,0C,80,20,
4198830,00000157,false,Rx,0,8,D5,F7,09,C4,FF,E0,BE,80,
4199053,000001C7,false,Rx,0,4,AA,A0,FF,C0,00,00,00,00,
4203575,0000019F,false,Rx,0,8,00,00,7D,04,00,6A,90,FE,
4207708,00000155,false,Rx,0,8,0A,87,F2,54,98,48,02,CB,
4208585,000001A1,false,Rx,0,8,B2,8B,3C,34,B9,0C,80,20,
4208829,00000157,false,Rx,0,8,D5,47,09,C4,FF,E0,BE,80,
4209055,000001C7,false,Rx,0,4,AA,A0,FF,C0,00,00,00,00,
4213607,0000019F,false,Rx,0,8,00,00,7D,09,00,6A,90,FE,
4217706,00000155,false,Rx,0,8,0A,87,F1,54,98,48,02,CA,
4217929,00000424,false,Rx,0,8,11,40,56,C8,3F,5E,AA,40,
4218175,00000425,false,Rx,0,8,0A,D2,44,9C,3E,22,FD,10,
4218581,000001A1,false,Rx,0,8,B2,8B,34,34,99,0C,80,20,
4218830,00000157,false,Rx,0,8,D5,97,09,C4,FF,E0,BE,80,
4219051,000001C7,false,Rx,0,4,AA,A0,FF,C0,00,00,00,00,
4223576,0000019F,false,Rx,0,8,00,00,7D,0E,00,6A,90,FE,
4227706,00000155,false,Rx,0,8,0A,87,F2,54,98,48,02,CA,
4228580,000001A1,false,Rx,0,8,B2,CB,3C,34,99,0C,80,20,
4228805,00000157,false,Rx,0,8,D5,E7,09,C4,FF,E0,BE,80,
4229050,000001C7,false,Rx,0,4,AA,A0,FF,C0,00,00,00,00,
4233606,0000019F,false,Rx,0,8,00,00,7D,03,00,6A,90,FE,
4237705,00000155,false,Rx,0,8,0A,87,F1,54,98,48,02,CA,
4238583,000001A1,false,Rx,0,8,B2,8B,42,34,99,0C,80,20,
4238802,00000157,false,Rx,0,8,D5,37,09,C4,FF,E0,BE,80,
4239076,000001C7,false,Rx,0,4,AA,A0,FF,C0,00,00,00,00,
4243611,0000019F,false,Rx,0,8,00,00,7D,08,00,6A,90,FE,
4243851,00000419,false,Rx,0,6,5E,09,2A,E6,7E,00,00,00,
4244124,000004F7,false,Rx,0,8,00,3C,0C,22,28,B8,06,F0,
4247707,00000155,false,Rx,0,8,0A,87,F2,54,98,48,02,CB,
4248579,000001A1,false,Rx,0,8,B2,8B,42,34,99,0C,80,20,
4248826,00000157,false,Rx,0,8,D5,87,09,C4,FF,E0,BE,80,
4249073,000001C7,false,Rx,0,4,AA,A0,FF,C0,00,00,00,00,
4253304,00000445,false,Rx,0,7,80,55,AA,65,04,82,00,00,
4253579,0000019F,false,Rx,0,8,00,00,7D,0D,00,6A,90,FE,
4257731,00000155,false,Rx,0,8,0A,87,F1,54,98,48,02,CB,
4258578,000001A1,false,Rx,0,8,B2,8B,6E,34,99,0C,80,20,
4258800,00000157,false,Rx,0,8,D5,D7,09,C4,FF,E0,BE,80,
4259072,000001C7,false,Rx,0,4,AA,A0,FF,C0,00,00,00,00,
4263537,00000423,false,Rx,0,8,07,1D,00,02,B2,20,B2,D8,
4263770,0000019F,false,Rx,0,8,00,00,7D,02,00,6A,90,FE,
4264116,00000428,false,Rx,0,8,00,00,00,7F,00,00,8F,00,
4267745,00000155,false,Rx,0,8,0A,87,F2,54,98,48,02,CA,
4268545,000001A1,false,Rx,0,8,B2,4B,8E,34,99,0C,80,20,
4268767,00000157,false,Rx,0,8,D5,27,09,C4,FF,E0,BE,80,
4269014,00000426,false,Rx,0,8,00,A0,01,00,4B,C8,00,80,
4269188,000001C7,false,Rx,0,4,AA,A0,FF,C0,00,00,00,00,
4273575,0000019F,false,Rx,0,8,00,00,7D,07,00,6A,90,FE,
4277696,00000155,false,Rx,0,8,0A,87,F2,54,98,48,02,CA,
4278544,000001A1,false,Rx,0,8,B2,8B,50,34,69,0C,80,20,
4278765,00000157,false,Rx,0,8,D5,77,09,C4,FF,E0,BE,80,
4279061,000001C7,false,Rx,0,4,AA,A0,FF,C0,00,00,00,00,
4283547,00000435,false,Rx,0,8,FF,FF,1E,6A,3B,10,00,00,
4283765,0000019F,false,Rx,0,8,00,00,7D,0C,00,6A,90,FE,
4287744,00000155,false,Rx,0,8,0A,87,F2,54,98,48,02,CB,
4288543,000001A1,false,Rx,0,8,B2,8B,2C,34,39,0C,80,20,
4288766,00000157,false,Rx,0,8,D5,C7,09,C4,FF,E0,BE,80,
4288986,00000436,false,Rx,0,6,86,14,AB,03,FF,DC,00,00,
4289157,000001C7,false,Rx,0,4,AA,A0,FF,C0,00,00,00,00,
4293568,0000019F,false,Rx,0,8,00,00,7D,01,00,6A,90,FE,
4293837,00000511,false,Rx,0,7,04,3D,FA,01,48,08,D1,00,
4294015,0000042F,false,Rx,0,2,32,20,00,00,00,00,00,00,
4297690,00000155,false,Rx,0,8,0A,87,F1,54,98,48,02,C9,
4298539,000001A1,false,Rx,0,8,B2,8B,2C,34,49,0C,80,20,
4298761,00000157,false,Rx,0,8,D5,17,09,C4,FF,E0,BE,80,
4299058,000001C7,false,Rx,0,4,AA,A0,FF,C0,00,00,00,00,
4303568,0000019F,false,Rx,0,8,00,00,7D,06,00,6A,90,FE,
4307668,00000155,false,Rx,0,8,0A,87,F2,54,98,48,02,CA,
4308541,000001A1,false,Rx,0,8,B2,8B,2C,34,59,0C,80,20,
4308761,00000157,false,Rx,0,8,D5,67,09,C4,FF,E0,BE,80,
4309058,000001C7,false,Rx,0,4,AA,A0,FF,C0,00,00,00,00,
4313542,0000019F,false,Rx,0,8,00,00,7D,0B,00,6A,90,FE,
4317665,00000155,false,Rx,0,8,0A,87,F1,54,98,48,02,CA,
4317883,00000424,false,Rx,0,8,11,40,56,C8,3F,5E,AA,40,
4318130,00000425,false,Rx,0,8,0A,D2,44,9C,3E,22,FD,10,
4318536,000001A1,false,Rx,0,8,B2,8B,3C,34,99,0C,80,20,
4318758,00000157,false,Rx,0,8,D5,B7,09,C4,FF,E0,BE,80,
4319080,000001C7,false,Rx,0,4,AA,A0,FF,C0,00,00,00,00,
4323575,0000019F,false,Rx,0,8,00,00,7D,00,00,6A,90,FE,
4327669,00000155,false,Rx,0,8,0A,87,F2,54,98,48,02,CB,
4328541,000001A1,false,Rx,0,8,B2,CB,3C,34,A9,0C,80,20,
4328763,00000157,false,Rx,0,8,D5,07,09,C4,FF,E0,BE,80,
4329085,000001C7,false,Rx,0,4,AA,A0,FF,C0,00,00,00,00,
4333569,0000019F,false,Rx,0,8,00,00,7D,05,00,6A,90,FE,
4337693,00000155,false,Rx,0,8,0A,87,F1,54,98,48,02,CA,
4338564,000001A1,false,Rx,0,8,B2,CB,3C,34,99,0C,80,20,
4338786,00000157,false,Rx,0,8,D5,57,09,C4,FF,E0,BE,80,
4339108,000001C7,false,Rx,0,4,AA,A0,FF,C0,00,00,00,00,
4343562,0000019F,false,Rx,0,8,00,00,7D,0A,00,6A,90,FE,
4343811,00000419,false,Rx,0,6,5E,09,2A,E6,7E,00,00,00,
4344152,000004F7,false,Rx,0,8,00,3C,0C,23,28,B8,06,F0,
4347687,00000155,false,Rx,0,8,0A,87,F2,54,98,48,02,CB,
4348565,000001A1,false,Rx,0,8,B2,8B,38,34,99,0C,80,20,
4348787,00000157,false,Rx,0,8,D5,A7,09,C4,FF,E0,BE,80,
4349110,000001C7,false,Rx,0,4,AA,A0,FF,C0,00,00,00,00,
4353286,00000445,false,Rx,0,7,80,55,AA,65,04,82,00,00,
4353560,0000019F,false,Rx,0,8,00,00,7D,0F,00,6A,90,FE,
4357767,00000155,false,Rx,0,8,0A,87,F2,54,98,48,02,CA,
4358559,000001A1,false,Rx,0,8,B2,8B,3E,34,99,0C,80,20,
4358812,00000157,false,Rx,0,8,D5,F7,09,C4,FF,E0,BE,80,
4359110,000001C7,false,Rx,0,4,AA,A0,FF,C0,00,00,00,00,
4363635,0000019F,false,Rx,0,8,00,00,7D,04,00,6A,90,FE,
4363812,00000423,false,Rx,0,8,07,1D,00,02,5D,20,5D,D8,
4364212,00000428,false,Rx,0,8,00,00,00,7F,00,00,8F,00,
4367713,00000155,false,Rx,0,8,0A,87,F2,54,98,48,02,CB,
4368562,000001A1,false,Rx,0,8,B2,8B,34,34,B9,0C,80,20,
4368786,00000157,false,Rx,0,8,D5,47,09,C4,FF,E0,BE,80,
4369030,00000426,false,Rx,0,8,00,A0,01,00,4B,C8,00,80,
4369202,000001C7,false,Rx,0,4,AA,A0,FF,C0,00,00,00,00,
4373567,0000019F,false,Rx,0,8,00,00,7D,09,00,6A,90,FE,
4377735,00000155,false,Rx,0,8,0A,87,F1,54,98,48,02,CB,
4378563,000001A1,false,Rx,0,8,B2,CB,3E,34,99,0C,80,20,
4378785,00000157,false,Rx,0,8,D5,97,09,C4,FF,E0,BE,80,
4379123,000001C7,false,Rx,0,4,AA,A0,FF,C0,00,00,00,00,
4383608,00000435,false,Rx,0,8,FF,FF,1E,6A,3B,10,00,00,
4383842,0000019F,false,Rx,0,8,00,00,7D,0E,00,6A,90,FE,
4387738,00000155,false,Rx,0,8,0A,87,F2,54,98,48,02,CB,
4388545,000001A1,false,Rx,0,8,B2,8B,38,34,A9,0C,80,20,
4388811,00000157,false,Rx,0,8,D5,E7,09,C4,FF,E0,BE,80,
4389006,00000436,false,Rx,0,6,86,14,AB,03,FF,DC,00,00,
4389179,000001C7,false,Rx,0,4,AA,A0,FF,C0,00,00,00,00,
4393614,0000019F,false,Rx,0,8,00,00,7D,03,00,6A,90,FE,
4393818,00000511,false,Rx,0,7,04,7C,C3,BA,B3,15,B4,00,
4394097,0000042F,false,Rx,0,2,32,20,00,00,00,00,00,00,
4397669,00000155,false,Rx,0,8,0A,87,F1,54,98,48,02,CA,
4398542,000001A1,false,Rx,0,8,B2,8B,42,34,99,0C,80,20,
4398760,00000157,false,Rx,0,8,D5,37,09,C4,FF,E0,BE,80,
4399104,000001C7,false,Rx,0,4,AA,A0,FF,C0,00,00,00,00,
4403567,0000019F,false,Rx,0,8,00,00,7D,08,00,6A,90,FE,
4407670,00000155,false,Rx,0,8,0A,87,F2,54,98,48,02,CB,
4408553,000001A1,false,Rx,0,8,B2,8B,46,34,99,0C,80,20,
4408809,00000157,false,Rx,0,8,D5,87,09,C4,FF,E0,BE,80,
4409179,000001C7,false,Rx,0,4,AA,A0,FF,C0,00,00,00,00,
4413543,0000019F,false,Rx,0,8,00,00,7D,0D,00,6A,90,FE,
4417669,00000155,false,Rx,0,8,0A,87,F1,54,98,48,02,CB,
4417888,00000424,false,Rx,0,8,11,40,56,C8,3F,5E,55,40,
4418136,00000425,false,Rx,0,8,0A,D2,44,9C,3E,22,FD,10,
4418540,000001A1,false,Rx,0,8,B2,8B,5C,34,99,0C,80,20,
4418761,00000157,false,Rx,0,8,D5,D7,09,C4,FF,E0,BE,80,
4419134,000001C7,false,Rx,0,4,AA,A0,FF,C0,00,00,00,00,
4423566,0000019F,false,Rx,0,8,00,00,7D,02,00,6A,90,FE,
4427665,00000155,false,Rx,0,8,0A,87,F2,54,98,48,02,CB,
4428541,000001A1,false,Rx,0,8,B2,8B,6E,34,99,0C,80,20,
4428763,00000157,false,Rx,0,8,D5,27,09,C4,FF,E0,BE,80,
4429133,000001C7,false,Rx,0,4,AA,A0,FF,C0,00,00,00,00,
4433541,0000019F,false,Rx,0,8,00,00,7D,07,00,6A,90,FE,
4437670,00000155,false,Rx,0,8,0A,87,F2,54,98,48,02,CB,
4438540,000001A1,false,Rx,0,8,B2,8B,A6,34,59,0C,80,20,
4438760,00000157,false,Rx,0,8,D5,77,09,C4,FF,E0,BE,80,
4439130,000001C7,false,Rx,0,4,AA,A0,FF,C0,00,00,00,00,
4443544,0000019F,false,Rx,0,8,00,00,7D,0C,00,6A,90,FE,
4443807,00000419,false,Rx,0,6,5E,09,2A,E6,7E,00,00,00,
4444206,000004F7,false,Rx,0,8,00,3C,0C,23,28,B8,06,F0,
4447664,00000155,false,Rx,0,8,0A,87,F2,54,98,48,02,CA,
4448534,000001A1,false,Rx,0,8,B2,8B,3E,34,99,0C,80,20,
4448762,00000157,false,Rx,0,8,D5,C7,09,C4,FF,E0,BE,80,
4449133,000001C7,false,Rx,0,4,AA,A0,FF,C0,00,00,00,00,
4453291,00000445,false,Rx,0,7,80,55,55,65,04,82,00,00,
4453537,0000019F,false,Rx,0,8,00,00,7D,01,00,6A,90,FE,
4457687,00000155,false,Rx,0,8,0A,87,F1,54,98,48,02,CB,
4458539,000001A1,false,Rx,0,8,B2,8B,34,34,29,0C,80,20,
4458761,00000157,false,Rx,0,8,D5,17,09,C4,FF,E0,BE,80,
4459157,000001C7,false,Rx,0,4,AA,A0,FF,C0,00,00,00,00,
4463561,0000019F,false,Rx,0,8,00,00,7D,06,00,6A,90,FE,
4463786,00000423,false,Rx,0,8,07,1D,00,02,5D,20,5D,D9,
4464233,00000428,false,Rx,0,8,00,00,00,7F,00,00,8F,00,
4467731,00000155,false,Rx,0,8,0A,87,F2,54,98,48,02,C9,
4468526,000001A1,false,Rx,0,8,B2,8B,0E,34,69,0C,80,20,
4468748,00000157,false,Rx,0,8,D5,67,09,C4,FF,E0,BE,80,
4468994,00000426,false,Rx,0,8,00,A0,01,00,4B,C8,00,80,
4469167,000001C7,false,Rx,0,4,AA,A0,FF,C0,00,00,00,00,
4473527,0000019F,false,Rx,0,8,00,00,7D,0B,00,6A,90,FE,
4477680,00000155,false,Rx,0,8,0A,87,F1,54,98,48,02,CA,
4478525,000001A1,false,Rx,0,8,B2,8B,2C,34,59,0C,80,20,
4478746,00000157,false,Rx,0,8,D5,B7,09,C4,FF,E0,BE,80,
4479144,000001C7,false,Rx,0,4,AA,A0,FF,C0,00,00,00,00,
4483502,00000435,false,Rx,0,8,FF,FF,1E,6A,3B,10,00,00,
4483746,0000019F,false,Rx,0,8,00,00,7D,00,00,6A,90,FE,
4487731,00000155,false,Rx,0,8,0A,87,F2,54,98,48,02,CA,
4488527,000001A1,false,Rx,0,8,B2,8B,3C,34,99,0C,80,20,
4488747,00000157,false,Rx,0,8,D5,07,09,C4,FF,E0,BE,80,
4488968,00000436,false,Rx,0,6,86,14,AB,03,FF,DC,00,00,
4489141,000001C7,false,Rx,0,4,AA,A0,FF,C0,00,00,00,00,
4493525,0000019F,false,Rx,0,8,00,00,7D,05,00,6A,90,FE,
4493795,00000511,false,Rx,0,7,04,BB,8C,73,1E,22,97,00,
4494119,0000042F,false,Rx,0,2,32,20,00,00,00,00,00,00,
4497673,00000155,false,Rx,0,8,0A,87,F1,54,98,48,02,CA,
4498524,000001A1,false,Rx,0,8,B2,CB,3C,34,99,0C,80,20,
4498744,00000157,false,Rx,0,8,D5,57,09,C4,FF,E0,BE,80,
4499149,000001C7,false,Rx,0,4,AA,A0,FF,C0,00,00,00,00,
4503539,0000019F,false,Rx,0,8,00,00,7D,0A,00,6A,90,FE,
4507628,00000155,false,Rx,0,8,0A,87,F3,54,98,48,02,CB,
4508559,000001A1,false,Rx,0,8,B2,CB,38,34,99,0C,80,20,
4508749,00000157,false,Rx,0,8,D5,A7,09,C4,FF,E0,BE,80,
4509173,000001C7,false,Rx,0,4,AA,A0,FF,C0,00,00,00,00,
4513530,0000019F,false,Rx,0,8,00,00,7D,0F,00,6A,90,FE,
4517655,00000155,false,Rx,0,8,0A,87,F1,54,98,48,02,CA,
4517874,00000424,false,Rx,0,8,11,40,56,C8,3F,5E,55,40,
4518117,00000425,false,Rx,0,8,0A,D2,44,9C,3E,22,FD,10,
4518501,000001A1,false,Rx,0,8,B2,CB,3C,34,99,0C,80,20,
4518745,00000157,false,Rx,0,8,D5,F7,09,C4,FF,E0,BE,80,
4519171,000001C7,false,Rx,0,4,AA,A0,FF,C0,00,00,00,00,
4523535,0000019F,false,Rx,0,8,00,00,7D,04,00,6A,90,FE,
4527658,00000155,false,Rx,0,8,0A,87,F3,54,98,48,02,CB,
4528506,000001A1,false,Rx,0,8,B2,8B,34,34,A9,0C,80,20,
4528748,00000157,false,Rx,0,8,D5,47,09,C4,FF,E0,BE,80,
4529175,000001C7,false,Rx,0,4,AA,A0,FF,C0,00,00,00,00,
4533527,0000019F,false,Rx,0,8,00,00,7D,09,00,6A,90,FE,
4537654,00000155,false,Rx,0,8,0A,87,F1,54,98,48,02,CA,
4538522,000001A1,false,Rx,0,8,B2,8B,3C,34,99,0C,80,20,
4538746,00000157,false,Rx,0,8,D5,97,09,C4,FF,E0,BE,80,
4539166,000001C7,false,Rx,0,4,AA,A0,FF,C0,00,00,00,00,
4543522,0000019F,false,Rx,0,8,00,00,7D,0E,00,6A,90,FE,
4543792,00000419,false,Rx,0,6,5E,09,2A,E6,7E,00,00,00,
4544238,000004F7,false,Rx,0,8,00,3C,0C,23,28,B8,06,F0,
4547652,00000155,false,Rx,0,8,0A,87,F2,54,98,48,02,CB,
4548493,000001A1,false,Rx,0,8,B2,8B,3C,34,A9,0C,80,20,
4548740,00000157,false,Rx,0,8,D5,E7,09,C4,FF,E0,BE,80,
4549163,000001C7,false,Rx,0,4,AA,A0,FF,C0,00,00,00,00,
4553245,00000445,false,Rx,0,7,80,55,55,65,04,82,00,00,
4553518,0000019F,false,Rx,0,8,00,00,7D,03,00,6A,90,FE,
4557694,00000155,false,Rx,0,8,0A,87,F1,54,98,48,02,CA,
4558525,000001A1,false,Rx,0,8,B2,8B,3E,34,99,0C,80,20,
4558739,00000157,false,Rx,0,8,D5,37,09,C4,FF,E0,BE,80,
4559187,000001C7,false,Rx,0,4,AA,A0,FF,C0,00,00,00,00,
4563522,0000019F,false,Rx,0,8,00,00,7D,08,00,6A,90,FE,
4563762,00000423,false,Rx,0,8,07,1D,00,02,5D,20,5D,D8,
4564261,00000428,false,Rx,0,8,00,00,00,7F,00,00,8F,00,
4567672,00000155,false,Rx,0,8,0A,87,F2,54,98,48,02,CB,
4568524,000001A1,false,Rx,0,8,B2,8B,3C,34,99,0C,80,20,
4568738,00000157,false,Rx,0,8,D5,87,09,C4,FF,E0,BE,80,
4568985,00000426,false,Rx,0,8,00,A0,01,00,4B,C8,00,80,
4569182,000001C7,false,Rx,0,4,AA,A0,FF,C0,00,00,00,00,
4573519,0000019F,false,Rx,0,8,00,00,7D,0D,00,6A,90,FE,
4577692,00000155,false,Rx,0,8,0A,87,F1,54,98,48,02,CB,
4578514,000001A1,false,Rx,0,8,B2,8B,54,34,99,0C,80,20,
4578738,00000157,false,Rx,0,8,D5,D7,09,C4,FF,E0,BE,80,
4579187,000001C7,false,Rx,0,4,AA,A0,FF,C0,00,00,00,00,
4583519,0000019F,false,Rx,0,8,00,00,7D,02,00,6A,90,FE,
4583762,00000435,false,Rx,0,8,FF,FF,1E,6A,3B,10,00,00,
4587680,00000155,false,Rx,0,8,0A,87,F2,54,98,48,02,CA,
4588517,000001A1,false,Rx,0,8,B2,8B,66,34,99,0C,80,20,
4588747,00000157,false,Rx,0,8,D5,27,09,C4,FF,E0,BE,80,
4588934,00000436,false,Rx,0,6,86,14,AB,03,FF,DC,00,00,
4589215,000001C7,false,Rx,0,4,AA,A0,FF,C0,00,00,00,00,
4593518,0000019F,false,Rx,0,8,00,00,7D,07,00,6A,90,FE,
4593785,00000511,false,Rx,0,7,04,FA,55,2C,89,2F,7A,00,
4594157,0000042F,false,Rx,0,2,32,20,00,00,00,00,00,00,
4597655,00000155,false,Rx,0,8,0A,87,F1,54,98,48,02,CC,
4598513,000001A1,false,Rx,0,8,B2,8B,E0,34,99,0C,80,20,
4598735,00000157,false,Rx,0,8,D5,77,09,C4,FF,E0,BE,80,
4599207,000001C7,false,Rx,0,4,AA,A0,FF,C0,00,00,00,00,
4603512,0000019F,false,Rx,0,8,00,00,7D,0C,00,6A,90,FE,
4607665,00000155,false,Rx,0,8,0A,87,F2,54,98,48,02,CB,
4608530,000001A1,false,Rx,0,8,B2,8B,64,34,69,0C,80,20,
4608760,00000157,false,Rx,0,8,D5,C7,09,C4,FF,E0,BE,80,
4609280,000001C7,false,Rx,0,4,AA,A0,FF,C0,00,00,00,00,
4613544,0000019F,false,Rx,0,8,00,00,7D,01,00,6A,90,FE,
4617639,00000155,false,Rx,0,8,0A,87,F1,54,98,48,02,CA,
4617890,00000424,false,Rx,0,8,11,40,56,C8,3F,5E,55,40,
4618104,00000425,false,Rx,0,8,0A,D2,44,9C,3E,22,FD,10,
4618535,000001A1,false,Rx,0,8,B2,8B,34,34,29,0C,80,20,
4618734,00000157,false,Rx,0,8,D5,17,09,C4,FF,E0,BE,80,
4619208,000001C7,false,Rx,0,4,AA,A0,FF,C0,00,00,00,00,
4623539,0000019F,false,Rx,0,8,00,00,7D,06,00,6A,90,FE,
4627685,00000155,false,Rx,0,8,0A,87,F2,54,98,48,02,C9,
4628562,000001A1,false,Rx,0,8,B2,8A,FA,34,49,0C,80,20,
4628792,00000157,false,Rx,0,8,D5,67,09,C4,FF,E0,BE,80,
4629254,000001C7,false,Rx,0,4,AA,A0,FF,C0,00,00,00,00,
4633533,0000019F,false,Rx,0,8,00,00,7D,0B,00,6A,90,FE,
4637630,00000155,false,Rx,0,8,0A,87,F1,54,98,48,02,CA,
4638501,000001A1,false,Rx,0,8,B2,CB,22,34,99,0C,80,20,
4638748,00000157,false,Rx,0,8,D5,B7,09,C4,FF,E0,BE,80,
4639248,000001C7,false,Rx,0,4,AA,A0,FF,C0,00,00,00,00,
4643524,0000019F,false,Rx,0,8,00,00,7D,00,00,6A,90,FE,
4643789,00000419,false,Rx,0,6,5E,08,2A,E6,7E,00,00,00,
4644283,000004F7,false,Rx,0,8,00,3C,0C,22,28,B8,06,F0,
4647644,00000155,false,Rx,0,8,0A,87,F2,54,98,48,02,CA,
4648518,000001A1,false,Rx,0,8,B2,8B,38,34,99,0C,80,20,
4648739,00000157,false,Rx,0,8,D5,07,09,C4,FF,E0,BE,80,
4649236,000001C7,false,Rx,0,4,AA,A0,FF,C0,00,00,00,00,
4653216,00000445,false,Rx,0,7,80,55,55,65,04,82,00,00,
4653514,0000019F,false,Rx,0,8,00,00,7D,05,00,6A,90,FE,
4657726,00000155,false,Rx,0,8,0A,87,F1,54,98,48,02,CA,
4658547,000001A1,false,Rx,0,8,B2,CB,3C,34,99,0C,80,20,
4658793,00000157,false,Rx,0,8,D5,57,09,C4,FF,E0,BE,80,
4659291,000001C7,false,Rx,0,4,AA,A0,FF,C0,00,00,00,00,
4663525,0000019F,false,Rx,0,8,00,00,7D,0A,00,6A,90,FE,
4663736,00000423,false,Rx,0,8,07,1D,00,02,5D,20,5D,D9,
4664308,00000428,false,Rx,0,8,00,00,00,7F,00,00,8F,00,
4667747,00000155,false,Rx,0,8,0A,87,F2,54,98,48,02,CB,
4668498,000001A1,false,Rx,0,8,B2,CB,38,34,A9,0C,80,20,
4668758,00000157,false,Rx,0,8,D5,A7,09,C4,FF,E0,BE,80,
4668989,00000426,false,Rx,0,8,00,A0,01,00,4B,C8,00,80,
4669257,000001C7,false,Rx,0,4,AA,A0,FF,C0,00,00,00,00,
4673518,0000019F,false,Rx,0,8,00,00,7D,0F,00,6A,90,FE,
4677666,00000155,false,Rx,0,8,0A,87,F1,54,98,48,02,CA,
4678489,000001A1,false,Rx,0,8,B2,8B,3C,34,99,0C,80,20,
4678733,00000157,false,Rx,0,8,D5,F7,09,C4,FF,E0,BE,80,
4679233,000001C7,false,Rx,0,4,AA,A0,FF,C0,00,00,00,00,
4683489,00000435,false,Rx,0,8,FF,FF,1E,6A,3B,10,00,00,
4683735,0000019F,false,Rx,0,8,00,00,7D,04,00,6A,90,FE,
4687718,00000155,false,Rx,0,8,0A,87,F2,54,98,48,02,CB,
4688531,000001A1,false,Rx,0,8,B2,8B,3E,34,99,0C,80,20,
4688732,00000157,false,Rx,0,8,D5,47,09,C4,FF,E0,BE,80,
4688928,00000436,false,Rx,0,6,86,14,AB,03,FF,DC,00,00,
4689252,000001C7,false,Rx,0,4,AA,A0,FF,C0,00,00,00,00,
4693516,0000019F,false,Rx,0,8,00,00,7D,09,00,6A,90,FE,
4693783,00000511,false,Rx,0,7,04,39,1E,E5,F4,3C,5D,00,
4694265,0000042F,false,Rx,0,2,32,20,00,00,00,00,00,00,
4697719,00000155,false,Rx,0,8,0A,87,F1,54,98,48,02,CA,
