Time Stamp,ID,Extended,Dir,Bus,LEN,D1,D2,D3,D4,D5,D6,D7,D8
687248658,000001A1,false,Rx,0,8,AF,08,64,41,35,0C,80,20,
687249795,00000155,false,Rx,0,8,84,87,CE,54,82,B8,02,BC,
687249921,000001C7,false,Rx,0,4,AA,A0,FF,C0,00,00,00,00,
687252000,00000157,false,Rx,0,8,D5,17,09,C4,FF,E0,00,80,
687253727,0000019F,false,Rx,0,8,00,00,7D,04,00,6A,90,FE,
687256889,00000423,false,Rx,0,8,07,1D,00,02,B2,80,B2,D9,
687258659,000001A1,false,Rx,0,8,AF,08,50,41,35,0C,80,20,
687259832,00000155,false,Rx,0,8,84,87,CE,54,82,B8,02,BC,
687259906,000001C7,false,Rx,0,4,AA,A0,FF,C0,00,00,00,00,
687262142,00000157,false,Rx,0,8,D5,67,09,C4,FF,E0,00,80,
687262151,00000426,false,Rx,0,8,00,60,01,00,4B,C8,00,40,
687263716,0000019F,false,Rx,0,8,00,00,7D,09,00,6A,90,FE,
687268772,000001A1,false,Rx,0,8,AF,08,64,41,35,0C,80,20,
687269900,00000155,false,Rx,0,8,84,87,CE,54,82,B8,02,BC,
687269907,000001C7,false,Rx,0,4,AA,A0,FF,C0,00,00,00,00,
687272045,00000157,false,Rx,0,8,D5,B7,09,C4,FF,E0,00,80,
687273756,0000019F,false,Rx,0,8,00,00,7D,0E,00,6A,90,FE,
687277100,00000435,false,Rx,0,8,FF,FF,1E,0B,3C,10,00,00,
687278871,000001A1,false,Rx,0,8,AF,08,64,41,35,0C,80,20,
687279940,00000155,false,Rx,0,8,84,87,CE,54,82,B8,02,BC,
687279967,000001C7,false,Rx,0,4,AA,A0,FF,C0,00,00,00,00,
687282213,00000157,false,Rx,0,8,D5,07,09,C4,FF,E0,00,80,
687282222,00000436,false,Rx,0,6,86,14,AA,EA,FF,DC,00,00,
687283719,0000019F,false,Rx,0,8,00,00,7D,03,00,6A,90,FE,
687283935,00000511,false,Rx,0,7,04,2C,93,8A,23,25,A4,00,
687288869,000001A1,false,Rx,0,8,AF,08,64,41,35,0C,80,20,
687290018,00000155,false,Rx,0,8,84,87,CE,54,82,B8,02,BC,
687290028,000004F7,false,Rx,0,8,00,23,08,00,90,64,06,F0,
687290230,000001C7,false,Rx,0,4,AA,A0,FF,C0,00,00,00,00,
687290650,00000428,false,Rx,0,8,00,00,00,7F,00,00,00,00,
687290660,0000042F,false,Rx,0,2,00,20,00,00,00,00,00,00,
687292220,00000157,false,Rx,0,8,D5,57,09,C4,FF,E0,00,80,
687293894,0000019F,false,Rx,0,8,00,00,7D,08,00,6A,90,FE,
687298640,000001A1,false,Rx,0,8,AF,08,50,41,35,0C,80,20,
687299899,00000155,false,Rx,0,8,84,87,CE,54,82,B8,02,BC,
687299988,000001C7,false,Rx,0,4,AA,A0,FF,C0,00,00,00,00,
687302202,00000157,false,Rx,0,8,D5,A7,09,C4,FF,E0,00,80,
687303652,0000019F,false,Rx,0,8,00,00,7D,0D,00,6A,90,FE,
687308886,000001A1,false,Rx,0,8,AF,08,64,41,35,0C,80,20,
687310083,00000155,false,Rx,0,8,84,87,CE,54,82,B8,02,BC,
687310092,000001C7,false,Rx,0,4,AA,A0,FF,C0,00,00,00,00,
687312053,00000157,false,Rx,0,8,D5,F7,09,C4,FF,E0,00,80,
687313731,0000019F,false,Rx,0,8,00,00,7D,02,00,6A,90,FE,
687318615,000001A1,false,Rx,0,8,AF,08,64,41,35,0C,80,20,
687319810,00000155,false,Rx,0,8,84,87,CE,54,82,B8,02,BC,
687319987,000001C7,false,Rx,0,4,AA,A0,FF,C0,00,00,00,00,
687321910,00000157,false,Rx,0,8,D5,47,09,C4,FF,E0,00,80,
687323635,0000019F,false,Rx,0,8,00,00,7D,07,00,6A,90,FE,
687328610,000001A1,false,Rx,0,8,AF,08,64,41,35,0C,80,20,
687329735,00000155,false,Rx,0,8,84,87,CE,54,82,B8,02,BC,
687329887,000001C7,false,Rx,0,4,AA,A0,FF,C0,00,00,00,00,
687331886,00000157,false,Rx,0,8,D5,97,09,C4,FF,E0,00,80,
687333634,0000019F,false,Rx,0,8,00,00,7D,0C,00,6A,90,FE,
687333861,00000419,false,Rx,0,6,5E,07,2A,E6,52,00,00,00,
687338610,000001A1,false,Rx,0,8,AF,48,64,41,35,0C,80,20,
687339734,00000155,false,Rx,0,8,84,87,CE,54,82,B8,02,BC,
687339885,000001C7,false,Rx,0,4,AA,A0,FF,C0,00,00,00,00,
687340138,00000424,false,Rx,0,8,11,40,56,C8,3E,5E,AA,3F,
687340358,00000425,false,Rx,0,8,2A,B3,44,9C,42,12,F9,08,
687340986,00000445,false,Rx,0,7,80,55,AA,65,04,82,00,00,
687341909,00000157,false,Rx,0,8,D5,E7,09,C4,FF,E0,00,80,
687343634,0000019F,false,Rx,0,8,00,00,7D,01,00,6A,90,FE,
687348609,000001A1,false,Rx,0,8,AF,08,50,41,35,0C,80,20,
687349732,00000155,false,Rx,0,8,84,87,CE,54,82,B8,02,BC,
687349909,000001C7,false,Rx,0,4,AA,A0,FF,C0,00,00,00,00,
687351881,00000157,false,Rx,0,8,D5,37,09,C4,FF,E0,00,80,
687353631,0000019F,false,Rx,0,8,00,00,7D,06,00,6A,90,FE,
687356880,00000423,false,Rx,0,8,07,1D,00,02,B2,80,B2,D9,
687358609,000001A1,false,Rx,0,8,AF,08,64,41,35,0C,80,20,
687359732,00000155,false,Rx,0,8,84,87,CE,54,82,B8,02,BC,
687359882,000001C7,false,Rx,0,4,AA,A0,FF,C0,00,00,00,00,
687361957,00000157,false,Rx,0,8,D5,87,09,C4,FF,E0,00,80,
687362206,00000426,false,Rx,0,8,00,60,01,00,4B,C8,00,40,
687363606,0000019F,false,Rx,0,8,00,00,7D,0B,00,6A,90,FE,
687368606,000001A1,false,Rx,0,8,AF,08,64,41,35,0C,80,20,
687369728,00000155,false,Rx,0,8,84,87,CE,54,82,B8,02,BC,
687369880,000001C7,false,Rx,0,4,AA,A0,FF,C0,00,00,00,00,
687371855,00000157,false,Rx,0,8,D5,D7,09,C4,FF,E0,00,80,
687373626,0000019F,false,Rx,0,8,00,00,7D,00,00,6A,90,FE,
687376826,00000435,false,Rx,0,8,FF,FF,1E,0B,3C,10,00,00,
687378640,000001A1,false,Rx,0,8,AE,C8,64,41,35,0C,80,20,
687379820,00000155,false,Rx,0,8,84,87,CE,54,82,B8,02,BC,
687379985,000001C7,false,Rx,0,4,AA,A0,FF,C0,00,00,00,00,
687381887,00000157,false,Rx,0,8,D5,27,09,C4,FF,E0,00,80,
687382121,00000436,false,Rx,0,6,86,14,AA,EA,FF,DC,00,00,
687383660,0000019F,false,Rx,0,8,00,00,7D,05,00,6A,90,FE,
687383910,00000511,false,Rx,0,7,04,6B,5C,43,8E,32,87,00,
687388649,000001A1,false,Rx,0,8,AF,48,64,41,35,0C,80,20,
687389832,00000155,false,Rx,0,8,84,87,CE,54,82,B8,02,BC,
687390058,000004F7,false,Rx,0,8,00,23,08,00,90,64,06,F0,
687390242,000001C7,false,Rx,0,4,AA,A0,FF,C0,00,00,00,00,
687390515,00000428,false,Rx,0,8,00,00,00,7F,00,00,00,00,
687390643,0000042F,false,Rx,0,2,00,20,00,00,00,00,00,00,
687391966,00000157,false,Rx,0,8,D5,77,09,C4,FF,E0,00,80,
687393599,0000019F,false,Rx,0,8,00,00,7D,0A,00,6A,90,FE,
687398757,000001A1,false,Rx,0,8,AF,08,64,41,35,0C,80,20,
687399824,00000155,false,Rx,0,8,84,87,CE,54,82,B8,02,BC,
687399950,000001C7,false,Rx,0,4,AA,A0,FF,C0,00,00,00,00,
687401980,00000157,false,Rx,0,8,D5,C7,09,C4,FF,E0,00,80,
687403732,0000019F,false,Rx,0,8,00,00,7D,0F,00,6A,90,FE,
687408766,000001A1,false,Rx,0,8,AF,08,64,41,35,0C,80,20,
687409954,00000155,false,Rx,0,8,84,87,CE,54,82,B8,02,BC,
687409958,000001C7,false,Rx,0,4,AA,A0,FF,C0,00,00,00,00,
687412197,00000157,false,Rx,0,8,D5,17,09,C4,FF,E0,00,80,
687413845,0000019F,false,Rx,0,8,00,00,7D,04,00,6A,90,FE,
687418787,000001A1,false,Rx,0,8,AF,48,64,41,35,0C,80,20,
687419753,00000155,false,Rx,0,8,84,87,CE,54,82,B8,02,BC,
687420010,000001C7,false,Rx,0,4,AA,A0,FF,C0,00,00,00,00,
687421982,00000157,false,Rx,0,8,D5,67,09,C4,FF,E0,00,80,
687423682,0000019F,false,Rx,0,8,00,00,7D,09,00,6A,90,FE,
687428862,000001A1,false,Rx,0,8,AF,08,64,41,35,0C,80,20,
687429977,00000155,false,Rx,0,8,84,87,CE,54,82,B8,02,BC,
687429994,000001C7,false,Rx,0,4,AA,A0,FF,C0,00,00,00,00,
687432078,00000157,false,Rx,0,8,D5,B7,09,C4,FF,E0,00,80,
687433840,0000019F,false,Rx,0,8,00,00,7D,0E,00,6A,90,FE,
687433844,00000419,false,Rx,0,6,5E,07,2A,E6,52,00,00,00,
687438686,000001A1,false,Rx,0,8,AF,08,64,41,35,0C,80,20,
687439843,00000155,false,Rx,0,8,84,87,CE,54,82,B8,02,BC,
687439893,000001C7,false,Rx,0,4,AA,A0,FF,C0,00,00,00,00,
687440237,00000424,false,Rx,0,8,11,40,56,C8,3E,5E,AA,3F,
687440399,00000425,false,Rx,0,8,2A,B3,44,9C,42,12,F9,08,
687441228,00000445,false,Rx,0,7,80,55,AA,65,04,82,00,00,
687442180,00000157,false,Rx,0,8,D5,07,09,C4,FF,E0,00,80,
687443640,0000019F,false,Rx,0,8,00,00,7D,03,00,6A,90,FE,
687448868,000001A1,false,Rx,0,8,AF,08,50,41,35,0C,80,20,
687449992,00000155,false,Rx,0,8,84,87,CE,54,82,B8,02,BC,
687449997,000001C7,false,Rx,0,4,AA,A0,FF,C0,00,00,00,00,
687452147,00000157,false,Rx,0,8,D5,57,09,C4,FF,E0,00,80,
687453709,0000019F,false,Rx,0,8,00,00,7D,08,00,6A,90,FE,
687457131,00000423,false,Rx,0,8,07,1D,00,02,B2,80,B2,D9,
687458855,000001A1,false,Rx,0,8,AF,08,64,41,35,0C,80,20,
687459979,00000155,false,Rx,0,8,84,87,CE,54,82,B8,02,BC,
687459987,000001C7,false,Rx,0,4,AA,A0,FF,C0,00,00,00,00,
687462107,00000157,false,Rx,0,8,D5,A7,09,C4,FF,E0,00,80,
687462116,00000426,false,Rx,0,8,00,60,01,00,4B,C8,00,40,
687463671,0000019F,false,Rx,0,8,00,00,7D,0D,00,6A,90,FE,
687468889,000001A1,false,Rx,0,8,AF,08,64,41,35,0C,80,20,
687469978,00000155,false,Rx,0,8,84,87,CE,54,82,B8,02,BC,
687469987,000001C7,false,Rx,0,4,AA,A0,FF,C0,00,00,00,00,
687472230,00000157,false,Rx,0,8,D5,F7,09,C4,FF,E0,00,80,
687473679,0000019F,false,Rx,0,8,00,00,7D,02,00,6A,90,FE,
687476873,00000435,false,Rx,0,8,FF,FF,1E,0B,3C,10,00,00,
687478705,000001A1,false,Rx,0,8,AF,08,64,41,35,0C,80,20,
687479989,00000155,false,Rx,0,8,84,87,CE,54,82,B8,02,BC,
687479998,000001C7,false,Rx,0,4,AA,A0,FF,C0,00,00,00,00,
687482185,00000157,false,Rx,0,8,D5,47,09,C4,FF,E0,00,80,
687482194,00000436,false,Rx,0,6,86,14,AA,EA,FF,DC,00,00,
687483648,0000019F,false,Rx,0,8,00,00,7D,07,00,6A,90,FE,
687483948,00000511,false,Rx,0,7,04,AA,25,FC,F9,3F,6A,00,
687488831,000001A1,false,Rx,0,8,AF,08,64,41,35,0C,80,20,
687490024,00000155,false,Rx,0,8,84,87,CE,54,82,B8,02,BC,
687490033,000004F7,false,Rx,0,8,00,23,08,00,90,64,06,F0,
687490163,000001C7,false,Rx,0,4,AA,A0,FF,C0,00,00,00,00,
687490607,00000428,false,Rx,0,8,00,00,00,7F,00,00,00,00,
687490616,0000042F,false,Rx,0,2,00,20,00,00,00,00,00,00,
687492183,00000157,false,Rx,0,8,D5,97,09,C4,FF,E0,00,80,
687493850,0000019F,false,Rx,0,8,00,00,7D,0C,00,6A,90,FE,
687498858,000001A1,false,Rx,0,8,AF,08,64,41,35,0C,80,20,
687499858,00000155,false,Rx,0,8,84,87,CE,54,82,B8,02,BC,
687499950,000001C7,false,Rx,0,4,AA,A0,FF,C0,00,00,00,00,
687502200,00000157,false,Rx,0,8,D5,E7,09,C4,FF,E0,00,80,
687503712,0000019F,false,Rx,0,8,00,00,7D,01,00,6A,90,FE,
687508871,000001A1,false,Rx,0,8,AF,08,64,41,35,0C,80,20,
687510025,00000155,false,Rx,0,8,84,87,CE,54,82,B8,02,BC,
687510034,000001C7,false,Rx,0,4,AA,A0,FF,C0,00,00,00,00,
687512117,00000157,false,Rx,0,8,D5,37,09,C4,FF,E0,00,80,
687513779,0000019F,false,Rx,0,8,00,00,7D,06,00,6A,90,FE,
687518851,000001A1,false,Rx,0,8,AF,08,64,41,35,0C,80,20,
687520007,00000155,false,Rx,0,8,84,87,CE,54,82,B8,02,BC,
687520016,000001C7,false,Rx,0,4,AA,A0,FF,C0,00,00,00,00,
687522161,00000157,false,Rx,0,8,D5,87,09,C4,FF,E0,00,80,
687523651,0000019F,false,Rx,0,8,00,00,7D,0B,00,6A,90,FE,
687528671,000001A1,false,Rx,0,8,AF,08,50,41,35,0C,80,20,
687529879,00000155,false,Rx,0,8,84,87,CE,54,82,B8,02,BC,
687529906,000001C7,false,Rx,0,4,AA,A0,FF,C0,00,00,00,00,
687532145,00000157,false,Rx,0,8,D5,D7,09,C4,FF,E0,00,80,
687533869,0000019F,false,Rx,0,8,00,00,7D,00,00,6A,90,FE,
687533878,00000419,false,Rx,0,6,5E,07,2A,E6,52,00,00,00,
687538846,000001A1,false,Rx,0,8,AF,08,64,41,35,0C,80,20,
687539941,00000155,false,Rx,0,8,84,87,CE,54,82,B8,02,BC,
687539950,00000424,false,Rx,0,8,11,40,56,C8,3E,5E,AA,3F,
687540115,000001C7,false,Rx,0,4,AA,A0,FF,C0,00,00,00,00,
687540549,00000425,false,Rx,0,8,2A,B3,44,9C,42,12,F9,08,
687541169,00000445,false,Rx,0,7,80,55,AA,65,04,82,00,00,
687542060,00000157,false,Rx,0,8,D5,27,09,C4,FF,E0,00,80,
687543672,0000019F,false,Rx,0,8,00,00,7D,05,00,6A,90,FE,
687548840,000001A1,false,Rx,0,8,AF,08,64,41,35,0C,80,20,
687549993,00000155,false,Rx,0,8,84,87,CE,54,82,B8,02,BC,
687550002,000001C7,false,Rx,0,4,AA,A0,FF,C0,00,00,00,00,
687551977,00000157,false,Rx,0,8,D5,77,09,C4,FF,E0,00,80,
687553846,0000019F,false,Rx,0,8,00,00,7D,0A,00,6A,90,FE,
687557081,00000423,false,Rx,0,8,07,1D,00,02,5D,80,5D,D9,
687558590,000001A1,false,Rx,0,8,AF,08,64,41,35,0C,80,20,
687559924,00000155,false,Rx,0,8,84,87,CE,54,82,B8,02,BC,
687559933,000001C7,false,Rx,0,4,AA,A0,FF,C0,00,00,00,00,
687562125,00000157,false,Rx,0,8,D5,C7,09,C4,FF,E0,00,80,
687562134,00000426,false,Rx,0,8,00,60,01,00,4B,C8,00,40,
687563765,0000019F,false,Rx,0,8,00,00,7D,0F,00,6A,90,FE,
687568646,000001A1,false,Rx,0,8,AE,C8,64,41,35,0C,80,20,
687569738,00000155,false,Rx,0,8,84,87,CE,54,82,B8,02,BC,
687569972,000001C7,false,Rx,0,4,AA,A0,FF,C0,00,00,00,00,
687571877,00000157,false,Rx,0,8,D5,17,09,C4,FF,E0,00,80,
687573621,0000019F,false,Rx,0,8,00,00,7D,04,00,6A,90,FE,
687576821,00000435,false,Rx,0,8,FF,FF,1E,0B,3C,10,00,00,
687578594,000001A1,false,Rx,0,8,AF,08,64,41,35,0C,80,20,
687579773,00000155,false,Rx,0,8,84,87,CF,54,82,B8,02,BC,
687579950,000001C7,false,Rx,0,4,AA,A0,FF,C0,00,00,00,00,
687581948,00000157,false,Rx,0,8,D5,67,09,C4,FF,E0,00,80,
687582147,00000436,false,Rx,0,6,86,14,AA,EA,FF,DC,00,00,
687583623,0000019F,false,Rx,0,8,00,00,7D,09,00,6A,90,FE,
687583873,00000511,false,Rx,0,7,04,E9,EE,B5,64,4C,4D,00,
687588618,000001A1,false,Rx,0,8,AF,08,64,41,35,0C,80,20,
687589801,00000155,false,Rx,0,8,84,87,CE,54,82,B8,02,BC,
687590045,000004F7,false,Rx,0,8,00,23,08,00,90,64,06,F0,
687590294,000001C7,false,Rx,0,4,AA,A0,FF,C0,00,00,00,00,
687590523,00000428,false,Rx,0,8,00,00,00,7F,00,00,00,00,
687590651,0000042F,false,Rx,0,2,00,20,00,00,00,00,00,00,
687591923,00000157,false,Rx,0,8,D5,B7,09,C4,FF,E0,00,80,
687593624,0000019F,false,Rx,0,8,00,00,7D,0E,00,6A,90,FE,
687598623,000001A1,false,Rx,0,8,AE,C8,64,41,35,0C,80,20,
687599759,00000155,false,Rx,0,8,84,87,CE,54,82,B8,02,BC,
687599928,000001C7,false,Rx,0,4,AA,A0,FF,C0,00,00,00,00,
687601831,00000157,false,Rx,0,8,D5,07,09,C4,FF,E0,00,80,
687603580,0000019F,false,Rx,0,8,00,00,7D,03,00,6A,90,FE,
687608569,000001A1,false,Rx,0,8,AF,08,64,41,35,0C,80,20,
687609776,00000155,false,Rx,0,8,84,87,CE,54,82,B8,02,BC,
687609975,000001C7,false,Rx,0,4,AA,A0,FF,C0,00,00,00,00,
687611896,00000157,false,Rx,0,8,D5,57,09,C4,FF,E0,00,80,
687613620,0000019F,false,Rx,0,8,00,00,7D,08,00,6A,90,FE,
687618585,000001A1,false,Rx,0,8,AF,08,64,41,35,0C,80,20,
687619729,00000155,false,Rx,0,8,84,87,CE,54,82,B8,02,BC,
687619928,000001C7,false,Rx,0,4,AA,A0,FF,C0,00,00,00,00,
687621828,00000157,false,Rx,0,8,D5,A7,09,C4,FF,E0,00,80,
687623578,0000019F,false,Rx,0,8,00,00,7D,0D,00,6A,90,FE,
687628559,000001A1,false,Rx,0,8,AF,08,64,41,35,0C,80,20,
687629725,00000155,false,Rx,0,8,84,87,CE,54,82,B8,02,BC,
687629954,000001C7,false,Rx,0,4,AA,A0,FF,C0,00,00,00,00,
687632142,00000157,false,Rx,0,8,D5,F7,09,C4,FF,E0,00,80,
687633763,0000019F,false,Rx,0,8,00,00,7D,02,00,6A,90,FE,
687633882,00000419,false,Rx,0,6,5E,07,2A,E6,52,00,00,00,
687638823,000001A1,false,Rx,0,8,AF,08,64,41,35,0C,80,20,
687639800,00000155,false,Rx,0,8,84,87,CE,54,82,B8,02,BC,
687640023,00000424,false,Rx,0,8,11,40,56,C8,3E,5E,55,3F,
687640136,000001C7,false,Rx,0,4,AA,A0,FF,C0,00,00,00,00,
687640517,00000425,false,Rx,0,8,2A,B3,44,9C,42,12,F9,08,
687641096,00000445,false,Rx,0,7,80,55,55,65,04,82,00,00,
687641992,00000157,false,Rx,0,8,D5,47,09,C4,FF,E0,00,80,
687643630,0000019F,false,Rx,0,8,00,00,7D,07,00,6A,90,FE,
687648841,000001A1,false,Rx,0,8,AF,08,64,41,35,0C,80,20,
687649966,00000155,false,Rx,0,8,84,87,CE,54,82,B8,02,BC,
687649970,000001C7,false,Rx,0,4,AA,A0,FF,C0,00,00,00,00,
687652185,00000157,false,Rx,0,8,D5,97,09,C4,FF,E0,00,80,
687653841,0000019F,false,Rx,0,8,00,00,7D,0C,00,6A,90,FE,
687657060,00000423,false,Rx,0,8,07,1D,00,02,5D,80,5D,D9,
687658769,000001A1,false,Rx,0,8,AF,08,64,41,35,0C,80,20,
687659740,00000155,false,Rx,0,8,84,87,CE,54,82,B8,02,BC,
687660038,000001C7,false,Rx,0,4,AA,A0,FF,C0,00,00,00,00,
687662187,00000157,false,Rx,0,8,D5,E7,09,C4,FF,E0,00,80,
687662193,00000426,false,Rx,0,8,00,60,01,00,4B,C8,00,40,
687663636,0000019F,false,Rx,0,8,00,00,7D,01,00,6A,90,FE,
687668808,000001A1,false,Rx,0,8,AF,08,64,41,35,0C,80,20,
687669930,00000155,false,Rx,0,8,84,87,CE,54,82,B8,02,BC,
687669979,000001C7,false,Rx,0,4,AA,A0,FF,C0,00,00,00,00,
687672043,00000157,false,Rx,0,8,D5,37,09,C4,FF,E0,00,80,
687673831,0000019F,false,Rx,0,8,00,00,7D,06,00,6A,90,FE,
687677066,00000435,false,Rx,0,8,FF,FF,1E,0B,3C,10,00,00,
687678817,000001A1,false,Rx,0,8,AE,C8,64,41,35,0C,80,20,
687679854,00000155,false,Rx,0,8,84,87,CE,54,82,B8,02,BC,
687679962,000001C7,false,Rx,0,4,AA,A0,FF,C0,00,00,00,00,
687681941,00000157,false,Rx,0,8,D5,87,09,C4,FF,E0,00,80,
687682043,00000436,false,Rx,0,6,86,14,AA,EA,FF,DC,00,00,
687683635,0000019F,false,Rx,0,8,00,00,7D,0B,00,6A,90,FE,
687683899,00000511,false,Rx,0,7,04,28,B7,6E,CF,59,30,00,
687688777,000001A1,false,Rx,0,8,AF,08,64,41,35,0C,80,20,
687689983,00000155,false,Rx,0,8,84,87,CF,54,82,B8,02,BC,
687690042,000004F7,false,Rx,0,8,00,23,08,00,90,64,06,F0,
687690273,000001C7,false,Rx,0,4,AA,A0,FF,C0,00,00,00,00,
687690528,00000428,false,Rx,0,8,00,00,00,7F,00,00,00,00,
687690635,0000042F,false,Rx,0,2,00,20,00,00,00,00,00,00,
687692153,00000157,false,Rx,0,8,D5,D7,09,C4,FF,E0,00,80,
687693696,0000019F,false,Rx,0,8,00,00,7D,00,00,6A,90,FE,
687698830,000001A1,false,Rx,0,8,AF,08,64,41,35,0C,80,20,
687699965,00000155,false,Rx,0,8,84,87,CE,54,82,B8,02,BC,
687699974,000001C7,false,Rx,0,4,AA,A0,FF,C0,00,00,00,00,
687702163,00000157,false,Rx,0,8,D5,27,09,C4,FF,E0,00,80,
687703843,0000019F,false,Rx,0,8,00,00,7D,05,00,6A,90,FE,
687708582,000001A1,false,Rx,0,8,AE,C8,64,41,35,0C,80,20,
687709840,00000155,false,Rx,0,8,84,87,CE,54,82,B8,02,BC,
687709983,000001C7,false,Rx,0,4,AA,A0,FF,C0,00,00,00,00,
687712088,00000157,false,Rx,0,8,D5,77,09,C4,FF,E0,00,80,
687713837,0000019F,false,Rx,0,8,00,00,7D,0A,00,6A,90,FE,
687718831,000001A1,false,Rx,0,8,AF,08,64,41,35,0C,80,20,
687719812,00000155,false,Rx,0,8,84,87,CE,54,82,B8,02,BC,
687720001,000001C7,false,Rx,0,4,AA,A0,FF,C0,00,00,00,00,
687722134,00000157,false,Rx,0,8,D5,C7,09,C4,FF,E0,00,80,
687723591,0000019F,false,Rx,0,8,00,00,7D,0F,00,6A,90,FE,
687728824,000001A1,false,Rx,0,8,AF,08,64,41,35,0C,80,20,
687729933,00000155,false,Rx,0,8,84,87,CE,54,82,B8,02,BC,
687730027,000001C7,false,Rx,0,4,AA,A0,FF,C0,00,00,00,00,
687731864,00000157,false,Rx,0,8,D5,17,09,C4,FF,E0,00,80,
687733832,0000019F,false,Rx,0,8,00,00,7D,04,00,6A,90,FE,
687733840,00000419,false,Rx,0,6,5E,07,2A,E6,52,00,00,00,
687738815,000001A1,false,Rx,0,8,AF,08,64,41,35,0C,80,20,
687739936,00000155,false,Rx,0,8,84,87,CE,54,82,B8,02,BC,
687739946,00000424,false,Rx,0,8,11,40,56,C8,3E,5E,55,3F,
687740139,000001C7,false,Rx,0,4,AA,A0,FF,C0,00,00,00,00,
687740378,00000425,false,Rx,0,8,2A,B3,44,9C,42,12,F9,08,
687741185,00000445,false,Rx,0,7,80,55,55,65,04,82,00,00,
687742159,00000157,false,Rx,0,8,D5,67,09,C4,FF,E0,00,80,
687743663,0000019F,false,Rx,0,8,00,00,7D,09,00,6A,90,FE,
687748632,000001A1,false,Rx,0,8,AF,08,64,41,35,0C,80,20,
687749698,00000155,false,Rx,0,8,84,87,CE,54,82,B8,02,BC,
687750075,000001C7,false,Rx,0,4,AA,A0,FF,C0,00,00,00,00,
687752132,00000157,false,Rx,0,8,D5,B7,09,C4,FF,E0,00,80,
687753836,0000019F,false,Rx,0,8,00,00,7D,0E,00,6A,90,FE,
687756947,00000423,false,Rx,0,8,07,1D,00,02,5D,80,5D,D9,
687758805,000001A1,false,Rx,0,8,AE,C8,50,41,35,0C,80,20,
687759720,00000155,false,Rx,0,8,84,87,CE,54,82,B8,02,BC,
687760087,000001C7,false,Rx,0,4,AA,A0,FF,C0,00,00,00,00,
687762097,00000157,false,Rx,0,8,D5,07,09,C4,FF,E0,00,80,
687762106,00000426,false,Rx,0,8,00,60,01,00,4B,C8,00,40,
687763650,0000019F,false,Rx,0,8,00,00,7D,03,00,6A,90,FE,
687768671,000001A1,false,Rx,0,8,AF,08,64,41,35,0C,80,20,
687769785,00000155,false,Rx,0,8,84,87,CE,54,82,B8,02,BC,
687770100,000001C7,false,Rx,0,4,AA,A0,FF,C0,00,00,00,00,
687772152,00000157,false,Rx,0,8,D5,57,09,C4,FF,E0,00,80,
687773711,0000019F,false,Rx,0,8,00,00,7D,08,00,6A,90,FE,
687777103,00000435,false,Rx,0,8,FF,FF,1E,0B,3C,10,00,00,
687778570,000001A1,false,Rx,0,8,AF,08,64,41,35,0C,80,20,
687779779,00000155,false,Rx,0,8,84,87,CE,54,82,B8,02,BC,
687780082,000001C7,false,Rx,0,4,AA,A0,FF,C0,00,00,00,00,
687782157,00000157,false,Rx,0,8,D5,A7,09,C4,FF,E0,00,80,
687782167,00000436,false,Rx,0,6,86,14,AA,EA,FF,DC,00,00,
687783638,0000019F,false,Rx,0,8,00,00,7D,0D,00,6A,90,FE,
687783906,00000511,false,Rx,0,7,04,67,80,27,3A,66,13,00,
687788845,000001A1,false,Rx,0,8,AF,08,64,41,35,0C,80,20,
687789975,00000155,false,Rx,0,8,84,87,CE,54,82,B8,02,BC,
687789993,0000069F,false,Rx,0,4,71,30,28,2F,00,00,00,00,
687790324,000004F7,false,Rx,0,8,00,23,08,00,90,64,06,F0,
687790401,000001C7,false,Rx,0,4,AA,A0,FF,C0,00,00,00,00,
687790876,00000428,false,Rx,0,8,00,00,00,7F,00,00,00,00,
687790886,0000042F,false,Rx,0,2,00,20,00,00,00,00,00,00,
687792153,00000157,false,Rx,0,8,D5,F7,09,C4,FF,E0,00,80,
687793829,0000019F,false,Rx,0,8,00,00,7D,02,00,6A,90,FE,
687798802,000001A1,false,Rx,0,8,AF,08,64,41,35,0C,80,20,
687799845,00000155,false,Rx,0,8,84,87,CE,54,82,B8,02,BC,
687800075,000001C7,false,Rx,0,4,AA,A0,FF,C0,00,00,00,00,
687801894,00000157,false,Rx,0,8,D5,47,09,C4,FF,E0,00,80,
687803837,0000019F,false,Rx,0,8,00,00,7D,07,00,6A,90,FE,
687808622,000001A1,false,Rx,0,8,AF,08,64,41,35,0C,80,20,
687809840,00000155,false,Rx,0,8,84,87,CE,54,82,B8,02,BC,
687810083,000001C7,false,Rx,0,4,AA,A0,FF,C0,00,00,00,00,
687812164,00000157,false,Rx,0,8,D5,97,09,C4,FF,E0,00,80,
687813626,0000019F,false,Rx,0,8,00,00,7D,0C,00,6A,90,FE,
687818593,000001A1,false,Rx,0,8,AF,08,50,41,35,0C,80,20,
687819767,00000155,false,Rx,0,8,84,87,CE,54,82,B8,02,BC,
687820097,000001C7,false,Rx,0,4,AA,A0,FF,C0,00,00,00,00,
687821968,00000157,false,Rx,0,8,D5,E7,09,C4,FF,E0,00,80,
687823617,0000019F,false,Rx,0,8,00,00,7D,01,00,6A,90,FE,
687828595,000001A1,false,Rx,0,8,AF,08,64,41,35,0C,80,20,
687829710,00000155,false,Rx,0,8,84,87,CE,54,82,B8,02,BD,
687830087,000001C7,false,Rx,0,4,AA,A0,FF,C0,00,00,00,00,
687831941,00000157,false,Rx,0,8,D5,37,09,C4,FF,E0,00,80,
687833614,0000019F,false,Rx,0,8,00,00,7D,06,00,6A,90,FE,
687833863,00000419,false,Rx,0,6,5E,07,2A,E6,52,00,00,00,
687838585,000001A1,false,Rx,0,8,AF,08,64,41,35,0C,80,20,
687839712,00000155,false,Rx,0,8,84,87,CE,54,82,B8,02,BD,
687839936,00000424,false,Rx,0,8,11,40,56,C8,3E,5E,55,3F,
687840122,000001C7,false,Rx,0,4,AA,A0,FF,C0,00,00,00,00,
687840334,00000425,false,Rx,0,8,2A,B3,44,9C,42,12,F9,08,
687840961,00000445,false,Rx,0,7,80,55,55,65,04,82,00,00,
687841859,00000157,false,Rx,0,8,D5,87,09,C4,FF,E0,00,80,
687843609,0000019F,false,Rx,0,8,00,00,7D,0B,00,6A,90,FE,
687848583,000001A1,false,Rx,0,8,AF,08,64,41,35,0C,80,20,
687849701,00000155,false,Rx,0,8,84,87,CE,54,82,B8,02,BD,
687850078,000001C7,false,Rx,0,4,AA,A0,FF,C0,00,00,00,00,
687851927,00000157,false,Rx,0,8,D5,D7,09,C4,FF,E0,00,80,
687853577,0000019F,false,Rx,0,8,00,00,7D,00,00,6A,90,FE,
687856855,00000423,false,Rx,0,8,07,1D,00,02,5D,80,5D,D9,
687858612,000001A1,false,Rx,0,8,AF,08,64,41,35,0C,80,20,
687859696,00000155,false,Rx,0,8,84,87,CE,54,82,B8,02,BD,
687860100,000001C7,false,Rx,0,4,AA,A0,FF,C0,00,00,00,00,
687861874,00000157,false,Rx,0,8,D5,27,09,C4,FF,E0,00,80,
687862122,00000426,false,Rx,0,8,00,60,01,00,4B,C8,00,40,
687863570,0000019F,false,Rx,0,8,00,00,7D,05,00,6A,90,FE,
687868570,000001A1,false,Rx,0,8,AE,C8,64,41,35,0C,80,20,
687869693,00000155,false,Rx,0,8,84,87,CE,54,82,B8,02,BD,
687870094,000001C7,false,Rx,0,4,AA,A0,FF,C0,00,00,00,00,
687871810,00000157,false,Rx,0,8,D5,77,09,C4,FF,E0,00,80,
687873559,0000019F,false,Rx,0,8,00,00,7D,0A,00,6A,90,FE,
687876857,00000435,false,Rx,0,8,FF,FF,1E,0B,3C,10,00,00,
687878577,000001A1,false,Rx,0,8,AF,08,64,41,35,0C,80,20,
687879727,00000155,false,Rx,0,8,84,87,CE,54,82,B8,02,BD,
687880061,000001C7,false,Rx,0,4,AA,A0,FF,C0,00,00,00,00,
687881828,00000157,false,Rx,0,8,D5,C7,09,C4,FF,E0,00,80,
687881987,00000436,false,Rx,0,6,86,14,AA,EA,FF,DC,00,00,
687883556,0000019F,false,Rx,0,8,00,00,7D,0F,00,6A,90,FE,
687883829,00000511,false,Rx,0,7,04,A6,49,E0,A5,73,F6,00,
687888567,000001A1,false,Rx,0,8,AF,08,50,41,35,0C,80,20,
687889765,00000155,false,Rx,0,8,84,87,CE,54,82,B8,02,BD,
687890145,000004F7,false,Rx,0,8,00,23,08,00,90,64,06,F0,
687890340,000001C7,false,Rx,0,4,AA,A0,FF,C0,00,00,00,00,
687890593,00000428,false,Rx,0,8,00,00,00,7F,00,00,00,00,
687890770,0000042F,false,Rx,0,2,00,20,00,00,00,00,00,00,
687891807,00000157,false,Rx,0,8,D5,17,09,C4,FF,E0,00,80,
687893555,0000019F,false,Rx,0,8,00,00,7D,04,00,6A,90,FE,
687898761,000001A1,false,Rx,0,8,AE,C8,64,41,35,0C,80,20,
687899851,00000155,false,Rx,0,8,84,87,CE,54,82,B8,02,BD,
687900190,000001C7,false,Rx,0,4,AA,A0,FF,C0,00,00,00,00,
687901929,00000157,false,Rx,0,8,D5,67,09,C4,FF,E0,00,80,
687903614,0000019F,false,Rx,0,8,00,00,7D,09,00,6A,90,FE,
687908801,000001A1,false,Rx,0,8,AF,08,64,41,35,0C,80,20,
687910000,00000155,false,Rx,0,8,84,87,CE,54,82,B8,02,BD,
687910109,000001C7,false,Rx,0,4,AA,A0,FF,C0,00,00,00,00,
687911942,00000157,false,Rx,0,8,D5,B7,09,C4,FF,E0,00,80,
687913617,0000019F,false,Rx,0,8,00,00,7D,0E,00,6A,90,FE,
687918697,000001A1,false,Rx,0,8,AF,08,50,41,35,0C,80,20,
687919895,00000155,false,Rx,0,8,84,87,CE,54,82,B8,02,BD,
687920121,000001C7,false,Rx,0,4,AA,A0,FF,C0,00,00,00,00,
687922153,00000157,false,Rx,0,8,D5,07,09,C4,FF,E0,00,80,
687923650,0000019F,false,Rx,0,8,00,00,7D,03,00,6A,90,FE,
687928637,000001A1,false,Rx,0,8,AF,08,64,41,35,0C,80,20,
687929705,00000155,false,Rx,0,8,84,87,CE,54,82,B8,02,BD,
687930198,000001C7,false,Rx,0,4,AA,A0,FF,C0,00,00,00,00,
687931892,00000157,false,Rx,0,8,D5,57,09,C4,FF,E0,00,80,
687933796,0000019F,false,Rx,0,8,00,00,7D,08,00,6A,90,FE,
687933800,00000419,false,Rx,0,6,5E,07,2A,E6,52,00,00,00,
687938788,000001A1,false,Rx,0,8,AF,48,64,41,35,0C,80,20,
687939835,00000155,false,Rx,0,8,84,87,CE,54,82,B8,02,BD,
687939950,00000424,false,Rx,0,8,11,40,56,C8,3E,5E,55,3F,
687940334,00000425,false,Rx,0,8,2A,B3,44,9C,42,12,F9,08,
687940337,000001C7,false,Rx,0,4,AA,A0,FF,C0,00,00,00,00,
687941161,00000445,false,Rx,0,7,80,55,55,65,04,82,00,00,
687942094,00000157,false,Rx,0,8,D5,A7,09,C4,FF,E0,00,80,
687943636,0000019F,false,Rx,0,8,00,00,7D,0D,00,6A,90,FE,
687948784,000001A1,false,Rx,0,8,AF,08,50,41,35,0C,80,20,
687949906,00000155,false,Rx,0,8,84,87,CE,54,82,B8,02,BD,
687950173,000001C7,false,Rx,0,4,AA,A0,FF,C0,00,00,00,00,
687951969,00000157,false,Rx,0,8,D5,F7,09,C4,FF,E0,00,80,
687953822,0000019F,false,Rx,0,8,00,00,7D,02,00,6A,90,FE,
687957032,00000423,false,Rx,0,8,07,1D,00,02,5D,80,5D,D9,
687958791,000001A1,false,Rx,0,8,AF,08,50,41,35,0C,80,20,
687959742,00000155,false,Rx,0,8,84,87,CE,54,82,B8,02,BD,
687960304,000001C7,false,Rx,0,4,AA,A0,FF,C0,00,00,00,00,
687962145,00000157,false,Rx,0,8,D5,47,09,C4,FF,E0,00,80,
687962152,00000426,false,Rx,0,8,00,60,01,00,4B,C8,00,40,
687963543,0000019F,false,Rx,0,8,00,00,7D,07,00,6A,90,FE,
687968785,000001A1,false,Rx,0,8,AF,08,64,41,35,0C,80,20,
687969875,00000155,false,Rx,0,8,84,87,CE,54,82,B8,02,BD,
687970212,000001C7,false,Rx,0,4,AA,A0,FF,C0,00,00,00,00,
687971978,00000157,false,Rx,0,8,D5,97,09,C4,FF,E0,00,80,
687973787,0000019F,false,Rx,0,8,00,00,7D,0C,00,6A,90,FE,
687977038,00000435,false,Rx,0,8,FF,FF,1E,0B,3C,10,00,00,
687978648,000001A1,false,Rx,0,8,AE,C8,64,41,35,0C,80,20,
687979734,00000155,false,Rx,0,8,84,87,CE,54,82,B8,02,BD,
687980311,000001C7,false,Rx,0,4,AA,A0,FF,C0,00,00,00,00,
687981862,00000157,false,Rx,0,8,D5,E7,09,C4,FF,E0,00,80,
687982071,00000436,false,Rx,0,6,86,14,AA,EA,FF,DC,00,00,
687983650,0000019F,false,Rx,0,8,00,00,7D,01,00,6A,90,FE,
687983852,00000511,false,Rx,0,7,04,E5,12,99,10,80,D9,00,
687988785,000001A1,false,Rx,0,8,AF,08,50,41,35,0C,80,20,
687989979,00000155,false,Rx,0,8,84,87,CE,54,82,B8,02,BD,
687990308,000004F7,false,Rx,0,8,00,23,08,00,90,64,06,F0,
687990459,000001C7,false,Rx,0,4,AA,A0,FF,C0,00,00,00,00,
687990695,00000428,false,Rx,0,8,00,00,00,7F,00,00,00,00,
687990844,0000042F,false,Rx,0,2,00,20,00,00,00,00,00,00,
687991869,00000157,false,Rx,0,8,D5,37,09,C4,FF,E0,00,80,
687993637,0000019F,false,Rx,0,8,00,00,7D,06,00,6A,90,FE,
687998789,000001A1,false,Rx,0,8,AF,08,64,41,35,0C,80,20,
687999916,00000155,false,Rx,0,8,84,87,CE,54,82,B8,02,BD,
688000214,000001C7,false,Rx,0,4,AA,A0,FF,C0,00,00,00,00,
688002162,00000157,false,Rx,0,8,D5,87,09,C4,FF,E0,00,80,
688003558,0000019F,false,Rx,0,8,00,00,7D,0B,00,6A,90,FE,
688008576,000001A1,false,Rx,0,8,AF,08,64,41,35,0C,80,20,
688009723,00000155,false,Rx,0,8,84,87,CE,54,82,B8,02,BD,
688010176,000001C7,false,Rx,0,4,AA,A0,FF,C0,00,00,00,00,
688011877,00000157,false,Rx,0,8,D5,D7,09,C4,FF,E0,00,80,
688013571,0000019F,false,Rx,0,8,00,00,7D,00,00,6A,90,FE,
688018572,000001A1,false,Rx,0,8,AF,08,64,41,35,0C,80,20,
688019720,00000155,false,Rx,0,8,84,87,CE,54,82,B8,02,BD,
688020197,000001C7,false,Rx,0,4,AA,A0,FF,C0,00,00,00,00,
688021828,00000157,false,Rx,0,8,D5,27,09,C4,FF,E0,00,80,
688023540,0000019F,false,Rx,0,8,00,00,7D,05,00,6A,90,FE,
688028555,000001A1,false,Rx,0,8,AF,08,64,41,35,0C,80,20,
688029701,00000155,false,Rx,0,8,84,87,CE,54,82,B8,02,BD,
688030200,000001C7,false,Rx,0,4,AA,A0,FF,C0,00,00,00,00,
688031949,00000157,false,Rx,0,8,D5,77,09,C4,FF,E0,00,80,
688033569,0000019F,false,Rx,0,8,00,00,7D,0A,00,6A,90,FE,
688033817,00000419,false,Rx,0,6,5E,07,2A,E6,52,00,00,00,
688038571,000001A1,false,Rx,0,8,AF,08,50,41,35,0C,80,20,
688039659,00000155,false,Rx,0,8,84,87,CE,54,82,B8,02,BD,
688039912,00000424,false,Rx,0,8,11,40,56,C8,3E,5E,55,3F,
688040139,00000425,false,Rx,0,8,2A,B3,44,9C,42,12,F9,08,
688040326,000001C7,false,Rx,0,4,AA,A0,FF,C0,00,00,00,00,
688040888,00000445,false,Rx,0,7,80,55,55,65,04,82,00,00,
688041885,00000157,false,Rx,0,8,D5,C7,09,C4,FF,E0,00,80,
688043551,0000019F,false,Rx,0,8,00,00,7D,0F,00,6A,90,FE,
688048559,000001A1,false,Rx,0,8,AF,08,64,41,35,0C,80,20,
688049683,00000155,false,Rx,0,8,84,87,CE,54,82,B8,02,BD,
688050182,000001C7,false,Rx,0,4,AA,A0,FF,C0,00,00,00,00,
688051856,00000157,false,Rx,0,8,D5,17,09,C4,FF,E0,00,80,
688053582,0000019F,false,Rx,0,8,00,00,7D,04,00,6A,90,FE,
688056813,00000423,false,Rx,0,8,07,1D,00,02,B2,80,B2,D9,
688058560,000001A1,false,Rx,0,8,AF,08,64,41,35,0C,80,20,
688059687,00000155,false,Rx,0,8,84,87,CE,54,82,B8,02,BD,
688060186,000001C7,false,Rx,0,4,AA,A0,FF,C0,00,00,00,00,
688061903,00000157,false,Rx,0,8,D5,67,09,C4,FF,E0,00,80,
688062163,00000426,false,Rx,0,8,00,60,01,00,4B,C8,00,40,
688063553,0000019F,false,Rx,0,8,00,00,7D,09,00,6A,90,FE,
688068534,000001A1,false,Rx,0,8,AF,08,64,41,35,0C,80,20,
688069623,00000155,false,Rx,0,8,84,87,CE,54,82,B8,02,BD,
688070222,000001C7,false,Rx,0,4,AA,A0,FF,C0,00,00,00,00,
688071823,00000157,false,Rx,0,8,D5,B7,09,C4,FF,E0,00,80,
688073524,0000019F,false,Rx,0,8,00,00,7D,0E,00,6A,90,FE,
688076780,00000435,false,Rx,0,8,FF,FF,1E,0B,3C,10,00,00,
688078524,000001A1,false,Rx,0,8,AF,08,64,41,35,0C,80,20,
688079705,00000155,false,Rx,0,8,84,87,CE,54,82,B8,02,BD,
688080223,000001C7,false,Rx,0,4,AA,A0,FF,C0,00,00,00,00,
688081861,00000157,false,Rx,0,8,D5,07,09,C4,FF,E0,00,80,
688082054,00000436,false,Rx,0,6,86,14,AA,EA,FF,DC,00,00,
688083530,0000019F,false,Rx,0,8,00,00,7D,03,00,6A,90,FE,
688083834,00000511,false,Rx,0,7,04,24,DB,52,7B,8D,BC,00,
688088552,000001A1,false,Rx,0,8,AF,08,64,41,35,0C,80,20,
688089715,00000155,false,Rx,0,8,84,87,CE,54,82,B8,02,BD,
688090273,000004F7,false,Rx,0,8,00,23,08,00,90,64,06,F0,
688090451,000001C7,false,Rx,0,4,AA,A0,FF,C0,00,00,00,00,
688090703,00000428,false,Rx,0,8,00,00,00,7F,00,00,00,00,
688090880,0000042F,false,Rx,0,2,00,20,00,00,00,00,00,00,
688091898,00000157,false,Rx,0,8,D5,57,09,C4,FF,E0,00,80,
688093549,0000019F,false,Rx,0,8,00,00,7D,08,00,6A,90,FE,
688098566,000001A1,false,Rx,0,8,AF,08,50,41,35,0C,80,20,
688099722,00000155,false,Rx,0,8,84,87,CE,54,82,B8,02,BD,
688100262,000001C7,false,Rx,0,4,AA,A0,FF,C0,00,00,00,00,
688101815,00000157,false,Rx,0,8,D5,A7,09,C4,FF,E0,00,80,
688103513,0000019F,false,Rx,0,8,00,00,7D,0D,00,6A,90,FE,
688108552,000001A1,false,Rx,0,8,AF,08,64,41,35,0C,80,20,
688109742,00000155,false,Rx,0,8,84,87,CE,54,82,B8,02,BD,
688110262,000001C7,false,Rx,0,4,AA,A0,FF,C0,00,00,00,00,
688111922,00000157,false,Rx,0,8,D5,F7,09,C4,FF,E0,00,80,
688113547,0000019F,false,Rx,0,8,00,00,7D,02,00,6A,90,FE,
688118549,000001A1,false,Rx,0,8,AF,08,64,41,35,0C,80,20,
688119748,00000155,false,Rx,0,8,84,87,CE,54,82,B8,02,BD,
688120247,000001C7,false,Rx,0,4,AA,A0,FF,C0,00,00,00,00,
688121931,00000157,false,Rx,0,8,D5,47,09,C4,FF,E0,00,80,
688123568,0000019F,false,Rx,0,8,00,00,7D,07,00,6A,90,FE,
688128514,000001A1,false,Rx,0,8,AF,08,64,41,35,0C,80,20,
688129610,00000155,false,Rx,0,8,84,87,CE,54,82,B8,02,BD,
688130210,000001C7,false,Rx,0,4,AA,A0,FF,C0,00,00,00,00,
688131860,00000157,false,Rx,0,8,D5,97,09,C4,FF,E0,00,80,
688133549,0000019F,false,Rx,0,8,00,00,7D,0C,00,6A,90,FE,
688133798,00000419,false,Rx,0,6,5E,07,2A,E6,52,00,00,00,
688138558,000001A1,false,Rx,0,8,AF,08,64,41,35,0C,80,20,
688139643,00000155,false,Rx,0,8,84,87,CE,54,82,B8,02,BD,
688139896,00000424,false,Rx,0,8,11,40,56,C8,3E,5E,AA,3F,
688140123,00000425,false,Rx,0,8,2A,B3,44,9C,42,12,F9,08,
688140294,000001C7,false,Rx,0,4,AA,A0,FF,C0,00,00,00,00,
688140872,00000445,false,Rx,0,7,80,55,AA,65,04,82,00,00,
688141859,00000157,false,Rx,0,8,D5,E7,09,C4,FF,E0,00,80,
688143560,0000019F,false,Rx,0,8,00,00,7D,01,00,6A,90,FE,
688148546,000001A1,false,Rx,0,8,AF,08,64,41,35,0C,80,20,
688149669,00000155,false,Rx,0,8,84,87,CE,54,82,B8,02,BD,
688150243,000001C7,false,Rx,0,4,AA,A0,FF,C0,00,00,00,00,
688151896,00000157,false,Rx,0,8,D5,37,09,C4,FF,E0,00,80,
688153561,0000019F,false,Rx,0,8,00,00,7D,06,00,6A,90,FE,
688156747,00000423,false,Rx,0,8,07,1D,00,02,B2,80,B2,D9,
688158546,000001A1,false,Rx,0,8,AF,08,64,41,35,0C,80,20,
688159645,00000155,false,Rx,0,8,84,87,CE,54,82,B8,02,BD,
688160245,000001C7,false,Rx,0,4,AA,A0,FF,C0,00,00,00,00,
688161935,00000157,false,Rx,0,8,D5,87,09,C4,FF,E0,00,80,
688162145,00000426,false,Rx,0,8,00,60,01,00,4B,C8,00,40,
688163553,0000019F,false,Rx,0,8,00,00,7D,0B,00,6A,90,FE,
688168546,000001A1,false,Rx,0,8,AE,C8,64,41,35,0C,80,20,
688169641,00000155,false,Rx,0,8,84,87,CE,54,82,B8,02,BD,
688170241,000001C7,false,Rx,0,4,AA,A0,FF,C0,00,00,00,00,
688171841,00000157,false,Rx,0,8,D5,D7,09,C4,FF,E0,00,80,
688173541,0000019F,false,Rx,0,8,00,00,7D,00,00,6A,90,FE,
688176815,00000435,false,Rx,0,8,FF,FF,1E,0B,3C,10,00,00,
688178540,000001A1,false,Rx,0,8,AF,08,64,41,35,0C,80,20,
688179690,00000155,false,Rx,0,8,84,87,CE,54,82,B8,02,BD,
688180241,000001C7,false,Rx,0,4,AA,A0,FF,C0,00,00,00,00,
688181841,00000157,false,Rx,0,8,D5,27,09,C4,FF,E0,00,80,
688182043,00000436,false,Rx,0,6,86,14,AA,EA,FF,DC,00,00,
688183512,0000019F,false,Rx,0,8,00,00,7D,05,00,6A,90,FE,
688183818,00000511,false,Rx,0,7,04,63,A4,0B,E6,9A,9F,00,
688188540,000001A1,false,Rx,0,8,AF,08,64,41,35,0C,80,20,
688189717,00000155,false,Rx,0,8,84,87,CE,54,82,B8,02,BD,
688190264,000004F7,false,Rx,0,8,00,23,08,00,90,64,06,F0,
688190467,000001C7,false,Rx,0,4,AA,A0,FF,C0,00,00,00,00,
688190745,00000428,false,Rx,0,8,00,00,00,7F,00,00,00,00,
688190904,0000042F,false,Rx,0,2,00,20,00,00,00,00,00,00,
688191814,00000157,false,Rx,0,8,D5,77,09,C4,FF,E0,00,80,
688193540,0000019F,false,Rx,0,8,00,00,7D,0A,00,6A,90,FE,
688198539,000001A1,false,Rx,0,8,AE,C8,64,41,35,0C,80,20,
688199714,00000155,false,Rx,0,8,84,87,CF,54,82,B8,02,BC,
688200239,000001C7,false,Rx,0,4,AA,A0,FF,C0,00,00,00,00,
688201839,00000157,false,Rx,0,8,D5,C7,09,C4,FF,E0,00,80,
688203567,0000019F,false,Rx,0,8,00,00,7D,0F,00,6A,90,FE,
688208538,000001A1,false,Rx,0,8,AF,08,64,41,35,0C,80,20,
688209688,00000155,false,Rx,0,8,84,87,CE,54,82,B8,02,BD,
688210238,000001C7,false,Rx,0,4,AA,A0,FF,C0,00,00,00,00,
688211838,00000157,false,Rx,0,8,D5,17,09,C4,FF,E0,00,80,
688213509,0000019F,false,Rx,0,8,00,00,7D,04,00,6A,90,FE,
688218538,000001A1,false,Rx,0,8,AE,C8,50,41,35,0C,80,20,
688219937,00000155,false,Rx,0,8,84,87,CE,54,82,B8,02,BD,
688220239,000001C7,false,Rx,0,4,AA,A0,FF,C0,00,00,00,00,
688221837,00000157,false,Rx,0,8,D5,67,09,C4,FF,E0,00,80,
688223589,0000019F,false,Rx,0,8,00,00,7D,09,00,6A,90,FE,
688228536,000001A1,false,Rx,0,8,AE,C8,64,41,35,0C,80,20,
688229638,00000155,false,Rx,0,8,84,87,CE,54,82,B8,02,BD,
688230250,000001C7,false,Rx,0,4,AA,A0,FF,C0,00,00,00,00,
688231888,00000157,false,Rx,0,8,D5,B7,09,C4,FF,E0,00,80,
688233513,0000019F,false,Rx,0,8,00,00,7D,0E,00,6A,90,FE,
688233760,00000419,false,Rx,0,6,5E,07,2A,E6,52,00,00,00,
688238534,000001A1,false,Rx,0,8,AF,08,64,41,35,0C,80,20,
688239612,00000155,false,Rx,0,8,84,87,CE,54,82,B8,02,BD,
688239902,00000424,false,Rx,0,8,11,40,56,C8,3E,5E,AA,3F,
688240121,00000425,false,Rx,0,8,2A,B3,44,9C,42,12,F9,08,
688240266,000001C7,false,Rx,0,4,AA,A0,FF,C0,00,00,00,00,
688240844,00000445,false,Rx,0,7,80,55,AA,65,04,82,00,00,
688241812,00000157,false,Rx,0,8,D5,07,09,C4,FF,E0,00,80,
688243559,0000019F,false,Rx,0,8,00,00,7D,03,00,6A,90,FE,
688248540,000001A1,false,Rx,0,8,AE,C8,64,41,35,0C,80,20,
688249636,00000155,false,Rx,0,8,84,87,CE,54,82,B8,02,BD,
688250250,000001C7,false,Rx,0,4,AA,A0,FF,C0,00,00,00,00,
688251904,00000157,false,Rx,0,8,D5,57,09,C4,FF,E0,00,80,
688253536,0000019F,false,Rx,0,8,00,00,7D,08,00,6A,90,FE,
688256787,00000423,false,Rx,0,8,07,1D,00,02,B2,80,B2,D9,
688258534,000001A1,false,Rx,0,8,AF,08,64,41,35,0C,80,20,
688259634,00000155,false,Rx,0,8,84,87,CE,54,82,B8,02,BD,
688260234,000001C7,false,Rx,0,4,AA,A0,FF,C0,00,00,00,00,
688261859,00000157,false,Rx,0,8,D5,A7,09,C4,FF,E0,00,80,
688262110,00000426,false,Rx,0,8,00,60,01,00,4B,C8,00,40,
688263538,0000019F,false,Rx,0,8,00,00,7D,0D,00,6A,90,FE,
688268533,000001A1,false,Rx,0,8,AF,08,64,41,35,0C,80,20,
688269634,00000155,false,Rx,0,8,84,87,CE,54,82,B8,02,BD,
688270233,000001C7,false,Rx,0,4,AA,A0,FF,C0,00,00,00,00,
688271808,00000157,false,Rx,0,8,D5,F7,09,C4,FF,E0,00,80,
688273546,0000019F,false,Rx,0,8,00,00,7D,02,00,6A,90,FE,
688276732,00000435,false,Rx,0,8,FF,FF,1E,0B,3C,10,00,00,
688278532,000001A1,false,Rx,0,8,AE,C8,64,41,35,0C,80,20,
688279707,00000155,false,Rx,0,8,84,87,CE,54,82,B8,02,BD,
688280247,000001C7,false,Rx,0,4,AA,A0,FF,C0,00,00,00,00,
688281859,00000157,false,Rx,0,8,D5,47,09,C4,FF,E0,00,80,
688282084,00000436,false,Rx,0,6,86,14,AA,EA,FF,DC,00,00,
688283532,0000019F,false,Rx,0,8,00,00,7D,07,00,6A,90,FE,
688283809,00000511,false,Rx,0,7,04,A2,6D,C4,51,A7,82,00,
688288521,000001A1,false,Rx,0,8,AF,08,64,41,35,0C,80,20,
688289682,00000155,false,Rx,0,8,84,87,CE,54,82,B8,02,BD,
688290302,000004F7,false,Rx,0,8,00,23,08,00,90,64,06,F0,
688290509,000001C7,false,Rx,0,4,AA,A0,FF,C0,00,00,00,00,
688290786,00000428,false,Rx,0,8,00,00,00,7F,00,00,00,00,
688290953,0000042F,false,Rx,0,2,00,20,00,00,00,00,00,00,
688291831,00000157,false,Rx,0,8,D5,97,09,C4,FF,E0,00,80,
688293532,0000019F,false,Rx,0,8,00,00,7D,0C,00,6A,90,FE,
688298505,000001A1,false,Rx,0,8,AF,08,64,41,35,0C,80,20,
688299705,00000155,false,Rx,0,8,84,87,CE,54,82,B8,02,BD,
688300265,000001C7,false,Rx,0,4,AA,A0,FF,C0,00,00,00,00,
688301895,00000157,false,Rx,0,8,D5,E7,09,C4,FF,E0,00,80,
688303530,0000019F,false,Rx,0,8,00,00,7D,01,00,6A,90,FE,
688308531,000001A1,false,Rx,0,8,AE,C8,64,41,35,0C,80,20,
688309719,00000155,false,Rx,0,8,84,87,CE,54,82,B8,02,BD,
688310269,000001C7,false,Rx,0,4,AA,A0,FF,C0,00,00,00,00,
688311880,00000157,false,Rx,0,8,D5,37,09,C4,FF,E0,00,80,
688313529,0000019F,false,Rx,0,8,00,00,7D,06,00,6A,90,FE,
688318527,000001A1,false,Rx,0,8,AF,08,64,41,35,0C,80,20,
688319706,00000155,false,Rx,0,8,84,87,CF,54,82,B8,02,BD,
688320255,000001C7,false,Rx,0,4,AA,A0,FF,C0,00,00,00,00,
688321871,00000157,false,Rx,0,8,D5,87,09,C4,FF,E0,00,80,
688323505,0000019F,false,Rx,0,8,00,00,7D,0B,00,6A,90,FE,
688328519,000001A1,false,Rx,0,8,AF,08,64,41,35,0C,80,20,
688329630,00000155,false,Rx,0,8,84,87,CE,54,82,B8,02,BD,
688330254,000001C7,false,Rx,0,4,AA,A0,FF,C0,00,00,00,00,
688331777,00000157,false,Rx,0,8,D5,D7,09,C4,FF,E0,00,80,
688333500,0000019F,false,Rx,0,8,00,00,7D,00,00,6A,90,FE,
688333750,00000419,false,Rx,0,6,5E,07,2A,E6,52,00,00,00,
688338503,000001A1,false,Rx,0,8,AF,08,64,41,35,0C,80,20,
688339598,00000155,false,Rx,0,8,84,87,CE,54,82,B8,02,BD,
688339849,00000424,false,Rx,0,8,11,40,56,C8,3E,5E,AA,3F,
688340049,00000425,false,Rx,0,8,2A,B3,44,9C,42,12,F9,08,
688340247,000001C7,false,Rx,0,4,AA,A0,FF,C0,00,00,00,00,
688340800,00000445,false,Rx,0,7,80,55,AA,65,04,82,00,00,
688341772,00000157,false,Rx,0,8,D5,27,09,C4,FF,E0,00,80,
688343499,0000019F,false,Rx,0,8,00,00,7D,05,00,6A,90,FE,
688348501,000001A1,false,Rx,0,8,AF,08,64,41,35,0C,80,20,
688349619,00000155,false,Rx,0,8,84,87,CE,54,82,B8,02,BD,
688350242,000001C7,false,Rx,0,4,AA,A0,FF,C0,00,00,00,00,
688351842,00000157,false,Rx,0,8,D5,77,09,C4,FF,E0,00,80,
688353492,0000019F,false,Rx,0,8,00,00,7D,0A,00,6A,90,FE,
688356700,00000423,false,Rx,0,8,07,1D,00,02,B2,80,B2,D9,
688358497,000001A1,false,Rx,0,8,AF,08,64,41,35,0C,80,20,
688359594,00000155,false,Rx,0,8,84,87,CE,54,82,B8,02,BD,
688360246,000001C7,false,Rx,0,4,AA,A0,FF,C0,00,00,00,00,
688361773,00000157,false,Rx,0,8,D5,C7,09,C4,FF,E0,00,80,
688362022,00000426,false,Rx,0,8,00,60,01,00,4B,C8,00,40,
688363497,0000019F,false,Rx,0,8,00,00,7D,0F,00,6A,90,FE,
688368494,000001A1,false,Rx,0,8,AF,08,64,41,35,0C,80,20,
688369590,00000155,false,Rx,0,8,84,87,CE,54,82,B8,02,BD,
688370240,000001C7,false,Rx,0,4,AA,A0,FF,C0,00,00,00,00,
688371865,00000157,false,Rx,0,8,D5,17,09,C4,FF,E0,00,80,
688373495,0000019F,false,Rx,0,8,00,00,7D,04,00,6A,90,FE,
688376744,00000435,false,Rx,0,8,FF,FF,1E,0B,3C,10,00,00,
688378493,000001A1,false,Rx,0,8,AF,08,64,41,35,0C,80,20,
688379643,00000155,false,Rx,0,8,84,87,CE,54,82,B8,02,BD,
688380269,000001C7,false,Rx,0,4,AA,A0,FF,C0,00,00,00,00,
688381743,00000157,false,Rx,0,8,D5,67,09,C4,FF,E0,00,80,
688381973,00000436,false,Rx,0,6,86,14,AA,EA,FF,DC,00,00,
688383493,0000019F,false,Rx,0,8,00,00,7D,09,00,6A,90,FE,
688383746,00000511,false,Rx,0,7,04,E1,36,7D,BC,B4,65,00,
688388462,000001A1,false,Rx,0,8,AF,08,64,41,35,0C,80,20,
688389680,00000155,false,Rx,0,8,84,87,CE,54,82,B8,02,BD,
688390318,000004F7,false,Rx,0,8,00,23,08,00,90,64,06,F0,
688390544,000001C7,false,Rx,0,4,AA,A0,FF,C0,00,00,00,00,
688390797,00000428,false,Rx,0,8,00,00,00,7F,00,00,00,00,
688390949,0000042F,false,Rx,0,2,00,20,00,00,00,00,00,00,
688391869,00000157,false,Rx,0,8,D5,B7,09,C4,FF,E0,00,80,
688393497,0000019F,false,Rx,0,8,00,00,7D,0E,00,6A,90,FE,
688398498,000001A1,false,Rx,0,8,AF,08,64,41,35,0C,80,20,
688399670,00000155,false,Rx,0,8,84,87,CE,54,82,B8,02,BD,
688400269,000001C7,false,Rx,0,4,AA,A0,FF,C0,00,00,00,00,
688401870,00000157,false,Rx,0,8,D5,07,09,C4,FF,E0,00,80,
688403494,0000019F,false,Rx,0,8,00,00,7D,03,00,6A,90,FE,
688408471,000001A1,false,Rx,0,8,AF,08,64,41,35,0C,80,20,
688409619,00000155,false,Rx,0,8,84,87,CE,54,82,B8,02,BD,
688410268,000001C7,false,Rx,0,4,AA,A0,FF,C0,00,00,00,00,
688411843,00000157,false,Rx,0,8,D5,57,09,C4,FF,E0,00,80,
688413494,0000019F,false,Rx,0,8,00,00,7D,08,00,6A,90,FE,
688418494,000001A1,false,Rx,0,8,AF,08,64,41,35,0C,80,20,
688419645,00000155,false,Rx,0,8,84,87,CE,54,82,B8,02,BD,
688420281,000001C7,false,Rx,0,4,AA,A0,FF,C0,00,00,00,00,
688421866,00000157,false,Rx,0,8,D5,A7,09,C4,FF,E0,00,80,
688423488,0000019F,false,Rx,0,8,00,00,7D,0D,00,6A,90,FE,
688428469,000001A1,false,Rx,0,8,AF,08,64,41,35,0C,80,20,
688429593,00000155,false,Rx,0,8,84,87,CE,54,82,B8,02,BD,
688430291,000001C7,false,Rx,0,4,AA,A0,FF,C0,00,00,00,00,
688431842,00000157,false,Rx,0,8,D5,F7,09,C4,FF,E0,00,80,
688433494,0000019F,false,Rx,0,8,00,00,7D,02,00,6A,90,FE,
688433741,00000419,false,Rx,0,6,5E,07,2A,E6,52,00,00,00,
688438488,000001A1,false,Rx,0,8,AE,C8,50,41,35,0C,80,20,
688439587,00000155,false,Rx,0,8,84,87,CE,54,82,B8,02,BD,
688439806,00000424,false,Rx,0,8,11,40,56,C8,3E,5E,AA,3F,
688440053,00000425,false,Rx,0,8,2A,B3,44,9C,42,12,F9,08,
688440284,000001C7,false,Rx,0,4,AA,A0,FF,C0,00,00,00,00,
688440807,00000445,false,Rx,0,7,80,55,AA,65,04,82,00,00,
688441760,00000157,false,Rx,0,8,D5,47,09,C4,FF,E0,00,80,
688443492,0000019F,false,Rx,0,8,00,00,7D,07,00,6A,90,FE,
688448469,000001A1,false,Rx,0,8,AF,08,64,41,35,0C,80,20,
688449614,00000155,false,Rx,0,8,84,87,CE,54,82,B8,02,BD,
688450291,000001C7,false,Rx,0,4,AA,A0,FF,C0,00,00,00,00,
688451790,00000157,false,Rx,0,8,D5,97,09,C4,FF,E0,00,80,
688453490,0000019F,false,Rx,0,8,00,00,7D,0C,00,6A,90,FE,
688456786,00000423,false,Rx,0,8,07,1D,00,02,B2,80,B2,D9,
688458463,000001A1,false,Rx,0,8,AF,08,64,41,35,0C,80,20,
688459590,00000155,false,Rx,0,8,84,87,CE,54,82,B8,02,BD,
688460289,000001C7,false,Rx,0,4,AA,A0,FF,C0,00,00,00,00,
688461789,00000157,false,Rx,0,8,D5,E7,09,C4,FF,E0,00,80,
688462039,00000426,false,Rx,0,8,00,60,01,00,4B,C8,00,40,
688463502,0000019F,false,Rx,0,8,00,00,7D,01,00,6A,90,FE,
688468490,000001A1,false,Rx,0,8,AF,08,64,41,35,0C,80,20,
688469588,00000155,false,Rx,0,8,84,87,CE,54,82,B8,02,BD,
688470283,000001C7,false,Rx,0,4,AA,A0,FF,C0,00,00,00,00,
688471810,00000157,false,Rx,0,8,D5,37,09,C4,FF,E0,00,80,
688473485,0000019F,false,Rx,0,8,00,00,7D,06,00,6A,90,FE,
688476781,00000435,false,Rx,0,8,FF,FF,1E,0B,3C,10,00,00,
688478488,000001A1,false,Rx,0,8,AF,08,50,41,35,0C,80,20,
688479663,00000155,false,Rx,0,8,84,87,CE,54,82,B8,02,BD,
688480321,000001C7,false,Rx,0,4,AA,A0,FF,C0,00,00,00,00,
688481788,00000157,false,Rx,0,8,D5,87,09,C4,FF,E0,00,80,
688481987,00000436,false,Rx,0,6,86,14,AA,EA,FF,DC,00,00,
688483500,0000019F,false,Rx,0,8,00,00,7D,0B,00,6A,90,FE,
688483763,00000511,false,Rx,0,7,04,20,FF,36,27,C1,48,00,
688488461,000001A1,false,Rx,0,8,AF,08,64,41,35,0C,80,20,
688489634,00000155,false,Rx,0,8,84,87,CE,54,82,B8,02,BD,
688490379,000004F7,false,Rx,0,8,00,23,08,00,90,64,06,F0,
688490533,000001C7,false,Rx,0,4,AA,A0,FF,C0,00,00,00,00,
688490786,00000428,false,Rx,0,8,00,00,00,7F,00,00,00,00,
688490963,0000042F,false,Rx,0,2,00,20,00,00,00,00,00,00,
688491836,00000157,false,Rx,0,8,D5,D7,09,C4,FF,E0,00,80,
688493489,0000019F,false,Rx,0,8,00,00,7D,00,00,6A,90,FE,
688498464,000001A1,false,Rx,0,8,AE,C8,64,41,35,0C,80,20,
688499670,00000155,false,Rx,0,8,84,87,CE,54,82,B8,02,BD,
688500310,000001C7,false,Rx,0,4,AA,A0,FF,C0,00,00,00,00,
688501762,00000157,false,Rx,0,8,D5,27,09,C4,FF,E0,00,80,
688503486,0000019F,false,Rx,0,8,00,00,7D,05,00,6A,90,FE,
688508487,000001A1,false,Rx,0,8,AF,08,64,41,35,0C,80,20,
688509660,00000155,false,Rx,0,8,84,87,CF,54,82,B8,02,BD,
688510311,000001C7,false,Rx,0,4,AA,A0,FF,C0,00,00,00,00,
688511836,00000157,false,Rx,0,8,D5,77,09,C4,FF,E0,00,80,
688513488,0000019F,false,Rx,0,8,00,00,7D,0A,00,6A,90,FE,
688518483,000001A1,false,Rx,0,8,AF,08,64,41,35,0C,80,20,
688519654,00000155,false,Rx,0,8,84,87,CE,54,82,B8,02,BD,
688520304,000001C7,false,Rx,0,4,AA,A0,FF,C0,00,00,00,00,
688521755,00000157,false,Rx,0,8,D5,C7,09,C4,FF,E0,00,80,
688523461,0000019F,false,Rx,0,8,00,00,7D,0F,00,6A,90,FE,
688528460,000001A1,false,Rx,0,8,AF,08,64,41,35,0C,80,20,
688529584,00000155,false,Rx,0,8,84,87,CE,54,82,B8,02,BD,
688530333,000001C7,false,Rx,0,4,AA,A0,FF,C0,00,00,00,00,
688531783,00000157,false,Rx,0,8,D5,17,09,C4,FF,E0,00,80,
688533484,0000019F,false,Rx,0,8,00,00,7D,04,00,6A,90,FE,
688533708,00000419,false,Rx,0,6,5E,07,2A,E6,52,00,00,00,
688538459,000001A1,false,Rx,0,8,AF,08,64,41,35,0C,80,20,
688539583,00000155,false,Rx,0,8,84,87,CE,54,82,B8,02,BD,
688539808,00000424,false,Rx,0,8,11,40,56,C8,3E,5E,AA,3F,
688540034,00000425,false,Rx,0,8,2A,B3,44,9C,42,12,F9,08,
688540331,000001C7,false,Rx,0,4,AA,A0,FF,C0,00,00,00,00,
688540809,00000445,false,Rx,0,7,80,55,AA,65,04,82,00,00,
688541832,00000157,false,Rx,0,8,D5,67,09,C4,FF,E0,00,80,
688543507,0000019F,false,Rx,0,8,00,00,7D,09,00,6A,90,FE,
688548458,000001A1,false,Rx,0,8,AF,08,64,41,35,0C,80,20,
688549583,00000155,false,Rx,0,8,84,87,CE,54,82,B8,02,BD,
688550331,000001C7,false,Rx,0,4,AA,A0,FF,C0,00,00,00,00,
688551782,00000157,false,Rx,0,8,D5,B7,09,C4,FF,E0,00,80,
688553482,0000019F,false,Rx,0,8,00,00,7D,0E,00,6A,90,FE,
688556757,00000423,false,Rx,0,8,07,1D,00,02,5D,80,5D,D9,
688558456,000001A1,false,Rx,0,8,AF,08,64,41,35,0C,80,20,
688559579,00000155,false,Rx,0,8,84,87,CE,54,82,B8,02,BD,
688560331,000001C7,false,Rx,0,4,AA,A0,FF,C0,00,00,00,00,
688561807,00000157,false,Rx,0,8,D5,07,09,C4,FF,E0,00,80,
688562055,00000426,false,Rx,0,8,00,60,01,00,4B,C8,00,40,
688563459,0000019F,false,Rx,0,8,00,00,7D,03,00,6A,90,FE,
688568467,000001A1,false,Rx,0,8,AF,08,64,41,35,0C,80,20,
688569577,00000155,false,Rx,0,8,84,87,CE,54,82,B8,02,BD,
688570325,000001C7,false,Rx,0,4,AA,A0,FF,C0,00,00,00,00,
688571771,00000157,false,Rx,0,8,D5,57,09,C4,FF,E0,00,80,
688573484,0000019F,false,Rx,0,8,00,00,7D,08,00,6A,90,FE,
688576784,00000435,false,Rx,0,8,FF,FF,1E,0B,3C,10,00,00,
688578457,000001A1,false,Rx,0,8,AF,08,64,41,35,0C,80,20,
688579632,00000155,false,Rx,0,8,84,87,CE,54,82,B8,02,BD,
688580361,000001C7,false,Rx,0,4,AA,A0,FF,C0,00,00,00,00,
688581866,00000157,false,Rx,0,8,D5,A7,09,C4,FF,E0,00,80,
688582036,00000436,false,Rx,0,6,86,14,AA,EA,FF,DC,00,00,
688583506,0000019F,false,Rx,0,8,00,00,7D,0D,00,6A,90,FE,
688583735,00000511,false,Rx,0,7,04,5F,C8,EF,92,CE,2B,00,
688588459,000001A1,false,Rx,0,8,AF,08,64,41,35,0C,80,20,
688589658,00000155,false,Rx,0,8,84,87,CE,54,82,B8,02,BD,
688590405,000004F7,false,Rx,0,8,00,23,08,00,90,64,06,F0,
688590579,000001C7,false,Rx,0,4,AA,A0,FF,C0,00,00,00,00,
688590833,00000428,false,Rx,0,8,00,00,00,7F,00,00,00,00,
688591009,0000042F,false,Rx,0,2,00,20,00,00,00,00,00,00,
688591833,00000157,false,Rx,0,8,D5,F7,09,C4,FF,E0,00,80,
688593482,0000019F,false,Rx,0,8,00,00,7D,02,00,6A,90,FE,
688598458,000001A1,false,Rx,0,8,AF,08,50,41,35,0C,80,20,
688599606,00000155,false,Rx,0,8,84,87,CE,54,82,B8,02,BD,
688600353,000001C7,false,Rx,0,4,AA,A0,FF,C0,00,00,00,00,
688601777,00000157,false,Rx,0,8,D5,47,09,C4,FF,E0,00,80,
688603448,0000019F,false,Rx,0,8,00,00,7D,07,00,6A,90,FE,
688608486,000001A1,false,Rx,0,8,AF,08,64,41,35,0C,80,20,
688609603,00000155,false,Rx,0,8,84,87,CE,54,82,B8,02,BD,
688610354,000001C7,false,Rx,0,4,AA,A0,FF,C0,00,00,00,00,
688611853,00000157,false,Rx,0,8,D5,97,09,C4,FF,E0,00,80,
688613455,0000019F,false,Rx,0,8,00,00,7D,0C,00,6A,90,FE,
688618456,000001A1,false,Rx,0,8,AF,08,64,41,35,0C,80,20,
688619604,00000155,false,Rx,0,8,84,87,CE,54,82,B8,02,BD,
688620352,000001C7,false,Rx,0,4,AA,A0,FF,C0,00,00,00,00,
688621773,00000157,false,Rx,0,8,D5,E7,09,C4,FF,E0,00,80,
688623493,0000019F,false,Rx,0,8,00,00,7D,01,00,6A,90,FE,
688628451,000001A1,false,Rx,0,8,AF,08,64,41,35,0C,80,20,
688629596,00000155,false,Rx,0,8,84,87,CE,54,82,B8,02,BD,
688630347,000001C7,false,Rx,0,4,AA,A0,FF,C0,00,00,00,00,
688631827,00000157,false,Rx,0,8,D5,37,09,C4,FF,E0,00,80,
688633474,0000019F,false,Rx,0,8,00,00,7D,06,00,6A,90,FE,
688633725,00000419,false,Rx,0,6,5E,07,2A,E6,52,00,00,00,
688638450,000001A1,false,Rx,0,8,AF,08,64,41,35,0C,80,20,
688639549,00000155,false,Rx,0,8,84,87,CE,54,82,B8,02,BD,
688639800,00000424,false,Rx,0,8,11,40,56,C8,3E,5E,55,3F,
688640028,00000425,false,Rx,0,8,2A,B3,44,9C,42,12,F9,08,
688640373,000001C7,false,Rx,0,4,AA,A0,FF,C0,00,00,00,00,
688640776,00000445,false,Rx,0,7,80,55,55,65,04,82,00,00,
688641773,00000157,false,Rx,0,8,D5,87,09,C4,FF,E0,00,80,
688643488,0000019F,false,Rx,0,8,00,00,7D,0B,00,6A,90,FE,
688648450,000001A1,false,Rx,0,8,AF,08,64,41,35,0C,80,20,
688649573,00000155,false,Rx,0,8,84,87,CE,54,82,B8,02,BD,
688650373,000001C7,false,Rx,0,4,AA,A0,FF,C0,00,00,00,00,
688651823,00000157,false,Rx,0,8,D5,D7,09,C4,FF,E0,00,80,
688653450,0000019F,false,Rx,0,8,00,00,7D,00,00,6A,90,FE,
688656675,00000423,false,Rx,0,8,07,1D,00,02,5D,80,5D,D9,
688658447,000001A1,false,Rx,0,8,AF,08,64,41,35,0C,80,20,
